<Qucs Dataset 0.0.18>
<indep match 1>
  +1.11583984503e+03
</indep>
<indep frequency 201>
  +5.00000000000e+08
  +5.15000000000e+08
  +5.30000000000e+08
  +5.45000000000e+08
  +5.60000000000e+08
  +5.75000000000e+08
  +5.90000000000e+08
  +6.05000000000e+08
  +6.20000000000e+08
  +6.35000000000e+08
  +6.50000000000e+08
  +6.65000000000e+08
  +6.80000000000e+08
  +6.95000000000e+08
  +7.10000000000e+08
  +7.25000000000e+08
  +7.40000000000e+08
  +7.55000000000e+08
  +7.70000000000e+08
  +7.85000000000e+08
  +8.00000000000e+08
  +8.15000000000e+08
  +8.30000000000e+08
  +8.45000000000e+08
  +8.60000000000e+08
  +8.75000000000e+08
  +8.90000000000e+08
  +9.05000000000e+08
  +9.20000000000e+08
  +9.35000000000e+08
  +9.50000000000e+08
  +9.65000000000e+08
  +9.80000000000e+08
  +9.95000000000e+08
  +1.01000000000e+09
  +1.02500000000e+09
  +1.04000000000e+09
  +1.05500000000e+09
  +1.07000000000e+09
  +1.08500000000e+09
  +1.10000000000e+09
  +1.11500000000e+09
  +1.13000000000e+09
  +1.14500000000e+09
  +1.16000000000e+09
  +1.17500000000e+09
  +1.19000000000e+09
  +1.20500000000e+09
  +1.22000000000e+09
  +1.23500000000e+09
  +1.25000000000e+09
  +1.26500000000e+09
  +1.28000000000e+09
  +1.29500000000e+09
  +1.31000000000e+09
  +1.32500000000e+09
  +1.34000000000e+09
  +1.35500000000e+09
  +1.37000000000e+09
  +1.38500000000e+09
  +1.40000000000e+09
  +1.41500000000e+09
  +1.43000000000e+09
  +1.44500000000e+09
  +1.46000000000e+09
  +1.47500000000e+09
  +1.49000000000e+09
  +1.50500000000e+09
  +1.52000000000e+09
  +1.53500000000e+09
  +1.55000000000e+09
  +1.56500000000e+09
  +1.58000000000e+09
  +1.59500000000e+09
  +1.61000000000e+09
  +1.62500000000e+09
  +1.64000000000e+09
  +1.65500000000e+09
  +1.67000000000e+09
  +1.68500000000e+09
  +1.70000000000e+09
  +1.71500000000e+09
  +1.73000000000e+09
  +1.74500000000e+09
  +1.76000000000e+09
  +1.77500000000e+09
  +1.79000000000e+09
  +1.80500000000e+09
  +1.82000000000e+09
  +1.83500000000e+09
  +1.85000000000e+09
  +1.86500000000e+09
  +1.88000000000e+09
  +1.89500000000e+09
  +1.91000000000e+09
  +1.92500000000e+09
  +1.94000000000e+09
  +1.95500000000e+09
  +1.97000000000e+09
  +1.98500000000e+09
  +2.00000000000e+09
  +2.01500000000e+09
  +2.03000000000e+09
  +2.04500000000e+09
  +2.06000000000e+09
  +2.07500000000e+09
  +2.09000000000e+09
  +2.10500000000e+09
  +2.12000000000e+09
  +2.13500000000e+09
  +2.15000000000e+09
  +2.16500000000e+09
  +2.18000000000e+09
  +2.19500000000e+09
  +2.21000000000e+09
  +2.22500000000e+09
  +2.24000000000e+09
  +2.25500000000e+09
  +2.27000000000e+09
  +2.28500000000e+09
  +2.30000000000e+09
  +2.31500000000e+09
  +2.33000000000e+09
  +2.34500000000e+09
  +2.36000000000e+09
  +2.37500000000e+09
  +2.39000000000e+09
  +2.40500000000e+09
  +2.42000000000e+09
  +2.43500000000e+09
  +2.45000000000e+09
  +2.46500000000e+09
  +2.48000000000e+09
  +2.49500000000e+09
  +2.51000000000e+09
  +2.52500000000e+09
  +2.54000000000e+09
  +2.55500000000e+09
  +2.57000000000e+09
  +2.58500000000e+09
  +2.60000000000e+09
  +2.61500000000e+09
  +2.63000000000e+09
  +2.64500000000e+09
  +2.66000000000e+09
  +2.67500000000e+09
  +2.69000000000e+09
  +2.70500000000e+09
  +2.72000000000e+09
  +2.73500000000e+09
  +2.75000000000e+09
  +2.76500000000e+09
  +2.78000000000e+09
  +2.79500000000e+09
  +2.81000000000e+09
  +2.82500000000e+09
  +2.84000000000e+09
  +2.85500000000e+09
  +2.87000000000e+09
  +2.88500000000e+09
  +2.90000000000e+09
  +2.91500000000e+09
  +2.93000000000e+09
  +2.94500000000e+09
  +2.96000000000e+09
  +2.97500000000e+09
  +2.99000000000e+09
  +3.00500000000e+09
  +3.02000000000e+09
  +3.03500000000e+09
  +3.05000000000e+09
  +3.06500000000e+09
  +3.08000000000e+09
  +3.09500000000e+09
  +3.11000000000e+09
  +3.12500000000e+09
  +3.14000000000e+09
  +3.15500000000e+09
  +3.17000000000e+09
  +3.18500000000e+09
  +3.20000000000e+09
  +3.21500000000e+09
  +3.23000000000e+09
  +3.24500000000e+09
  +3.26000000000e+09
  +3.27500000000e+09
  +3.29000000000e+09
  +3.30500000000e+09
  +3.32000000000e+09
  +3.33500000000e+09
  +3.35000000000e+09
  +3.36500000000e+09
  +3.38000000000e+09
  +3.39500000000e+09
  +3.41000000000e+09
  +3.42500000000e+09
  +3.44000000000e+09
  +3.45500000000e+09
  +3.47000000000e+09
  +3.48500000000e+09
  +3.50000000000e+09
</indep>
<dep Z[1,1] frequency>
  +2.00000000000e+01+j5.20000000000e+00
  +1.99280000000e+01+j5.24380000000e+00
  +1.98560000000e+01+j5.28760000000e+00
  +1.97840000000e+01+j5.33140000000e+00
  +1.97120000000e+01+j5.37520000000e+00
  +1.96400000000e+01+j5.41900000000e+00
  +1.95680000000e+01+j5.46280000000e+00
  +1.94960000000e+01+j5.50660000000e+00
  +1.94240000000e+01+j5.55040000000e+00
  +1.93520000000e+01+j5.59420000000e+00
  +1.92800000000e+01+j5.63800000000e+00
  +1.92080000000e+01+j5.68180000000e+00
  +1.91360000000e+01+j5.72560000000e+00
  +1.90640000000e+01+j5.76940000000e+00
  +1.89920000000e+01+j5.81320000000e+00
  +1.89200000000e+01+j5.85700000000e+00
  +1.88480000000e+01+j5.90080000000e+00
  +1.87760000000e+01+j5.94460000000e+00
  +1.87040000000e+01+j5.98840000000e+00
  +1.86320000000e+01+j6.03220000000e+00
  +1.85600000000e+01+j6.07600000000e+00
  +1.84880000000e+01+j6.11980000000e+00
  +1.84160000000e+01+j6.16360000000e+00
  +1.83440000000e+01+j6.20740000000e+00
  +1.82720000000e+01+j6.25120000000e+00
  +1.82000000000e+01+j6.29500000000e+00
  +1.81280000000e+01+j6.33880000000e+00
  +1.80560000000e+01+j6.38260000000e+00
  +1.79840000000e+01+j6.42640000000e+00
  +1.79120000000e+01+j6.47020000000e+00
  +1.78400000000e+01+j6.51400000000e+00
  +1.77680000000e+01+j6.55780000000e+00
  +1.76960000000e+01+j6.60160000000e+00
  +1.76240000000e+01+j6.64540000000e+00
  +1.75840000000e+01+j6.59080000000e+00
  +1.75600000000e+01+j6.48700000000e+00
  +1.75360000000e+01+j6.38320000000e+00
  +1.75120000000e+01+j6.27940000000e+00
  +1.74880000000e+01+j6.17560000000e+00
  +1.74640000000e+01+j6.07180000000e+00
  +1.74400000000e+01+j5.96800000000e+00
  +1.74160000000e+01+j5.86420000000e+00
  +1.73920000000e+01+j5.76040000000e+00
  +1.73680000000e+01+j5.65660000000e+00
  +1.73440000000e+01+j5.55280000000e+00
  +1.73200000000e+01+j5.44900000000e+00
  +1.72960000000e+01+j5.34520000000e+00
  +1.72720000000e+01+j5.24140000000e+00
  +1.72480000000e+01+j5.13760000000e+00
  +1.72240000000e+01+j5.03380000000e+00
  +1.72000000000e+01+j4.93000000000e+00
  +1.71760000000e+01+j4.82620000000e+00
  +1.71520000000e+01+j4.72240000000e+00
  +1.71280000000e+01+j4.61860000000e+00
  +1.71040000000e+01+j4.51480000000e+00
  +1.70800000000e+01+j4.41100000000e+00
  +1.70560000000e+01+j4.30720000000e+00
  +1.70320000000e+01+j4.20340000000e+00
  +1.70080000000e+01+j4.09960000000e+00
  +1.69840000000e+01+j3.99580000000e+00
  +1.69600000000e+01+j3.89200000000e+00
  +1.69360000000e+01+j3.78820000000e+00
  +1.69120000000e+01+j3.68440000000e+00
  +1.68880000000e+01+j3.58060000000e+00
  +1.68640000000e+01+j3.47680000000e+00
  +1.68400000000e+01+j3.37300000000e+00
  +1.68160000000e+01+j3.26920000000e+00
  +1.67561000000e+01+j3.20560000000e+00
  +1.66244000000e+01+j3.22240000000e+00
  +1.64927000000e+01+j3.23920000000e+00
  +1.63610000000e+01+j3.25600000000e+00
  +1.62293000000e+01+j3.27280000000e+00
  +1.60976000000e+01+j3.28960000000e+00
  +1.59659000000e+01+j3.30640000000e+00
  +1.58342000000e+01+j3.32320000000e+00
  +1.57025000000e+01+j3.34000000000e+00
  +1.55708000000e+01+j3.35680000000e+00
  +1.54391000000e+01+j3.37360000000e+00
  +1.53074000000e+01+j3.39040000000e+00
  +1.51757000000e+01+j3.40720000000e+00
  +1.50440000000e+01+j3.42400000000e+00
  +1.49123000000e+01+j3.44080000000e+00
  +1.47806000000e+01+j3.45760000000e+00
  +1.46489000000e+01+j3.47440000000e+00
  +1.45172000000e+01+j3.49120000000e+00
  +1.43855000000e+01+j3.50800000000e+00
  +1.42538000000e+01+j3.52480000000e+00
  +1.41221000000e+01+j3.54160000000e+00
  +1.39904000000e+01+j3.55840000000e+00
  +1.38587000000e+01+j3.57520000000e+00
  +1.37270000000e+01+j3.59200000000e+00
  +1.35953000000e+01+j3.60880000000e+00
  +1.34636000000e+01+j3.62560000000e+00
  +1.33319000000e+01+j3.64240000000e+00
  +1.32002000000e+01+j3.65920000000e+00
  +1.30685000000e+01+j3.67600000000e+00
  +1.29368000000e+01+j3.69280000000e+00
  +1.28051000000e+01+j3.70960000000e+00
  +1.26734000000e+01+j3.72640000000e+00
  +1.25417000000e+01+j3.74320000000e+00
  +1.24100000000e+01+j3.76000000000e+00
  +1.22783000000e+01+j3.77680000000e+00
  +1.21466000000e+01+j3.79360000000e+00
  +1.20149000000e+01+j3.81040000000e+00
  +1.18832000000e+01+j3.82720000000e+00
  +1.17515000000e+01+j3.84400000000e+00
  +1.16198000000e+01+j3.86080000000e+00
  +1.14881000000e+01+j3.87760000000e+00
  +1.13564000000e+01+j3.89440000000e+00
  +1.12247000000e+01+j3.91120000000e+00
  +1.10930000000e+01+j3.92800000000e+00
  +1.09613000000e+01+j3.94480000000e+00
  +1.08296000000e+01+j3.96160000000e+00
  +1.06979000000e+01+j3.97840000000e+00
  +1.05662000000e+01+j3.99520000000e+00
  +1.04345000000e+01+j4.01200000000e+00
  +1.03028000000e+01+j4.02880000000e+00
  +1.01711000000e+01+j4.04560000000e+00
  +1.00394000000e+01+j4.06240000000e+00
  +9.90770000000e+00+j4.07920000000e+00
  +9.77600000000e+00+j4.09600000000e+00
  +9.64430000000e+00+j4.11280000000e+00
  +9.51260000000e+00+j4.12960000000e+00
  +9.38090000000e+00+j4.14640000000e+00
  +9.24920000000e+00+j4.16320000000e+00
  +9.11750000000e+00+j4.18000000000e+00
  +8.98580000000e+00+j4.19680000000e+00
  +8.85410000000e+00+j4.21360000000e+00
  +8.72240000000e+00+j4.23040000000e+00
  +8.59070000000e+00+j4.24720000000e+00
  +8.45900000000e+00+j4.26400000000e+00
  +8.32730000000e+00+j4.28080000000e+00
  +8.19560000000e+00+j4.29760000000e+00
  +8.06390000000e+00+j4.31440000000e+00
  +7.99830000000e+00+j4.27170000000e+00
  +7.96575000000e+00+j4.19925000000e+00
  +7.93320000000e+00+j4.12680000000e+00
  +7.90065000000e+00+j4.05435000000e+00
  +7.86810000000e+00+j3.98190000000e+00
  +7.83555000000e+00+j3.90945000000e+00
  +7.80300000000e+00+j3.83700000000e+00
  +7.77045000000e+00+j3.76455000000e+00
  +7.73790000000e+00+j3.69210000000e+00
  +7.70535000000e+00+j3.61965000000e+00
  +7.67280000000e+00+j3.54720000000e+00
  +7.64025000000e+00+j3.47475000000e+00
  +7.60770000000e+00+j3.40230000000e+00
  +7.57515000000e+00+j3.32985000000e+00
  +7.54260000000e+00+j3.25740000000e+00
  +7.51005000000e+00+j3.18495000000e+00
  +7.47750000000e+00+j3.11250000000e+00
  +7.44495000000e+00+j3.04005000000e+00
  +7.41240000000e+00+j2.96760000000e+00
  +7.37985000000e+00+j2.89515000000e+00
  +7.34730000000e+00+j2.82270000000e+00
  +7.31475000000e+00+j2.75025000000e+00
  +7.28220000000e+00+j2.67780000000e+00
  +7.24965000000e+00+j2.60535000000e+00
  +7.21710000000e+00+j2.53290000000e+00
  +7.18455000000e+00+j2.46045000000e+00
  +7.15200000000e+00+j2.38800000000e+00
  +7.11945000000e+00+j2.31555000000e+00
  +7.08690000000e+00+j2.24310000000e+00
  +7.05435000000e+00+j2.17065000000e+00
  +7.02180000000e+00+j2.09820000000e+00
  +6.98925000000e+00+j2.02575000000e+00
  +6.95670000000e+00+j1.95330000000e+00
  +6.92415000000e+00+j1.88085000000e+00
  +6.89160000000e+00+j1.80840000000e+00
  +6.85905000000e+00+j1.73595000000e+00
  +6.82650000000e+00+j1.66350000000e+00
  +6.79395000000e+00+j1.59105000000e+00
  +6.76140000000e+00+j1.51860000000e+00
  +6.72885000000e+00+j1.44615000000e+00
  +6.69630000000e+00+j1.37370000000e+00
  +6.66375000000e+00+j1.30125000000e+00
  +6.63120000000e+00+j1.22880000000e+00
  +6.59865000000e+00+j1.15635000000e+00
  +6.56610000000e+00+j1.08390000000e+00
  +6.53355000000e+00+j1.01145000000e+00
  +6.50100000000e+00+j9.39000000000e-01
  +6.46845000000e+00+j8.66550000000e-01
  +6.43590000000e+00+j7.94100000000e-01
  +6.40335000000e+00+j7.21650000000e-01
  +6.37080000000e+00+j6.49200000000e-01
  +6.33825000000e+00+j5.76750000000e-01
  +6.30570000000e+00+j5.04300000000e-01
  +6.27315000000e+00+j4.31850000000e-01
  +6.24060000000e+00+j3.59400000000e-01
  +6.20805000000e+00+j2.86950000000e-01
  +6.17550000000e+00+j2.14500000000e-01
  +6.14295000000e+00+j1.42050000000e-01
  +6.11040000000e+00+j6.96000000000e-02
  +6.07785000000e+00-j2.85000000000e-03
  +6.04530000000e+00-j7.53000000000e-02
  +6.01275000000e+00-j1.47750000000e-01
  +5.98020000000e+00-j2.20200000000e-01
  +5.94765000000e+00-j2.92650000000e-01
  +5.91510000000e+00-j3.65100000000e-01
  +5.88255000000e+00-j4.37550000000e-01
  +5.85000000000e+00-j5.10000000000e-01
</dep>
<dep Z[1,2] frequency>
  +0.00000000000e+00
  +0.00000000000e+00
  +0.00000000000e+00
  +0.00000000000e+00
  +0.00000000000e+00
  +0.00000000000e+00
  +0.00000000000e+00
  +0.00000000000e+00
  +0.00000000000e+00
  +0.00000000000e+00
  +0.00000000000e+00
  +0.00000000000e+00
  +0.00000000000e+00
  +0.00000000000e+00
  +0.00000000000e+00
  +0.00000000000e+00
  +0.00000000000e+00
  +0.00000000000e+00
  +0.00000000000e+00
  +0.00000000000e+00
  +0.00000000000e+00
  +0.00000000000e+00
  +0.00000000000e+00
  +0.00000000000e+00
  +0.00000000000e+00
  +0.00000000000e+00
  +0.00000000000e+00
  +0.00000000000e+00
  +0.00000000000e+00
  +0.00000000000e+00
  +0.00000000000e+00
  +0.00000000000e+00
  +0.00000000000e+00
  +0.00000000000e+00
  +0.00000000000e+00
  +0.00000000000e+00
  +0.00000000000e+00
  +0.00000000000e+00
  +0.00000000000e+00
  +0.00000000000e+00
  +0.00000000000e+00
  +0.00000000000e+00
  +0.00000000000e+00
  +0.00000000000e+00
  +0.00000000000e+00
  +0.00000000000e+00
  +0.00000000000e+00
  +0.00000000000e+00
  +0.00000000000e+00
  +0.00000000000e+00
  +0.00000000000e+00
  +0.00000000000e+00
  +0.00000000000e+00
  +0.00000000000e+00
  +0.00000000000e+00
  +0.00000000000e+00
  +0.00000000000e+00
  +0.00000000000e+00
  +0.00000000000e+00
  +0.00000000000e+00
  +0.00000000000e+00
  +0.00000000000e+00
  +0.00000000000e+00
  +0.00000000000e+00
  +0.00000000000e+00
  +0.00000000000e+00
  +0.00000000000e+00
  +0.00000000000e+00
  +0.00000000000e+00
  +0.00000000000e+00
  +0.00000000000e+00
  +0.00000000000e+00
  +0.00000000000e+00
  +0.00000000000e+00
  +0.00000000000e+00
  +0.00000000000e+00
  +0.00000000000e+00
  +0.00000000000e+00
  +0.00000000000e+00
  +0.00000000000e+00
  +0.00000000000e+00
  +0.00000000000e+00
  +0.00000000000e+00
  +0.00000000000e+00
  +0.00000000000e+00
  +0.00000000000e+00
  +0.00000000000e+00
  +0.00000000000e+00
  +0.00000000000e+00
  +0.00000000000e+00
  +0.00000000000e+00
  +0.00000000000e+00
  +0.00000000000e+00
  +0.00000000000e+00
  +0.00000000000e+00
  +0.00000000000e+00
  +0.00000000000e+00
  +0.00000000000e+00
  +0.00000000000e+00
  +0.00000000000e+00
  +0.00000000000e+00
  +0.00000000000e+00
  +0.00000000000e+00
  +0.00000000000e+00
  +0.00000000000e+00
  +0.00000000000e+00
  +0.00000000000e+00
  +0.00000000000e+00
  +0.00000000000e+00
  +0.00000000000e+00
  +0.00000000000e+00
  +0.00000000000e+00
  +0.00000000000e+00
  +0.00000000000e+00
  +0.00000000000e+00
  +0.00000000000e+00
  +0.00000000000e+00
  +0.00000000000e+00
  +0.00000000000e+00
  +0.00000000000e+00
  +0.00000000000e+00
  +0.00000000000e+00
  +0.00000000000e+00
  +0.00000000000e+00
  +0.00000000000e+00
  +0.00000000000e+00
  +0.00000000000e+00
  +0.00000000000e+00
  +0.00000000000e+00
  +0.00000000000e+00
  +0.00000000000e+00
  +0.00000000000e+00
  +0.00000000000e+00
  +0.00000000000e+00
  +0.00000000000e+00
  +0.00000000000e+00
  +0.00000000000e+00
  +0.00000000000e+00
  +0.00000000000e+00
  +0.00000000000e+00
  +0.00000000000e+00
  +0.00000000000e+00
  +0.00000000000e+00
  +0.00000000000e+00
  +0.00000000000e+00
  +0.00000000000e+00
  +0.00000000000e+00
  +0.00000000000e+00
  +0.00000000000e+00
  +0.00000000000e+00
  +0.00000000000e+00
  +0.00000000000e+00
  +0.00000000000e+00
  +0.00000000000e+00
  +0.00000000000e+00
  +0.00000000000e+00
  +0.00000000000e+00
  +0.00000000000e+00
  +0.00000000000e+00
  +0.00000000000e+00
  +0.00000000000e+00
  +0.00000000000e+00
  +0.00000000000e+00
  +0.00000000000e+00
  +0.00000000000e+00
  +0.00000000000e+00
  +0.00000000000e+00
  +0.00000000000e+00
  +0.00000000000e+00
  +0.00000000000e+00
  +0.00000000000e+00
  +0.00000000000e+00
  +0.00000000000e+00
  +0.00000000000e+00
  +0.00000000000e+00
  +0.00000000000e+00
  +0.00000000000e+00
  +0.00000000000e+00
  +0.00000000000e+00
  +0.00000000000e+00
  +0.00000000000e+00
  +0.00000000000e+00
  +0.00000000000e+00
  +0.00000000000e+00
  +0.00000000000e+00
  +0.00000000000e+00
  +0.00000000000e+00
  +0.00000000000e+00
  +0.00000000000e+00
  +0.00000000000e+00
  +0.00000000000e+00
  +0.00000000000e+00
  +0.00000000000e+00
  +0.00000000000e+00
  +0.00000000000e+00
  +0.00000000000e+00
  +0.00000000000e+00
  +0.00000000000e+00
  +0.00000000000e+00
  +0.00000000000e+00
  +0.00000000000e+00
</dep>
<dep Z[2,1] frequency>
  +0.00000000000e+00
  +0.00000000000e+00
  +0.00000000000e+00
  +0.00000000000e+00
  +0.00000000000e+00
  +0.00000000000e+00
  +0.00000000000e+00
  +0.00000000000e+00
  +0.00000000000e+00
  +0.00000000000e+00
  +0.00000000000e+00
  +0.00000000000e+00
  +0.00000000000e+00
  +0.00000000000e+00
  +0.00000000000e+00
  +0.00000000000e+00
  +0.00000000000e+00
  +0.00000000000e+00
  +0.00000000000e+00
  +0.00000000000e+00
  +0.00000000000e+00
  +0.00000000000e+00
  +0.00000000000e+00
  +0.00000000000e+00
  +0.00000000000e+00
  +0.00000000000e+00
  +0.00000000000e+00
  +0.00000000000e+00
  +0.00000000000e+00
  +0.00000000000e+00
  +0.00000000000e+00
  +0.00000000000e+00
  +0.00000000000e+00
  +0.00000000000e+00
  +0.00000000000e+00
  +0.00000000000e+00
  +0.00000000000e+00
  +0.00000000000e+00
  +0.00000000000e+00
  +0.00000000000e+00
  +0.00000000000e+00
  +0.00000000000e+00
  +0.00000000000e+00
  +0.00000000000e+00
  +0.00000000000e+00
  +0.00000000000e+00
  +0.00000000000e+00
  +0.00000000000e+00
  +0.00000000000e+00
  +0.00000000000e+00
  +0.00000000000e+00
  +0.00000000000e+00
  +0.00000000000e+00
  +0.00000000000e+00
  +0.00000000000e+00
  +0.00000000000e+00
  +0.00000000000e+00
  +0.00000000000e+00
  +0.00000000000e+00
  +0.00000000000e+00
  +0.00000000000e+00
  +0.00000000000e+00
  +0.00000000000e+00
  +0.00000000000e+00
  +0.00000000000e+00
  +0.00000000000e+00
  +0.00000000000e+00
  +0.00000000000e+00
  +0.00000000000e+00
  +0.00000000000e+00
  +0.00000000000e+00
  +0.00000000000e+00
  +0.00000000000e+00
  +0.00000000000e+00
  +0.00000000000e+00
  +0.00000000000e+00
  +0.00000000000e+00
  +0.00000000000e+00
  +0.00000000000e+00
  +0.00000000000e+00
  +0.00000000000e+00
  +0.00000000000e+00
  +0.00000000000e+00
  +0.00000000000e+00
  +0.00000000000e+00
  +0.00000000000e+00
  +0.00000000000e+00
  +0.00000000000e+00
  +0.00000000000e+00
  +0.00000000000e+00
  +0.00000000000e+00
  +0.00000000000e+00
  +0.00000000000e+00
  +0.00000000000e+00
  +0.00000000000e+00
  +0.00000000000e+00
  +0.00000000000e+00
  +0.00000000000e+00
  +0.00000000000e+00
  +0.00000000000e+00
  +0.00000000000e+00
  +0.00000000000e+00
  +0.00000000000e+00
  +0.00000000000e+00
  +0.00000000000e+00
  +0.00000000000e+00
  +0.00000000000e+00
  +0.00000000000e+00
  +0.00000000000e+00
  +0.00000000000e+00
  +0.00000000000e+00
  +0.00000000000e+00
  +0.00000000000e+00
  +0.00000000000e+00
  +0.00000000000e+00
  +0.00000000000e+00
  +0.00000000000e+00
  +0.00000000000e+00
  +0.00000000000e+00
  +0.00000000000e+00
  +0.00000000000e+00
  +0.00000000000e+00
  +0.00000000000e+00
  +0.00000000000e+00
  +0.00000000000e+00
  +0.00000000000e+00
  +0.00000000000e+00
  +0.00000000000e+00
  +0.00000000000e+00
  +0.00000000000e+00
  +0.00000000000e+00
  +0.00000000000e+00
  +0.00000000000e+00
  +0.00000000000e+00
  +0.00000000000e+00
  +0.00000000000e+00
  +0.00000000000e+00
  +0.00000000000e+00
  +0.00000000000e+00
  +0.00000000000e+00
  +0.00000000000e+00
  +0.00000000000e+00
  +0.00000000000e+00
  +0.00000000000e+00
  +0.00000000000e+00
  +0.00000000000e+00
  +0.00000000000e+00
  +0.00000000000e+00
  +0.00000000000e+00
  +0.00000000000e+00
  +0.00000000000e+00
  +0.00000000000e+00
  +0.00000000000e+00
  +0.00000000000e+00
  +0.00000000000e+00
  +0.00000000000e+00
  +0.00000000000e+00
  +0.00000000000e+00
