!Created with skrf (http://scikit-rf.org).
# GHz S RI R 50.0 
!freq ReS11 ImS11 ReS21 ImS21 ReS12 ImS12 ReS22 ImS22
0.13 -0.15415752417190498 0.09894956253238472 0.002024827143838423 0.0004511568945292651 -3.513699436464151e-05 -2.2596989259359227e-06 0.03508787894214291 0.04011752145312986
0.131 -0.1452865087623675 0.11411764441817245 0.0021107128398161995 0.00029754020547512574 -2.2613168308273814e-05 -6.0696026969625206e-05 0.03904913366171715 0.03680910168660224
0.132 -0.1362751118060684 0.12707859762425538 0.001973829242476804 7.615789740672303e-05 1.4180968289864293e-05 6.000433552707662e-05 0.04294955945501684 0.032436030336058075
0.133 -0.12372598765163076 0.13969318916554296 0.0021620122062888008 -0.0002539948742037387 1.2025060390469041e-05 -4.726773618046394e-05 0.04647702930600646 0.02848224984341879
0.134 -0.11180937267097513 0.15136051760048116 0.002029838423610603 -0.0002954960289524782 0.00012906455302541048 -5.579220377389671e-05 0.04969331655068841 0.023793012214877167
0.135 -0.09877094161023833 0.16319565201729483 0.0019201507683558998 -0.0006675372034301279 -9.933521547354517e-06 8.049580480314169e-07 0.052254081387094316 0.018927197869611296
0.136 -0.08437664137347396 0.17148187989663877 0.0018845708696461332 -0.0007409796581721546 6.6395126253553e-05 5.232335009257425e-05 0.05414068725337309 0.013754403382036777
0.137 -0.06929726914163285 0.17884706052093058 0.0018223036857001594 -0.001034005072063721 0.0001046113701319111 -2.3749870276942686e-05 0.05564321032104053 0.008079501881098806
0.138 -0.05353707372336888 0.18513293666392408 0.001812520305591251 -0.0012030603718912508 0.00012429647659645217 -4.968015123184425e-05 0.05687549378064882 0.0023692473751818974
0.139 -0.03688834872291389 0.1917274237281102 0.0017118316553194944 -0.0013557552267365307 -2.051317811710891e-05 -6.35900557758625e-05 0.05709325315443661 -0.003421163833382123
0.14 -0.02098588964924211 0.1941894574438228 0.0016009643573503087 -0.0015183252347475465 -8.808265131609253e-05 -4.8809311378168624e-05 0.056920880293590194 -0.008979582881795237
0.141 -0.0017388081659665438 0.1961821747921713 0.0014164295853986337 -0.0016922481856223009 -2.2463407211474984e-05 -0.00011548014183031083 0.056086514185548275 -0.0150519041309397
0.142 0.015542138713326244 0.19799933801435923 0.0011987527789105584 -0.0018475715527428794 -4.453778824739787e-05 2.0121281181403827e-05 0.05461568752574182 -0.020667553122452713
0.143 0.03287255815722919 0.1963564230341239 0.0010300286493350962 -0.0019543659359814963 4.899033586903468e-05 1.8424358853736736e-05 0.052725435636967195 -0.026014715327121837
0.144 0.0501491225167504 0.19456880518693256 0.0007026940554846801 -0.0020530408017091616 -4.113161276382716e-05 -2.7866193669683047e-05 0.05000656943164799 -0.03155417889308678
0.145 0.068786228544383 0.18983382399486276 0.0003983861899487778 -0.001983731395989892 -6.862265947934618e-05 -2.7790681933254792e-05 0.04698687858391085 -0.036496553810383255
0.146 0.08474373711940433 0.1844182884177221 0.000221013130700742 -0.00221763159854302 -0.00014229801547203417 1.5780552740091475e-05 0.04319565645780748 -0.04144406700998555
0.147 0.10090373125193057 0.1759735724094592 6.65409491758485e-05 -0.0020670912445129048 1.109927606229339e-05 -4.598314398022289e-05 0.03915535208856964 -0.04586401875365765
0.148 0.11619172450229383 0.1678559475375756 -0.00019135067639751145 -0.0023474318805135393 -1.0885798648957516e-05 -9.016021474372905e-06 0.034433597338502826 -0.04958167322203103
0.149 0.13292453167369847 0.15739721678029317 -0.00032077066833346356 -0.0021176770495714113 7.095673560454951e-05 -1.8602483791820135e-05 0.029618984462402406 -0.05302833874969467
0.15 0.14628201368864036 0.1460727292587243 -0.0005749869025667017 -0.002100560215352624 -4.800809176239597e-07 7.738024083984542e-05 0.024052693476520698 -0.05610012398226652
0.151 0.15833155252781822 0.13289274129815018 -0.000934520471199604 -0.0021059187245171013 3.381569559210032e-05 0.00014706642675358628 0.01865477154866838 -0.058510963824684396
0.152 0.17051908744354002 0.11939008798140516 -0.001042477225645966 -0.001917820997696409 -9.050852938604567e-05 8.515731951563298e-06 0.012772942170812578 -0.06029406809440216
0.153 0.18138292060824934 0.10449077068608614 -0.001220106250896878 -0.001820639040156141 4.723090250820067e-05 -5.479527153562807e-05 0.006877327829924609 -0.06132785676312148
0.154 0.19081953641219856 0.08862450364562527 -0.0014504224525536333 -0.0016666833587655348 -4.781303139381714e-06 -3.8292936955806234e-05 0.0004772775686434504 -0.06195075246190867
0.155 0.198487664596572 0.07269218298590692 -0.0016985517086449242 -0.0015193474381132567 0.00010398714939706531 6.274743221795298e-05 -0.005709392122241417 -0.061949451859600276
0.156 0.2056123653882565 0.055659352886483174 -0.0018533733692391388 -0.001423348315065348 3.356979625989325e-05 -1.7698468256145226e-05 -0.011502768420544564 -0.06138579940214738
0.157 0.21009702583655054 0.0367965958925505 -0.0019496135599645658 -0.0013364125808927414 6.643249506621402e-05 -4.527206005187453e-05 -0.017847104376227704 -0.06046267581465067
0.158 0.2134199575501031 0.018738722630888816 -0.002023230213877853 -0.0010956684387716175 -0.0001443700655389881 9.490669123007797e-05 -0.023773369614072733 -0.05837086218052911
0.159 0.21578979436401746 1.5516440594376147e-05 -0.0020017848845554167 -0.0007800231270154938 -2.1169239035575208e-05 1.4489793294503887e-05 -0.029670630470187944 -0.05696829942946326
0.16 0.2162428296589889 -0.018507548723084424 -0.002315123513675068 -0.0006611187841273638 -0.00011491601600959256 4.577837636416254e-06 -0.03509770653902978 -0.05324742209717956
0.161 0.21462302004232012 -0.03708803197242677 -0.0023486559213398168 -0.0003746172636926821 7.733354855082384e-05 -1.5558066699387755e-05 -0.039959182695613576 -0.049649272977175064
0.162 0.2113000476820059 -0.05648452744314079 -0.00244529469438699 9.77456354609803e-05 -3.654384503034016e-05 -6.568372727257356e-05 -0.045483330950896655 -0.04584446683573292
0.163 0.20713208347731496 -0.07546588571713227 -0.0021844340265919685 0.0002064297075468466 -9.951349663788511e-05 1.95970570008613e-05 -0.04969550424021016 -0.041515061439340056
0.164 0.20088236869040493 -0.09367298690865175 -0.0022820323428771323 0.00038956254218933416 3.689494156500449e-05 -5.4005250473146214e-05 -0.05360161788490392 -0.036325142878612146
0.165 0.1926884036267488 -0.11252224703334104 -0.002280430514617271 0.0006724513400697068 2.3728275810203693e-05 -2.8532128935558052e-05 -0.05733309553049546 -0.030735697250273915
0.166 0.18382376440150536 -0.13040300123092466 -0.0022360379439612162 0.0009023541606227301 4.769874906022454e-06 -2.799915767934481e-05 -0.06058568007913659 -0.02542511383699731
0.167 0.17178472282933066 -0.14529586784634382 -0.002224244020354339 0.0010825846091246935 -5.200056643780815e-05 -6.92425196197263e-05 -0.06275229070517635 -0.01944758455399761
0.168 0.1583915409188148 -0.16131234344831233 -0.0020226512065268485 0.001405615608012604 -2.7252130870761815e-05 -6.60981595223305e-05 -0.0646858407488775 -0.013114563128455287
0.169 0.1455334261704994 -0.17571470725619254 -0.0018439276693570888 0.0015200166706667018 -1.8247659726737147e-06 -5.2254460575530376e-05 -0.06634690921094374 -0.00700078211780349
0.17 0.1288068686013141 -0.18948352859841314 -0.0016345710214369842 0.0017418784347940507 -1.0655522099797681e-05 2.338986047509353e-05 -0.06658826350805731 -0.00038134593883766847
0.171 0.11351459646894502 -0.2009079360814397 -0.0015300924700451008 0.0019926485116362157 -3.2718744316977526e-05 -1.565535612456751e-05 -0.06685027921065889 0.00621622317777146
0.172 0.09464513295083565 -0.21230371343948656 -0.0014831261127924084 0.001994075618539955 -2.4367535875415814e-05 6.193487859247959e-05 -0.06591386397138092 0.01276572745679648
0.173 0.07504970716645953 -0.22084195211559748 -0.0011352880029325218 0.0021180659425723805 1.8640859660683352e-05 7.570924698715586e-05 -0.0651043762083275 0.01927513906175775
0.174 0.056242085483094166 -0.22715746064782616 -0.0009392525073541213 0.0021865804360213697 1.0608944117591245e-06 4.227618632276216e-05 -0.06294773797129577 0.025632442916205842
0.175 0.0349058491829262 -0.2341063654788415 -0.0006655514535193948 0.0022810878656222555 4.081281444519432e-05 -4.984176940554704e-06 -0.06037050268231113 0.03203623926960208
0.176 0.015298781822235005 -0.23587829175721223 -0.00045284436612056815 0.002344184541529268 -4.908668176427291e-05 -9.443606935267757e-05 -0.057493687453318995 0.037784251696901805
0.177 -0.007233740527815878 -0.2388965494521674 -0.00012541513822780863 0.0025743709471271825 -0.00012193113185131818 7.887607003054429e-05 -0.053664286550435876 0.04372367708792196
0.178 -0.029745146806500138 -0.23809361429933953 0.0001885599792969902 0.002516486953393883 -8.571756672466678e-05 3.6205763145486064e-05 -0.04945931794269156 0.048842732168970976
0.179 -0.05028277485776659 -0.23577134520303003 0.00029498831814076416 0.002564207471767546 3.168366055746429e-05 -6.0480665090336555e-05 -0.04463854822123122 0.05361251530973047
0.18 -0.07074807405377546 -0.23033894679485295 0.0006974019146274907 0.0025484528628964276 2.1465423478482365e-05 1.8194444357905112e-05 -0.03961881708135904 0.05800932411411703
0.181 -0.09217099144912153 -0.22477101757025225 0.000770233268412735 0.0024192669716242387 -7.019628603616455e-05 3.9790995116695e-05 -0.033619663736772026 0.062131686334606036
0.182 -0.11287532731095018 -0.21704821577729203 0.0012781279757494999 0.002421503665030439 9.151764229811497e-05 -5.406360630654406e-05 -0.027622720665016882 0.06538467654762511
0.183 -0.1326306014850732 -0.20650667024225086 0.0013197667338435905 0.0022911306927879006 1.6642030209004265e-05 -4.127145925327194e-05 -0.020781231195159386 0.06828859832542489
0.184 -0.15224325843192477 -0.1938253423732515 0.0016517687504634124 0.0020959933669127974 -4.369013509151036e-05 2.969526877120543e-05 -0.014062161947116137 0.07061977148437963
0.185 -0.170093754995225 -0.18032168362307532 0.0017264002929105043 0.0018784998163480012 3.0371635794794682e-05 5.105013003422474e-05 -0.006982084732568677 0.0717933971321735
0.186 -0.18603284104582712 -0.1645427384889238 0.0020390255716557387 0.0016731524109782395 2.3091845498073003e-05 -0.00015812281143510538 4.920605851652278e-05 0.07217405549203582
0.187 -0.2002590150387455 -0.14645844533435132 0.0022080563409681226 0.001504183319568528 -0.00016343816602898406 -2.3765672108211046e-05 0.007735383497944865 0.07245660674590926
0.188 -0.21499357081057638 -0.12922107228325216 0.002452317807986378 0.0012683198340952258 -4.7542701465603166e-05 1.3415427083980216e-05 0.01472685655192081 0.07205785412932658
0.189 -0.2271049700262688 -0.11019207100031521 0.002529035081920484 0.0010210945806027872 1.9025405543225898e-05 0.00012065401188072458 0.021978061325129198 0.07045851999546282
0.19 -0.23533259851262076 -0.0880969924057812 0.0026450527749612334 0.0007946449108968749 -2.7189372783798747e-05 -1.1584983044586974e-05 0.028896393706066795 0.06830858341372917
0.191 -0.24398258026908923 -0.06719684082494468 0.0025905386953736886 0.0003059053189944276 2.920679324458636e-06 1.8489391038481213e-05 0.036089466246996 0.06480981632057985
0.192 -0.24962861053752625 -0.04573802204688486 0.0026223530458467743 0.00026150638456970735 -5.325937557810939e-05 -6.746454053466608e-05 0.042805449638669335 0.061283568171929974
0.193 -0.25399496050513215 -0.022151884736711657 0.0027838952586916282 -0.00026927985267642375 5.097695214780468e-05 1.5651747983825878e-05 0.04951699785355672 0.057332796196036574
0.194 -0.2555084228515625 -3.1290757220035445e-17 0.0026420602246750875 -0.0005216072266634068 8.55206750319589e-05 -4.822376604228861e-05 0.054712862634842055 0.052226258536646065
0.195 -0.25509485845999735 0.02287880666982777 0.0026991754175982384 -0.0006761815837226729 -5.969935216401466e-05 1.6705218730792258e-05 0.060456954244221636 0.04659359014978539
0.196 -0.25327003607159143 0.04601269647815437 0.0025159330581783494 -0.00096853247650305 3.41967389800482e-05 7.962499933431937e-05 0.06480735429514227 0.04059756971076858
0.197 -0.24882237946165348 0.06893148396924301 0.002578735937698208 -0.001339166556443992 0.00014879294434378998 7.502962442020561e-05 0.06933821934214347 0.03383313993071409
0.198 -0.24335999705637174 0.09102639815281155 0.0024530082731814462 -0.0016248135515206479 2.6879132534493527e-05 0.00013156412060945472 0.07261756051660945 0.0268519208413815
0.199 -0.23457556441498903 0.11212246948873215 0.002087446483156827 -0.0016873197186369165 8.04697689198868e-05 -8.409998207076848e-05 0.0753476770804173 0.019397885459185513
0.2 -0.223207067269768 0.13320666207170032 0.0020013171780368846 -0.0021436579905873433 5.1723576475505284e-05 -5.0703996066777804e-05 0.07718373850369975 0.011613203964736425
0.201 -0.21343230118521486 0.15281132368789097 0.0017359503736855265 -0.0022309931455279843 -2.7507523343284164e-05 2.2880143210417922e-07 0.07787034755419543 0.004413143956317364
0.202 -0.19941829820699408 0.1726368678770941 0.0015762367637103163 -0.002474754567323791 -6.84253532501785e-06 8.051511310333835e-06 0.07855092044320959 -0.003898719118346949
0.203 -0.18413363851648246 0.1898971554101096 0.0013163225426154272 -0.0025510962977334474 1.3262886444402129e-05 6.0232991345705106e-05 0.0781466853071536 -0.012253683750044736
0.204 -0.16664893273160766 0.20711906412224493 0.0009447384035973206 -0.002354934072492833 4.1382952685415255e-05 -3.879115501015649e-05 0.07671030583020597 -0.019796792049372434
0.205 -0.15021600643077 0.2210102109003784 0.0008385155482996244 -0.0028900133033968574 -2.3853268474257278e-05 -2.639025338582145e-05 0.0747905567768844 -0.027552597181322667
0.206 -0.13066878120032424 0.23580854487357028 0.0005159960433185691 -0.002998021315831038 3.357000789150267e-05 2.5556136024239694e-05 0.0717458604363414 -0.03517917621250299
0.207 -0.10991024850406815 0.24586931785287197 0.00018741168994358657 -0.002789407540771797 8.429617008486512e-06 6.640685606308042e-05 0.06828017873263967 -0.04253361466727389
0.208 -0.08796092843559151 0.25427387768941323 -0.00010751816088981503 -0.0028976527004198815 -8.951845739758056e-05 7.758057770867913e-06 0.06379840214167999 -0.0492381789008585
0.209 -0.0672553090196161 0.26346281159683055 -0.00046758131423938344 -0.0027941557551064856 -7.215324867335007e-06 -1.3211544766900804e-05 0.05864522684680389 -0.05545879155427583
0.21 -0.04365528648093885 0.26955916766551014 -0.000505705337106968 -0.0026876170606415627 2.8971907650314755e-05 -7.87797998861743e-05 0.05278620637746895 -0.06140941816181872
0.211 -0.018709820409733596 0.2742802049110753 -0.0010687648031365445 -0.0026879274805661334 1.810111116995324e-05 -2.1624407898507202e-05 0.04656715783232896 -0.06677573712273106
0.212 0.004886524940900486 0.2767055134085827 -0.001346506559896743 -0.002602188688876468 -5.436411173059269e-05 4.383938874688053e-05 0.04004310282030579 -0.07114329097693606
0.213 0.03007851085732808 0.2758613795501529 -0.0015519138973206132 -0.0023741157174246887 6.105909827566912e-06 5.9219919443312065e-05 0.03262079903477849 -0.07512071995153063
0.214 0.05298324304737679 0.27427193226619573 -0.0017077635631898684 -0.002226857951058918 -5.480498520151351e-05 4.0354230577779745e-07 0.02506538481502807 -0.07830423992046959
0.215 0.07662363090060417 0.27013533491521907 -0.0020797707900510947 -0.002086019030920527 8.51820756381387e-06 -3.1886015398095226e-05 0.017118428621475126 -0.0809973698824018
0.216 0.10169587443405433 0.26182752353639227 -0.002266546682258428 -0.0019422366270743711 3.924373835451185e-05 9.454216320364232e-05 0.009342509957109515 -0.0817010057796793
0.217 0.1257251571051652 0.25692953734280394 -0.0024734436579416917 -0.001519442022157433 -4.116085229627428e-05 5.979329812001578e-05 0.0007467319677502421 -0.08297393484655384
0.218 0.14713894893803747 0.24367456780204863 -0.0025940322596354655 -0.0013279690117041312 -1.909490123807193e-05 2.3029295183976562e-05 -0.007318534828486542 -0.0833240830368779
0.219 0.1712068269627971 0.2317690666424071 -0.0028556944412552942 -0.0011388552194476266 -8.108240558148931e-05 -3.479646755435203e-05 -0.015785575486970686 -0.08207578731443106
0.22 0.19216811061059869 0.21766960008985528 -0.0027190554288659863 -0.0006909467886947995 7.298336578342336e-06 -4.197639678651537e-05 -0.02375795088024538 -0.0804067608365429
0.221 0.21158641176245008 0.20033612922236244 -0.0028518131455211137 -0.0005297590555912289 6.335700880743559e-05 1.1475772625779508e-05 -0.031644675593887464 -0.07801687433097514
0.222 0.2297461567998153 0.18208435902209055 -0.0030240712493251358 -9.775950190276529e-05 5.5936508360825665e-06 3.696243096525137e-05 -0.03966696597287215 -0.07433352982320368
0.223 0.24639115994060654 0.16199786988732479 -0.00303378685219149 0.00020092221692460734 -1.0357969610493406e-05 -3.1505391381455643e-05 -0.046949483532060285 -0.07108024607704046
0.224 0.26065101719502093 0.13964089855997044 -0.002866096696032258 0.00039603093624843725 4.4211383809909775e-06 -6.015952664281211e-05 -0.053940098024179824 -0.06612973007674564
0.225 0.2733767945004077 0.11715951612398788 -0.002880911760666242 0.0007258069644933042 -4.1738446019257036e-05 -7.114590411834223e-05 -0.06053685671780877 -0.06061945737867553
0.226 0.28515465185420075 0.09311469158029445 -0.002859782708810018 0.0010338157816288398 7.125952476041964e-05 -7.594799385424488e-05 -0.06633659210338719 -0.05428982981422244
0.227 0.2931407885390598 0.06702200154091031 -0.0027134546087414116 0.0012666562469353538 -5.005989232728122e-05 -0.000137801450148501 -0.07221705964568059 -0.04794116709052861
0.228 0.29908833592989675 0.04118321472047469 -0.0026206861283142703 0.0015494836237146298 3.230553964315208e-05 -6.025648166645032e-05 -0.07611920295874218 -0.04083346892538678
0.229 0.30299884372387753 0.01479802062755138 -0.002497984501123583 0.0018914606294488207 -4.0456648454558374e-05 -2.8262331841651198e-05 -0.08067084929295389 -0.03324755102614606
0.23 0.30407129542102357 -0.012703608116870484 -0.0021995264710091447 0.0022498842455678115 -1.724257279125095e-05 8.668426713931055e-05 -0.08387732880093472 -0.025531360807997915
0.231 0.30301234409207195 -0.0399422471743836 -0.001985787318861549 0.0023626409744386292 -6.882728389836778e-05 -3.863147489061328e-05 -0.08600587300700556 -0.0171929866697858
0.232 0.29953060569659995 -0.06635881046839469 -0.0017762807330806989 0.002359546198585966 0.00012927520152344183 2.0317103338804797e-05 -0.08768835362366062 -0.009047208897652918
0.233 0.2946619645877103 -0.09355851999086731 -0.001533549746935964 0.0027617104729377767 9.676297471688287e-05 -0.00011435636502162347 -0.08820287588645427 -0.00031269814943945694
0.234 0.2843121533662077 -0.11824881080577555 -0.0012825764724121336 0.0029181142799888948 9.712890784155991e-05 -2.889338595706379e-05 -0.08841259350714277 0.008269884358542444
0.235 0.27538953152817713 -0.14415310326415307 -0.0007540313535006648 0.002901744659602963 9.602195832955479e-05 6.067232947557443e-05 -0.0874517585258999 0.017097920341420384
0.236 0.2613938706203861 -0.1683736320107544 -0.0005089548439717914 0.0031011078876231417 -5.7810657473947414e-05 -0.0001071874072157965 -0.08578198900229696 0.025689938582274315
0.237 0.24477552440168387 -0.19183153300168596 -0.00014201534048927377 0.003293911282238924 7.723766410454426e-05 -1.6100482410725135e-05 -0.08314863270078673 0.03412293295558788
0.238 0.22740559811134267 -0.212291154443836 1.8169094623677625e-05 0.003098792217061758 7.423989302573239e-05 2.0465955385885402e-05 -0.08004434647916701 0.04207157031834496
0.239 0.20904426912897667 -0.2316902540098428 0.0003481635045211361 0.003074426017737838 -2.9111517216647874e-05 0.00013372771272661169 -0.075251164746489 0.05008850484432443
0.24 0.18750607238924 -0.2502814942250362 0.0008219852631495811 0.003009346919532573 -2.5268299470992962e-05 -5.755426365950662e-05 -0.07084281873422067 0.05743138789255437
