!Created with skrf (http://scikit-rf.org).
# GHz S RI R 50.0 
!freq ReS11 ImS11 ReS21 ImS21 ReS12 ImS12 ReS22 ImS22
0.13 0.05418219655527051 0.17184397297531795 5.488253660505008e-05 -0.00014999259130876443 2.0006096253627906e-05 8.929050372930895e-05 0.03303394970830559 -0.04144520227575864
0.131 0.07323314053650797 0.16833053328252184 -3.669013022698827e-05 -0.0002632775558753453 -4.933573388570309e-05 2.0026895357781847e-05 0.0282904330342688 -0.045157609607526475
0.132 0.08953804782567115 0.16096107539956953 -8.62008791991569e-05 -0.00020722765509952163 -4.602682659855635e-05 1.1742785497536368e-05 0.02336739252811219 -0.04834450205209847
0.133 0.105327652837887 0.15198400590350367 -8.753087389213762e-05 -8.926663514450399e-05 5.468960435894713e-05 3.678832806155845e-05 0.01744871316111137 -0.05101345117492028
0.134 0.12205638026189015 0.1407001489744927 -8.48489986795248e-06 -0.0002575758686614616 -6.800720524162422e-05 -4.895818225610424e-05 0.011659998317211715 -0.05316058063767276
0.135 0.13627419986834552 0.12851833109355898 -0.00011939557573546385 -0.00021837021278124565 -2.336390961178052e-06 9.491027033012368e-05 0.005103489782956041 -0.054400955098271676
0.136 0.14888453790413753 0.11369577846471039 -0.00014080255822122693 -0.00026678241426308 -1.2089576763543372e-05 3.1936176973370475e-05 -0.001117404636761978 -0.05480771757023002
0.137 0.16063147588852356 0.09904621724566777 -9.455384393295051e-05 -0.0002520049623563399 -7.20175629063066e-05 -6.941383229526584e-05 -0.007475885168108344 -0.0549037514329544
0.138 0.1708566544943383 0.08419564092292764 -7.912816419604092e-05 -0.0002925165346418676 -4.5784589631423765e-05 0.00010582965660887836 -0.013586859452909116 -0.05396074547797276
0.139 0.179688677208731 0.0662071577329074 -0.00015896276080894957 -0.00016269091867796606 3.753535709634968e-05 -6.030673876820688e-05 -0.019889389938535687 -0.05222828527885168
0.14 0.18620413234834474 0.047785077256684384 -0.000383610150430654 -8.724210286499e-05 2.776521087602868e-05 -2.0870696456772036e-05 -0.025288164296487375 -0.04999259050243412
0.141 0.19074592819214914 0.02891112917135278 -0.00032060409270277525 -0.00021251769717143577 -5.2108441892270764e-05 0.0002155576599489285 -0.031312296261169596 -0.047070289664028035
0.142 0.1933659695806176 0.009113787838006118 -0.000296805708208271 -0.0001679780194295916 5.661373089166504e-05 5.850538166319266e-05 -0.03704537616924482 -0.04332668909460999
0.143 0.1950519942730368 -0.00947481866468805 -0.0002998159297740402 -7.349449100290209e-05 -0.00011400770728758388 -8.8947477594818e-05 -0.041564640062270806 -0.038643262078790167
0.144 0.19444294035128706 -0.03002093529941756 -0.00044002403420175125 -5.250620101235974e-05 -2.054825940436916e-05 -1.654707384047867e-05 -0.04573031054284766 -0.03380970938957716
0.145 0.1914551840804184 -0.049482345325709894 -0.0004194521278341698 0.00013225274789882641 7.884158968513647e-05 9.532222749296431e-06 -0.04958000360213281 -0.028561965865545595
0.146 0.18599301999018242 -0.06967727769298834 -0.0003626890671047462 0.00011549823776576595 7.079000596105266e-05 -6.74805460398484e-05 -0.05283112980124465 -0.02300589986196655
0.147 0.1793606591110043 -0.08815084667057302 -0.00033280325643987346 0.00018057992878559742 -8.695840745336665e-05 2.1844963281519285e-05 -0.05537760436433796 -0.01679036718919913
0.148 0.1706677443991407 -0.10671786166119475 -0.0003396189148171828 0.0001354405317932649 6.672283234926117e-06 -3.0801560257537234e-05 -0.05721756791831584 -0.01072574295843968
0.149 0.15937065953412505 -0.12382429508593211 -0.00029422010024952633 -0.00013345448212475987 7.662838191769694e-05 4.642957874734943e-05 -0.05848514220939384 -0.0041457789809825046
0.15 0.1470697180300081 -0.13955442345662203 -0.00047925107120334355 0.00012757483127887566 0.00010772582339507562 -7.040782183823854e-05 -0.05870231339323134 0.0028036290135261483
0.151 0.13169220140118645 -0.15513167638789785 -0.000492828845602779 0.00028975554419418683 2.0863071620785498e-05 -3.397780521958421e-05 -0.05827868531437136 0.009474972748500995
0.152 0.11562769355300227 -0.169040517319463 -0.00043727621715457016 0.00044924410941999337 -1.906135097797055e-05 3.3551915336865336e-05 -0.05709432478536317 0.01624523100149725
0.153 0.0997263188409004 -0.1812638931025215 -0.0003256936458558858 0.0006579517255160565 -9.654997971048941e-05 0.00010470466620483784 -0.05502579127034365 0.022880381613680553
0.154 0.08021961451665655 -0.1924045971941027 -0.00020249492218159956 0.0005424991019071974 -8.335091361114528e-05 0.00015892327992509167 -0.05253613552592245 0.029130620710240588
0.155 0.05968060345021544 -0.1994295720209313 -6.056168177661918e-05 0.0006403960685744852 -4.4131699022900444e-05 -3.990010357889928e-05 -0.049013065281956966 0.03544696026567355
0.156 0.03956552548801833 -0.2057176602537333 -0.00012672439593769966 0.0006287927164686909 -1.602332400214636e-06 -6.509090464311954e-05 -0.044770085228412124 0.04088966211337693
0.157 0.018546205491858068 -0.21082522551390734 -0.00010141246961294793 0.0005367504462160218 -8.329869216893125e-05 -9.50885246953667e-05 -0.04016428176254509 0.04611475092915364
0.158 -0.00284050097557293 -0.21474867108881 1.6243614546735054e-05 0.0006301694054615685 -8.386194705460768e-06 -2.692367832133339e-05 -0.03484898579215367 0.05072040349026954
0.159 -0.026370290185494222 -0.21166627556494835 -8.755684678330655e-05 0.0004447720147919837 7.34607596582933e-05 -1.1117067491263658e-05 -0.028583403181663265 0.054917347709686225
0.16 -0.04852739034388606 -0.2092836618162527 -0.00016208522604443186 0.0006743233826665028 8.039254536089617e-05 5.240255506380417e-05 -0.022254624197045908 0.058236207295216516
0.161 -0.07166921405705826 -0.20406623970858517 -0.00024040357996733258 0.001093560382521182 -3.244728353388624e-05 5.172226864165173e-05 -0.015246099688338217 0.060918702189765556
0.162 -0.09361439170690443 -0.19803578778440015 0.0004010547917469875 0.0013590404087240428 -8.662231454174763e-06 3.8354434910085605e-05 -0.008298776736270212 0.06257388745558608
0.163 -0.11483317433071942 -0.18810963597155791 0.0008615201905467879 0.0011381819879930843 -3.3928071497047233e-06 7.33470433361474e-05 -0.0004769224277653985 0.06359302977612906
0.164 -0.13514519882605186 -0.1754797178433381 0.0011105179735601948 0.0007874505338619238 -3.752423116491237e-05 -5.10161248871705e-06 0.007090588511443364 0.06385849686790983
0.165 -0.1540290173500565 -0.16160514801304715 0.0009893496654088398 0.0004714816696699756 -9.696990053224948e-05 -7.717652740601714e-05 0.014578619099447854 0.06295109881204748
0.166 -0.17085296380641962 -0.1452386360006302 0.0010586236823697402 0.0001649239497235685 0.00010263134050935971 -4.6978986511682765e-05 0.022199081988185224 0.06108216180530191
0.167 -0.18676189556470052 -0.12538053335459928 0.0008309308404726919 4.7011399575347854e-05 -5.107821503139457e-06 -6.018609563095961e-06 0.029371391913898662 0.05819771644351478
0.168 -0.2007516260650518 -0.10548077842151624 0.0006657098674031975 5.795338505698892e-05 6.823086692901001e-05 -3.14266629400284e-05 0.03640593589507084 0.0548610423952208
0.169 -0.21150590397352165 -0.0841483783344844 0.0005809681779313585 0.0002638302380290408 -8.813325545478785e-05 -5.8213231579370893e-05 0.043267826367888174 0.05049606885588354
0.17 -0.22057709722233887 -0.06100952505955161 0.0008144845797669224 0.0004883153659268958 5.4403941560005636e-05 3.753842982433328e-05 0.049258403328986025 0.04492124790427834
0.171 -0.22727354862507884 -0.03698203693935796 0.0010732523908437497 0.0006514908166528827 5.979034636128113e-05 1.4687322374061118e-05 0.05453477168257698 0.039284825477711435
0.172 -0.23138645265606816 -0.012569414236965006 0.001695753742688737 0.0006573804425271618 -5.184870244276191e-05 -7.41551723852663e-05 0.059297565104626485 0.03251466686948417
0.173 -0.2319777057533212 0.011935421930910415 0.002291683581361769 0.0002700009803571982 9.956041121609544e-05 4.621935446000341e-05 0.06318618318421802 0.025152571108484557
0.174 -0.23086370318562546 0.03637163048967332 0.00258276429691346 -0.0004491724850866339 -5.085942462949128e-05 -6.00443665839701e-05 0.06653900888963676 0.017694217913968472
0.175 -0.22621977489617517 0.06184031354168063 0.00254367221323035 -0.0013166668580245186 -0.00010282333970162805 1.733646944956818e-05 0.06866618949696929 0.009391253937240359
0.176 -0.21926721988238382 0.08502751267440954 0.00195449455306286 -0.002314495852989329 0.00016906553178791986 5.814302896834997e-05 0.06946894002729057 0.001288906476321933
0.177 -0.20958899497194344 0.10935951025640839 0.0009110799823280302 -0.0028183926422926135 3.2283571618569606e-05 -6.617967909368049e-05 0.06954467466156287 -0.0074847564978548844
0.178 -0.19879406211964926 0.13177391447772216 -0.00034402267952770383 -0.00241439724696711 -7.65478978681381e-05 -1.0290168917635584e-05 0.06852464539260851 -0.015806014249121435
0.179 -0.1832204979903115 0.15289073555449653 -0.0012267150217252691 -0.0010758002008527086 4.096798314695657e-05 -2.98951126184125e-06 0.06635491253477559 -0.024152493860687033
0.18 -0.16686161624423376 0.1731678881939877 0.00014395437792070424 0.0006567486134177618 -3.455078799229144e-05 -4.191345740249881e-05 0.06339186874856384 -0.03249599617643825
0.181 -0.1493153588957746 0.19119553635513425 0.0027934701641911057 -0.000480177530141803 7.018205766398416e-05 3.8035937319936295e-06 0.05933648715481617 -0.039911231942217046
0.182 -0.12799660647583835 0.20608585582510658 0.0024542263935930634 -0.002855939149833268 -2.6146227514923103e-06 -0.00013646214008945898 0.05447394774824965 -0.04694422794346896
0.183 -0.1056573207511275 0.2182132663409489 0.0010054696553779125 -0.003957915196709574 7.879518330649742e-05 -4.7619525926444145e-05 0.0483651064872677 -0.05349445568445594
0.184 -0.08025830339006407 0.23053117905402357 -0.0003576144728911488 -0.00403682979755692 0.00012472682086595363 -5.965873816338539e-05 0.04142529048868807 -0.05926027969392045
0.185 -0.057904869336104475 0.2388939119265025 -0.0011714651392569836 -0.0036433948193218715 -7.158974692421565e-06 -8.524001699979094e-05 0.03459115709524087 -0.06420394580556897
0.186 -0.03237862005763008 0.2441391293970289 -0.001669243479652721 -0.0032269712568955824 0.00014659348824477082 -8.125809741811156e-05 0.02596161712938175 -0.06822951142316369
0.187 -0.0063145221515676355 0.24825649853924944 -0.0018679358406788688 -0.002859693683491199 0.00010749913250524477 -4.891938603301519e-05 0.01824980949521468 -0.0712274796237687
0.188 0.019296098078784477 0.24952968788828508 -0.0021220383133005996 -0.0026462217118776144 -1.7261883114510247e-05 5.4996002770024844e-05 0.008648199581953056 -0.07332522951193855
0.189 0.04807673239811441 0.24527928525098916 -0.0023595763885145265 -0.002690581204953063 0.0001339573712014409 -7.576532352195799e-05 0.0006258530863034908 -0.07402918435645758
0.19 0.07429591823232212 0.24253779554244853 -0.0026566437055704833 -0.002614239186103903 -4.775332404310127e-05 -8.246430595696402e-05 -0.008613429550894483 -0.07341766255478284
0.191 0.09770628332399935 0.23304759038075604 -0.003221112324515827 -0.0026538050867312792 -3.648537332819206e-05 -7.022796988222025e-05 -0.018454739172911683 -0.07254131906030606
0.192 0.1248877630042332 0.22343172401239192 -0.0038338807848247985 -0.0025708010906378585 7.49969258328923e-05 -8.423480960494044e-05 -0.02621431181906908 -0.07002602415967146
0.193 0.14905392963060968 0.2100393431790894 -0.004330741134104558 -0.0021858361985079293 -1.1737520168767947e-05 5.370645467184847e-05 -0.03488748686916119 -0.06670702068436966
0.194 0.17139140131308084 0.19509878579727133 -0.005061074118622947 -0.0016673618274696497 -2.7153389239087626e-05 -5.8386446342121134e-05 -0.04278013577822798 -0.062127449763376634
0.195 0.19130483364419812 0.17382859464885883 -0.005606136965251041 -0.0011254642547095395 -5.781366773025453e-06 -0.00012174685602291455 -0.05110069044246872 -0.056908924940597246
0.196 0.2107947298191201 0.15341498203870724 -0.006169943017275888 -0.00030395319524380884 2.7742462139685874e-05 -9.384490960606194e-05 -0.05736664460493969 -0.050378428943552364
0.197 0.22862636621646032 0.130551857233155 -0.006760840762165798 0.0005710659203338946 6.563521664712535e-05 6.307690994475793e-05 -0.06309172175056449 -0.04294503448833029
0.198 0.24248076385848386 0.10534027880311951 -0.006976451955751518 0.0016116428437131162 -2.5174018766406428e-05 7.18197801653725e-05 -0.06828160374634805 -0.035580661136299895
0.199 0.2536090672577131 0.07888517032761252 -0.007117427622366737 0.002652251525389187 -2.1993582820783935e-05 -3.0967646872015016e-05 -0.07230445806217488 -0.026741748058049103
0.2 0.2631320096175215 0.050956879392523156 -0.007440811645901042 0.0037772357822504596 4.628709004015364e-05 -4.021736628431022e-05 -0.07534445863618602 -0.01806687425650826
0.201 0.26826950006762423 0.02156075110218745 -0.007253530996554225 0.005086350439647493 2.7166540029889744e-05 -6.484682052579337e-05 -0.0768958070930705 -0.008888648222276809
0.202 0.27120766870929924 -0.008206042239361987 -0.007158686077460116 0.006405172259258019 3.9532545246612853e-07 3.623933048134281e-05 -0.07796883240732218 0.0010738342700652242
0.203 0.26957937093319223 -0.039521199762194245 -0.006786580275073228 0.0076834909255461895 -7.694236119582887e-05 -8.215052296404694e-05 -0.07757603458262147 0.010654614571212407
0.204 0.26425107517745877 -0.06974491150379492 -0.006102875015307788 0.009204068767363446 -4.611830256707846e-05 -2.7639130679842374e-06 -0.07579815119763593 0.020132918017411728
0.205 0.25635183728436706 -0.09948360020475407 -0.005132807195430402 0.010814233205943744 6.840972901572598e-05 -6.073199550585157e-05 -0.07332687371044395 0.02980058224995349
0.206 0.24461547466299424 -0.12871439759887443 -0.0038795632978538717 0.01226066853762353 5.70702011789265e-05 6.487952949311664e-05 -0.06920056763674409 0.03867984337934388
0.207 0.22906240702791622 -0.15822478998830572 -0.002710136805406035 0.013639356706332043 -5.7678112763074566e-05 -4.399614674442735e-05 -0.06400650013554689 0.04722739243489579
0.208 0.21056951333317625 -0.18241611155735224 -0.001177595464245276 0.015214715586185196 4.581023041940981e-05 -3.357984698135334e-05 -0.057970719262196296 0.055177645255190685
0.209 0.18895191279849605 -0.20582418393540852 0.0008440696749082538 0.016853189536983604 1.5596920242334552e-05 4.6837024609320176e-05 -0.05073710837908623 0.062445914333057385
0.21 0.16433613346664885 -0.22724645015837766 0.0036754181969822983 0.01824344879112984 9.074446320218483e-05 -3.650311715770716e-05 -0.04216268688499977 0.06866656974352572
0.211 0.1365179429331735 -0.24737755923031088 0.00687252842564484 0.019261232252032974 8.508850538657793e-06 5.11855661276622e-06 -0.033780198837288805 0.0739234508114462
0.212 0.10719798389375401 -0.260960047019064 0.010371613184538013 0.01938484562852477 -4.2214010011006956e-05 -5.489028860104608e-05 -0.023949307065557902 0.07767128945242457
0.213 0.07448906556242207 -0.27373745284805245 0.013946115744455435 0.019235140401437624 8.123788185515935e-05 -0.00010047440335891705 -0.013663086606505222 0.08063390944713195
0.214 0.04199986368681601 -0.2807657622454478 0.017899410310917033 0.01882216788285042 3.211817374387791e-05 -0.00015367821608632136 -0.0029095308542086986 0.08219339251244587
0.215 0.008887412383927911 -0.28515511599425586 0.022221896273226797 0.017643960255554026 3.421732008442607e-07 7.96645981895156e-05 0.00829005703132467 0.08255446900160329
0.216 -0.02454988247249192 -0.283500186018823 0.026599568846793986 0.015865006399195206 -5.162247546413472e-06 -5.914013239077119e-06 0.018843169881895626 0.08093870188947101
0.217 -0.060437148582460104 -0.27799098637792763 0.03148343176530321 0.01322229426103669 6.883490702875755e-06 5.493789164654734e-06 0.030017876914349966 0.07778683023225791
0.218 -0.09449285359064669 -0.27028992471753416 0.03615316295564814 0.009453788103794339 -5.215949632585909e-05 7.176051802162977e-05 0.04021209383699306 0.07403137024475528
0.219 -0.12669768597878422 -0.2582031860083999 0.04118890966436634 0.0050881856756364975 -2.539876585855323e-05 -6.647743212861075e-05 0.050230897336489215 0.06782511946714209
0.22 -0.15651966271784531 -0.2383421491290365 0.0458606920932715 -0.0005595254955632359 -3.7508603450863952e-06 6.605474676601036e-05 0.05982548804621797 0.06055181229319532
0.221 -0.18462172428554335 -0.21971921166258715 0.050422118459303916 -0.007835503083136046 -0.00013965930276756074 0.00013034125546794274 0.06696474208720461 0.05161635686798905
0.222 -0.21265077709318228 -0.19390052557197895 0.054462919905563 -0.017298726929223494 1.5213278913904943e-05 -1.1183570207285808e-05 0.0745017507337927 0.04136840335722003
0.223 -0.2355440813733208 -0.16776978702026085 0.056374775280892915 -0.028597414682737146 6.150192878690632e-05 0.00011497715323431546 0.07994288839868716 0.03071377947045942
0.224 -0.25434840146276305 -0.13586288613009156 0.05618340227375281 -0.04024596515237235 6.045803656633078e-05 0.00013740134001745746 0.0838732488879387 0.019846117692928156
0.225 -0.2697360173834825 -0.10156343996031729 0.05551006510872445 -0.05217230646062697 0.00011204712535833995 0.00010873537719634109 0.08568973932855141 0.006911484653655662
0.226 -0.2813427494900626 -0.06754441817376222 0.05379917075955513 -0.06679882226709406 8.456401726607769e-05 5.7814163596254584e-05 0.08647966469137332 -0.005623213746421979
0.227 -0.28862666994207803 -0.03009716522500886 0.04867982886840302 -0.0837020015387233 2.601562672097565e-05 0.00016728119945025704 0.0849861623661635 -0.018058310675795917
0.228 -0.29112511587207446 0.008338445333494843 0.03989524156898934 -0.1008964972895036 0.00027068714521503865 0.00012493396157534485 0.08129932867691053 -0.03068910626062148
0.229 -0.28830065071201355 0.04695274251333679 0.026402924047318373 -0.11894238212775214 0.00024998073954666107 0.00022302449845580693 0.07585460235976874 -0.0427629961477322
0.23 -0.28071822954871006 0.08494599098813635 0.008070750967469932 -0.13685481833960847 0.00020018157740301853 0.00017986162395398648 0.0685237485806599 -0.05427399179446068
0.231 -0.2674411048912464 0.12373448408157049 -0.01461633734150495 -0.1541088290104929 0.00023589881504347242 0.0001506574559551721 0.05949761462268938 -0.06384263802177502
0.232 -0.24837561456701066 0.1596169647903129 -0.044380461637061636 -0.17064627959999548 0.00029203014787323165 -1.2809185340132944e-06 0.049102783466743904 -0.072568193893048
0.233 -0.2254885756942506 0.19397217100333278 -0.07986478927711277 -0.183300397199137 0.0003039070959711081 2.9696899141011535e-05 0.036550170699198865 -0.07946862472079637
0.234 -0.1952232452741119 0.22396115981711354 -0.12491929707599114 -0.19255997419289844 0.0004098919166346475 -5.456042757949331e-05 0.02381841615112505 -0.08438766276314451
0.235 -0.16257474813232656 0.25229684796311125 -0.17786793457495229 -0.19352523502065672 0.0003943681905600186 -3.114397451705737e-05 0.00946174575119628 -0.08721868954044446
0.236 -0.12259336107006767 0.2729418425195701 -0.23984013745791077 -0.18450387706124646 0.0003644278857883616 -0.00022627143808756148 -0.005488326808689552 -0.08738656835637897
0.237 -0.07928317958163547 0.2907292276295419 -0.3078410929589386 -0.16325152316597266 0.0003571629974674799 -0.0003882311846723972 -0.02011253485186614 -0.08578179680070762
0.238 -0.03213289728030347 0.3029423322851139 -0.3884191264691012 -0.12089775027506787 0.0005264794461438572 -0.00046569369218751064 -0.03464824182167698 -0.08079780404781127
0.239 0.01510490685333726 0.30159341782471394 -0.46810699964411334 -0.05514524183121916 0.0004012438772038123 -0.0006065277773734646 -0.04905792658449814 -0.07243272268698511
0.24 0.06834386492281218 0.2952949056842468 -0.5542306626737267 0.03814810134067203 0.00045976621847917834 -0.0005727768347215172 -0.061461460596423205 -0.062458402160209384
