!Created with skrf (http://scikit-rf.org).
# GHz S RI R 50.0 
!freq ReS11 ImS11 ReS21 ImS21 ReS12 ImS12 ReS22 ImS22
0.13 -0.16097532360781067 0.08700499579390548 0.00013960404574287145 -7.85836615295896e-06 -5.763885246190454e-05 -9.098051999488707e-05 0.044384214624113835 0.027519169533830858
0.131 -0.15383298658725536 0.10115751516142549 7.371954195272371e-05 -0.00019615202553107509 -4.1406734097579616e-05 8.972548445604839e-06 0.04726654959450765 0.02254103217806561
0.132 -0.144275055092212 0.11595478387841283 0.00010652530830357631 2.575407996436307e-05 1.7578032632284648e-05 9.313764802208074e-06 0.049612729102127315 0.017676398828367166
0.133 -0.13409636251536908 0.1302750028039564 0.00016364007227581099 -6.325114046586361e-05 0.00011528065317942271 -9.06784158463965e-06 0.05182518559356646 0.012617430047931024
0.134 -0.12310505219152094 0.14290984678391738 0.00013844969078010745 -2.8683119366616773e-05 3.6914326514564416e-05 -0.0001138747220017499 0.05303467312644023 0.007235195885450936
0.135 -0.11138655296998994 0.1546811968560212 6.441849920769648e-05 -0.00012362329131503566 9.406606368049556e-05 -2.917137808099189e-05 0.05408408824901103 0.001837551523540144
0.136 -0.09730895588668895 0.16424897192086976 0.000130964281896177 -0.00016330351794285942 5.06754864499965e-05 -9.549512241156806e-05 0.054316325768622734 -0.003772468615170208
0.137 -0.08258301428743549 0.17494644631314896 0.00021094991242019942 -0.00012272380157582106 3.134971924853786e-05 -8.906886724293524e-05 0.05411406472293688 -0.009341707947620459
0.138 -0.06835942163001338 0.18102739172892462 0.00010353985727259411 -0.00015909286228206774 -5.805418532494567e-05 -2.09777259952231e-05 0.0532569717431775 -0.015144546127376307
0.139 -0.05134100273824076 0.1870596590981411 -8.320604417827446e-05 -9.616691418178351e-05 0.0001387246110360818 4.07502658235758e-05 0.05153475601136942 -0.02083672084897544
0.14 -0.03402949750873943 0.19222443334171488 0.00017309375116815072 -3.414688089294224e-05 6.158364505531553e-05 7.580433619333234e-06 0.049507763547938004 -0.025975152071695765
0.141 -0.016976968719400572 0.19777427168492268 0.0001706596563842071 -0.00017606146306240735 3.564119227141188e-05 6.644008504779408e-05 0.046907833762048844 -0.031174249468153437
0.142 2.7076858061652157e-05 0.1985778790133581 4.9771507303732884e-06 -0.00026257089703948143 4.2478975324868776e-05 1.7968057906882897e-05 0.04369598552857075 -0.03598518062635089
0.143 0.01930336990182448 0.19806670710662794 0.00011511645161164416 -0.00021529711410916454 -7.779081268524045e-05 -5.871942496530181e-05 0.040112870190322815 -0.04040931830602528
0.144 0.034756308770022025 0.19734884590126714 -2.5321648244438868e-05 -0.00011265463348757064 2.40968479854177e-05 2.9264319390475466e-05 0.03571164547977847 -0.044745215419984
0.145 0.053159791561843035 0.1954603853934522 0.00012480633132273656 -2.995659972205565e-05 -0.00012536097634763762 2.387137071600118e-05 0.03141048454209092 -0.04820226079504349
0.146 0.07029947584402575 0.19007603736014164 1.9161824917668803e-05 -0.0001603054556540775 -1.2872285379661945e-05 5.9618942230231566e-06 0.02627668553478776 -0.05175394333015595
0.147 0.08713393226783363 0.18400197280594136 -2.741687846800713e-05 -0.00022583790095219309 -0.00010313758347964199 4.8059607073639786e-05 0.021020730876576042 -0.05450526214855017
0.148 0.10315727637295942 0.17574221015910926 -6.50765719336033e-05 -0.0001607545370769281 -4.514383421023028e-05 -2.8599855342156118e-06 0.015402730754217999 -0.05622457862033483
0.149 0.12025047046143769 0.16808752553640874 6.528270107525627e-05 -0.0002394541750206457 -4.760770450159968e-05 -5.902063308956956e-05 0.009722489440931138 -0.05790527397431749
0.15 0.1349650121953191 0.15754462090904403 -3.353885262580963e-05 2.790944569306374e-05 5.261926452227473e-05 -4.316850749203533e-05 0.0035841819794685975 -0.058864294885464546
0.151 0.14855039789113514 0.14560229856503157 -0.0001558149451822949 -0.00012342131799051892 8.808957083430947e-05 -7.14330218879031e-05 -0.002127659019980072 -0.059305183867716875
0.152 0.16129864461995946 0.13349156868244652 -0.0002564888329065575 -0.00020642969209659073 2.132111433786364e-05 0.00011331300352523458 -0.008416334625199286 -0.05863750809032403
0.153 0.17367222088789108 0.11808464789090323 -0.0002601976827115068 -0.00015174280363318713 9.946614196118133e-06 7.934616945094503e-06 -0.014111380173492607 -0.05821829581827232
0.154 0.18408639324167164 0.10367527215079056 -0.00017336992911441763 -0.00021740770235710702 -3.67733248885396e-05 4.6712208835096733e-05 -0.01985476467650272 -0.056594860184444054
0.155 0.1938521184472373 0.087924862838508 -9.858216248041721e-05 -6.245449983550435e-06 -5.886148215223846e-05 2.5155892834010255e-05 -0.02571588677275097 -0.054228122719918254
0.156 0.2011404237781032 0.06977246338351255 -0.00021946376211923218 -4.399635493286529e-05 6.8965058768842e-05 -3.962601667408493e-05 -0.03130795821515218 -0.051625657276466015
0.157 0.20704133220008533 0.053111786660891225 -0.00015062907710474563 -5.165907209489772e-05 7.332824186808172e-05 2.1024506134915843e-05 -0.03630013564809049 -0.04871561558082954
0.158 0.21235608272471812 0.03521259110598523 -0.00023193023528479112 -1.3392051146962965e-05 -1.900832912010339e-05 -5.852877529537256e-05 -0.0409973131168312 -0.044435656397740636
0.159 0.2153909227341407 0.015529268365005875 -0.00017488621081997925 -0.00011161605692990655 -4.244192778406568e-05 -0.0001285912751576213 -0.04573062137701234 -0.04028151685552982
0.16 0.2170979610264771 -0.002898522588689889 -0.0001131961622975691 -0.00014190947040318687 -6.713861155305287e-05 2.156190909386623e-05 -0.04952146701234478 -0.03560936343490409
0.161 0.21712523805205078 -0.02163722074620694 -0.00021510069630552853 -8.388453063113177e-05 1.661761329680944e-05 -0.0001121849323985263 -0.05363446681548112 -0.030451208143587247
0.162 0.2154799718097245 -0.040832152061588856 -0.00026326074783479796 -6.111891844472679e-05 -2.1284725002144845e-05 5.069046002574613e-05 -0.056192272003987 -0.025377318320869077
0.163 0.21284311794659222 -0.060167019926391764 -0.00018419479770488199 0.0001786043515183783 -7.772781792671228e-05 -3.4289648830674955e-05 -0.05878222292969285 -0.01988239223789951
0.164 0.20785487388963775 -0.07851833101389454 -0.0002891570272189468 0.0002138429373385015 -0.00011500992879030463 -1.4376207768838659e-05 -0.06053147253287788 -0.01322912458178507
0.165 0.20110504168986246 -0.0981491365163182 -0.0002146859140516585 3.94869705529145e-05 -0.0001388885461724163 -0.00010890864740595721 -0.0619919163359704 -0.007663137040498895
0.166 0.1923951997802516 -0.11551791568344395 -7.39808629143898e-05 4.994476538219415e-05 6.372453379214795e-05 -3.172036417310927e-05 -0.06287494383644264 -0.0011403660070097212
0.167 0.18328598694669362 -0.13363338702773764 6.359386456064493e-06 0.00020907835816890642 3.6438773861415045e-05 -4.835931592710221e-05 -0.06281305343592562 0.005227986285360151
0.168 0.17027920145471295 -0.14985535923507687 -0.00019486072162866962 0.00013656177133135374 -5.0964121983239755e-05 -4.507685927206846e-05 -0.06236882068545814 0.011620963048625012
0.169 0.1574319170001841 -0.16459025661276463 -0.0001573250299641008 0.000208451927066459 -9.289249911790089e-05 7.940342937402176e-05 -0.06098473002023251 0.017883743084652345
0.17 0.14178049422951627 -0.18030236303121927 -0.00016335025512541432 0.00018983887698721487 5.228251978218138e-05 5.029955039214586e-05 -0.059295466684718336 0.02391931203951168
0.171 0.12756420573940289 -0.19222978690487622 -4.244751429408544e-05 0.00026659127260346383 1.965926271438664e-05 1.597420151835086e-05 -0.05675349233357306 0.029997925137344256
0.172 0.11089485217545343 -0.20581288599196987 -4.647593288873251e-05 0.00029099733896051865 4.550991939897685e-05 2.5754417747071447e-05 -0.053726531016348264 0.0358247918988637
0.173 0.09259637822090437 -0.21491764666454818 -6.002525535324832e-05 0.0001835457931737603 -2.493575285652079e-05 -8.582265240050269e-06 -0.049974278878213686 0.041436523002549824
0.174 0.07206787529772253 -0.2222660705133164 -4.267056575969668e-05 0.00023689355552323403 -5.205013802030359e-05 2.225329249432301e-05 -0.04582764557092819 0.04633029414262191
0.175 0.05304555654647962 -0.2297655484190525 -3.19588704416066e-05 0.00021127921374479406 2.6535109234781477e-05 1.3648744683170362e-05 -0.04110636042880986 0.05087550028366715
0.176 0.03178448328477178 -0.2352280444896906 4.495651906394319e-05 0.0002753334252509285 -0.0001352631798378436 1.6907858280376182e-05 -0.03587853755192152 0.05511638470286313
0.177 0.010110817267574379 -0.23866990495856108 0.0001485499399095842 0.0002511685976132919 8.273798980926259e-05 -0.00011247814734393583 -0.030185611728863686 0.05860898681318855
0.178 -0.012120177011796969 -0.2406847099710385 3.327730877526937e-05 0.00018872499626298997 1.1782060539804096e-05 -0.0001527675230767906 -0.024135817416744504 0.06182793688995201
0.179 -0.033065165241706836 -0.23893390554119256 9.528006361738559e-05 0.0002177474540573711 4.081364217414271e-06 -5.492138904116395e-05 -0.017914830228140343 0.06458169286670307
0.18 -0.055188094768018725 -0.23764104882417686 0.00022106550172120101 0.0002368208339417927 -1.5001546117774139e-05 0.0001364623009111573 -0.011219181288588452 0.06612887093988185
0.181 -0.07596563291808367 -0.23170012712785587 0.0001732458760630297 0.0001259607499622611 5.74742298029234e-06 -2.9439319331019086e-05 -0.004674438698859858 0.06770993272535346
0.182 -0.09736275365842308 -0.22408609834216764 0.00011149970604722065 0.00011219361615155372 -1.446416609417264e-05 2.4616645972351588e-05 0.0024688742901384387 0.06778418560753073
0.183 -0.11842998876234144 -0.21482624266122913 0.00022153999269964626 0.0001751629322793871 -6.466533205170919e-05 2.841133921968175e-05 0.009690416001845966 0.0673183503519612
0.184 -0.13974984991684056 -0.20543073213606625 0.0002663858223727205 0.00012097705071548404 2.7572661546486024e-05 -0.00012143049709763028 0.016451394832373446 0.0665821095455993
0.185 -0.1566386376296248 -0.19139631580396974 0.00015470227460304784 0.00013046801855571386 -5.70265191520787e-05 2.9419796559349796e-05 0.022979563023839557 0.06511794106134533
0.186 -0.1741749933598464 -0.17574955140464496 0.000245154361761543 0.00013765004342214735 1.5924017720547447e-05 -6.58730883552983e-05 0.02986926163396528 0.06258926134861958
0.187 -0.19084520163933233 -0.16067100555665936 0.00023032921811422968 0.0001190249929207446 0.0001048146133152465 5.081163667174887e-06 0.03662221762186315 0.05897397947807293
0.188 -0.206122078233614 -0.14324190418310614 0.00027136918099400406 0.00011291993201259063 -3.469467968501972e-05 7.886424246878672e-05 0.04249758557730047 0.05536829816422897
0.189 -0.21826472293962249 -0.12478805296875597 0.00032506384133508943 0.000165753938942418 -6.039734477264107e-05 8.88355110872878e-05 0.04851301321224393 0.051258355137407265
0.19 -0.22986382705571376 -0.10483069518772199 0.00036111424057034283 -3.598618294178348e-05 -6.160509953236448e-05 -9.806727524911344e-05 0.05336425998106826 0.046203924723620116
0.191 -0.23881522320848744 -0.08372696134158834 0.00041955183531733846 -4.113038663218176e-06 3.730323297322394e-05 -6.61593260042466e-05 0.058272934194997204 0.03995635655733567
0.192 -0.24655031461809504 -0.06086521221288107 0.00019739001127223413 3.286749939904739e-05 2.923980314440071e-05 -0.00014168979413883628 0.062346297792117596 0.034063471282907244
0.193 -0.25171464026824936 -0.03986768242037869 0.0003249252702439625 -8.499221147653804e-05 3.026692002060328e-05 2.5361817571941418e-05 0.06632117249411434 0.027608961640812876
0.194 -0.25563015142365453 -0.016299861079726346 0.00023443369370706663 -7.592040165448714e-05 0.00010905167108543636 -5.303857891956069e-05 0.0687995885228069 0.02048655628585561
0.195 -0.2568413935859088 0.00721628828203787 0.0002350400287217808 -0.00024093003609073987 2.8924551257454777e-05 -9.42630590704823e-05 0.07132681653847281 0.013337881547883075
0.196 -0.2558472560158518 0.02932681960552273 0.00030682972920732896 -0.00020875987984252936 8.968352498719665e-05 2.696667357605412e-05 0.07195243053706607 0.0058905036602508835
0.197 -0.25328063904162895 0.052286242540851305 0.00033750610038791885 -0.0002455290836716901 0.00014324855344780333 -0.00010597568480191574 0.07291301262442494 -0.001545120132067046
0.198 -0.24796534041110185 0.07533024429319052 0.00022013589943516298 -0.0003326629750012034 -3.467603714635598e-05 7.596606090411587e-05 0.07240311649512304 -0.009360421430963446
0.199 -0.2411060141941793 0.09745139732321247 9.691885625268092e-05 -0.0003754965845334335 1.0155886209879869e-05 -6.048650163190771e-05 0.07140866121341699 -0.01697516216704962
0.2 -0.23277047685845878 0.1194432729464157 8.267341015405799e-05 -0.000323400921521612 5.393448028315933e-05 6.7688715038399765e-06 0.06951192197552312 -0.024363746032550534
0.201 -0.22202333182560618 0.14072199749499897 8.224203199659633e-05 -0.0003172032869925037 4.76983792676132e-06 -3.111711202660562e-05 0.06682045195021537 -0.03145194313785793
0.202 -0.20833972250046154 0.1594588654921528 -1.8970597608179115e-05 -0.00011076430217497073 2.4748770547842534e-05 -6.276566126797145e-05 0.06354085797789222 -0.038272121634403106
0.203 -0.19458083798790599 0.17913201949563862 0.00014413776756860678 -0.00026260107649028324 -1.4818070675220262e-05 -7.099780761741915e-05 0.05917636165760444 -0.04510390198000956
0.204 -0.17954834601970146 0.19481971954249797 -6.075424106586497e-05 -0.00037530255782990796 7.755174256897371e-05 -5.744666073625484e-05 0.054548257774751335 -0.0510621007317755
0.205 -0.16197811405304385 0.21127287654622587 -9.3474094458592e-05 -0.00040312492871805763 0.00015703780735518532 -4.0888421989672175e-05 0.04893303873186672 -0.05668790829066713
0.206 -0.1434276443774319 0.22636040498519525 -1.4292628206920457e-06 -0.00048753409691984197 -1.621309911783946e-05 -4.828075722664086e-05 0.043303224411059896 -0.06173137780699197
0.207 -0.12297354696008875 0.23721627123232303 -3.6170075354160805e-05 -0.00026362024316914004 3.908916624604889e-05 -3.861765518679747e-05 0.036697701730102186 -0.06593381473933516
0.208 -0.1017732832239288 0.25254191065535947 -3.781875771892972e-05 -0.0002826446102634238 1.2625556916069686e-05 -7.441842701090263e-05 0.02973678835060529 -0.06950148789454427
0.209 -0.080557759471795 0.25968842720345914 -0.00012654827054355127 -0.00031979005059471963 0.0001329600215993443 -4.5670300708699594e-05 0.022716061134899886 -0.07249396722261314
0.21 -0.05747615194677788 0.2648932975526001 -0.00025590506343292196 -0.00029954361675430126 -2.3542261111693583e-05 6.476424876570955e-05 0.014814552417364119 -0.07471735794103533
0.211 -0.03264811123170843 0.2729721396385132 -0.00022918511274450188 -0.00019933733470480332 -8.44411001854105e-05 5.9435689411862006e-05 0.0074709433367676995 -0.07580078110375768
0.212 -0.01019957785613637 0.2764079488430956 -0.0002667503013093732 -0.0003250361825971263 -6.1247828563460535e-06 2.610674007163053e-05 -0.0005489543856948842 -0.0759600830626245
0.213 0.01652121059994196 0.27853266786241554 -0.00030377729010020333 -0.0002845962474403522 9.727917964204685e-05 7.441864511293881e-05 -0.008734895849260025 -0.07624920243522483
0.214 0.04114803564641892 0.2772672833113935 -0.0003222222011320046 -0.0003411315450513611 -7.344787959383419e-07 4.4513022559218456e-05 -0.015927651355971587 -0.07572027119535603
0.215 0.06335402181914636 0.27399026481422 -0.0003111741392378029 -5.6751571267707664e-05 4.771508825053284e-05 3.239528842959084e-05 -0.02423521399958566 -0.0737491011236994
0.216 0.08844927660068078 0.2663368876891443 -0.00025622383804661515 3.2063389102979655e-05 -2.3000165728881158e-07 -2.39255027591462e-05 -0.03125014545672916 -0.07079865192083185
0.217 0.11262441641693421 0.26032783980658397 -0.0003550509997028259 2.9648708485628005e-05 2.170131572397621e-05 -1.413696466435092e-06 -0.038274848687219046 -0.06772596020332425
0.218 0.1373240783110356 0.2515477208534235 -0.0002947085407049998 -0.0001403222089450471 -2.277850592400405e-05 -0.00011471964721271651 -0.04479056057796863 -0.06381001659104282
0.219 0.16104798639699378 0.2402267952187175 -0.000478738664291459 -5.705964730783174e-05 -1.5890152535666144e-05 -2.631138503460529e-05 -0.05176841641964986 -0.05909555378344737
0.22 0.18112227057108085 0.225594892258001 -0.00048298236214792706 -0.00010059789505524036 -5.107174526524712e-05 4.791240553576551e-05 -0.057864624344795494 -0.05387119576217879
0.221 0.201176599855958 0.20987952012294958 -0.0005130466370110579 0.00017454604050265736 2.0778613647454458e-05 -0.0001162190237408953 -0.06268821363787173 -0.047265765953837476
0.222 0.22069848577593337 0.19113815704819384 -0.00039463272729991453 5.3542747225630055e-05 2.203797448808248e-05 0.0001863067259182555 -0.06756150044102065 -0.04102253796312532
0.223 0.2386626416872025 0.17359752038112322 -0.00029395347567639824 0.00011352852708627444 1.6684752573651291e-06 -6.338621086145741e-05 -0.07165858550026534 -0.034203382841251614
0.224 0.2545375679796628 0.1517219075951188 -0.00019554228882578365 0.0001257393356211185 -5.122160754054476e-05 1.669830093732925e-06 -0.07538033215876809 -0.026774574186708144
0.225 0.26929089845377097 0.12809040460788776 -0.000284720811394224 0.0002240783318355948 9.372715997413032e-05 -7.494643242965098e-06 -0.07760270718897826 -0.01938224908894094
0.226 0.2809280321177536 0.10347121915488898 -0.0001989910425698231 0.0003127767188858155 -0.00011073474904445815 9.037341591137292e-05 -0.07964625138132485 -0.011248928854894704
0.227 0.29048026394228355 0.07967292124103333 -0.0001486486796422473 0.00041922584490037136 -6.66321683282953e-05 0.00011414874209160571 -0.08056137067224728 -0.002967250985793061
0.228 0.29835377770904264 0.05282282329091234 -0.0003312520934907682 0.00037523637345558274 2.6531151474247727e-05 1.3674741317352681e-05 -0.0808684101023965 0.004769059701296427
0.229 0.3027878642981459 0.025905570552682885 -0.00016560333972807267 0.0003176978705197225 4.105173800897853e-05 -5.5815750793167817e-05 -0.0803650624077866 0.01299830762282874
0.23 0.3048524778802834 -0.0013225465752686565 -0.0002967798469789097 0.0003608239525581615 8.172380446940558e-06 2.510540108716979e-05 -0.07909030114780845 0.021215301096418088
0.231 0.30503539148144304 -0.02868562942143506 -0.00016714197173887596 0.0004042958126417691 -6.860803646671693e-05 -5.168519812542972e-05 -0.07661003563112967 0.029036892201334527
0.232 0.3010150894977564 -0.055933145264458785 -0.00011903822842207464 0.0004163137253623811 -3.169659245998895e-05 -5.257321152694084e-05 -0.07380133861685081 0.036745745272588226
0.233 0.2978911479367687 -0.08372356416070624 -0.00010789085451495847 0.0004920592151844615 5.213395006939433e-05 1.3073241039244044e-06 -0.06981556587254578 0.04417021899508726
0.234 0.28797072527269235 -0.10981013358410899 1.5082197134585266e-05 0.0005714989709343584 7.882202710729392e-05 -3.1241420841733947e-05 -0.06532006629628304 0.05109102666920534
0.235 0.279471233208777 -0.13700960704476228 8.479546461269336e-05 0.00043028032744344726 3.909839709312065e-05 -6.384674510634227e-05 -0.06015515744514439 0.05760175664461293
0.236 0.2657379983073768 -0.16137154390166908 0.00012397291027577086 0.0004209483106933227 4.6927980723197896e-05 -8.359529627390634e-05 -0.05409481776203744 0.06375821602792402
0.237 0.2502096380711543 -0.18430199174898726 0.00026070691788327203 0.00045531350942009546 2.2409257327870518e-06 6.671713570459041e-06 -0.047896678786970286 0.06928456542094105
0.238 0.2333514234825134 -0.20711935157298508 0.00016609343004753987 0.0004580862889187251 -4.5325325337616734e-05 -9.439637399361046e-05 -0.04030667248112827 0.07417534635242515
0.239 0.21558713271274044 -0.22673211981342098 0.00016586588388262815 0.0004199831063352826 8.631753208713055e-05 -5.196096701541675e-05 -0.032678599893519455 0.07764742517641343
