!Created with skrf (http://scikit-rf.org).
# GHz S RI R 50.0 
!freq ReS11 ImS11 ReS21 ImS21 ReS12 ImS12 ReS22 ImS22
0.13 -0.17419593506821604 0.05817951801534798 2.1350306383796382e-05 0.00023028587323418662 -0.00014385257982587512 8.756048590560012e-05 0.039697438830362315 0.03509479896424025
0.131 -0.17006323845818938 0.07372512198359481 6.1370361336407e-05 2.8316225696378278e-05 -8.023852212959726e-05 -5.0123381810386267e-05 0.043720977323306535 0.03131647711086466
0.132 -0.16394880108114596 0.08953864837775893 6.371665503151828e-05 -2.7931065717695172e-05 -3.077904610928968e-05 -4.94591274577928e-05 0.04706687037750066 0.026997867820223675
0.133 -0.15610273246279782 0.10338337593061143 1.134424673680086e-06 2.809186966520893e-05 -3.0642211116429394e-05 -3.4969591126289516e-05 0.04951546142651398 0.022454493552274586
0.134 -0.1483885938531061 0.11763770766725881 3.977276562903318e-05 -9.639149067521574e-05 9.64315069178556e-06 -7.642558321805515e-05 0.052272596256445966 0.017191489065121253
0.135 -0.13746966257992585 0.13106079299601517 -4.747818659150512e-05 7.578538696722715e-05 3.418140878648793e-05 -2.2780344907068426e-05 0.05412263442278303 0.011633863583400674
0.136 -0.12610702181692124 0.14419364556898234 5.479924823686146e-05 -4.1977757257564815e-05 -4.286841385484507e-05 -1.0285613622410097e-05 0.055410090844154665 0.0064002559472945
0.137 -0.11430169935885157 0.1564687265017939 -0.0001566262336107428 1.8169888689917098e-05 5.457970173968149e-05 9.771675043021964e-05 0.05622811837306767 0.0006981449046259752
0.138 -0.10092686997566046 0.1667064949312011 1.2708975997577412e-05 3.366942363557123e-05 0.0001825946384614727 -1.295044488002172e-05 0.05649406184129207 -0.004936040723759766
0.139 -0.08696445325983305 0.17586259701608636 4.815697107748921e-05 3.6993891510091407e-05 -6.735814549124443e-05 -6.876886556334767e-05 0.05612174193764324 -0.010730878322282658
0.14 -0.07166380095390777 0.18368972319280302 -1.4740531238471935e-05 -5.276513772047873e-06 -8.498435676930644e-06 -2.7756516536863365e-05 0.05499192572539943 -0.016490399753350895
0.141 -0.05452553056020272 0.19010420604862044 2.3759729087310423e-05 8.896358503730106e-05 2.2258120844318845e-05 2.354019601402206e-05 0.05342389941936151 -0.022360755175069438
0.142 -0.03850824681953398 0.195966988554823 1.3004655986037442e-05 1.9488719254231698e-05 -1.5236382109438618e-05 -2.0291226917047153e-05 0.05129635569666476 -0.027709175877491617
0.143 -0.02145604202341704 0.19930311033508522 9.868113719979124e-05 -0.0001316158560495636 0.00015474354529201794 -9.32454966384595e-06 0.048486384268123045 -0.032877912131493395
0.144 -0.0037464700902151322 0.20200688747940326 0.00010150598170589993 -3.3661662057791824e-05 6.63355625342545e-05 -6.607377162126092e-05 0.045221076010406355 -0.03800807666432508
0.145 0.012368346918854715 0.20222068460153714 5.4906570554511784e-05 -7.668274507083932e-05 0.00011648880685518695 6.003336473946741e-05 0.04136486042610769 -0.042505678832554385
0.146 0.03159631266092616 0.2018959076803468 1.5382658971855476e-05 1.245749987514463e-05 0.00014254458515803396 -8.363498364013764e-05 0.03716745057689836 -0.0467946090154002
0.147 0.050433252904336666 0.19728423484892882 2.4679561046906892e-05 -1.660132302749664e-05 -2.7218266572145464e-05 1.9036320120915082e-05 0.03222748958966778 -0.05057561121414353
0.148 0.06668381074283328 0.19631224922551185 4.108825522597921e-05 3.741663360207557e-05 1.1595573122955593e-05 -4.302875358277931e-05 0.026968678388464704 -0.053961756115433
0.149 0.08369919847838458 0.18944956901948737 6.3213344854009706e-06 -6.413675890879168e-05 1.5678764520808255e-05 2.912480932778599e-05 0.02194948841776171 -0.05655713441739996
0.15 0.10035848907526017 0.1822657922802045 -6.690042443784784e-06 -0.00011162919890026836 -7.943385790921045e-05 -3.848805669527216e-05 0.016136606699817348 -0.05869923629222151
0.151 0.11536428827519439 0.17441266362089564 3.489295879691396e-05 -0.000123656556958535 1.965097695396806e-05 -3.096218528172344e-05 0.010171965215671165 -0.06028022268806175
0.152 0.13154720335423734 0.16412206449874092 1.9039838652573472e-05 -0.00017834437066004556 6.816756739131062e-05 -3.923427539289727e-05 0.003833555507354817 -0.06103886887002335
0.153 0.14489194440060515 0.15213283764483054 2.1958159216373123e-05 -3.761396452802235e-05 8.490591586889211e-05 5.110095154006916e-06 -0.0023964159951544916 -0.06174397879155204
0.154 0.15873105660954573 0.14007686365800542 -3.612527878953269e-05 -0.00010144281494396418 -2.6919700714380665e-05 -9.349511594511657e-05 -0.008505264939530011 -0.06146033612138627
0.155 0.17039613866049413 0.12632037648250594 -0.0001536194704515073 -8.066271349250094e-05 4.425806186009566e-05 3.6742731470240954e-05 -0.014719744302380358 -0.060404294201919964
0.156 0.18237496557679003 0.11274101915561438 -2.6108662518378288e-05 1.7168537666330402e-05 -5.6903052695206557e-05 -1.1125263557486327e-05 -0.020609163025975683 -0.05909323023812623
0.157 0.19122331462629055 0.09621696520214816 2.2748661944845393e-05 8.86353095405208e-05 5.429434266339323e-05 8.363716130806421e-05 -0.026468112225887373 -0.05708587613329506
0.158 0.20042912835670332 0.08018495334108555 5.5416308121727296e-05 7.4910880454668955e-06 6.587068973607558e-05 -8.99648447525481e-05 -0.03227313510115524 -0.05438962523467825
0.159 0.2079128375944236 0.06299615070292086 -0.0001176961712150539 -8.39034454519772e-05 -7.373136033520937e-05 -6.325124508646837e-05 -0.03737121439906855 -0.050931487650653945
0.16 0.2133150845145935 0.04514775372707753 -1.3271854696878297e-05 -5.464080998131624e-05 -1.7778383727302407e-05 -6.419174494116317e-05 -0.04235398953906159 -0.04709049619804206
0.161 0.21701841088365595 0.026792954661216627 -4.792560961095973e-05 -0.00012828950832728775 7.082362289921746e-05 5.263407776139386e-06 -0.047463111805093314 -0.04281807878923089
0.162 0.219709226067159 0.008039403747598524 6.832065422027436e-05 -9.256082124170499e-05 0.00010260054766969887 -5.9827840625186154e-05 -0.05112675255771105 -0.0380696809261598
0.163 0.2211399288354157 -0.010986232450864926 -3.294252057157704e-05 -1.0248627553412347e-05 -0.00011639606118474549 5.962697478161614e-05 -0.054903249964139554 -0.03285688372747022
0.164 0.22062316904292556 -0.02967895302199524 -6.321023159765417e-05 -2.4995109344532914e-07 -1.0150291776246333e-05 6.0528991452117264e-05 -0.058663486515406496 -0.027687055463545475
0.165 0.21849657689571803 -0.04896139230656126 -5.559482397311344e-05 2.050140152785162e-05 9.549267028465412e-05 5.334384783568443e-05 -0.061111371291505415 -0.021734493925332565
0.166 0.21381537415697366 -0.06834241116571464 -1.2729051933483526e-05 6.456822838286715e-05 6.59687143508701e-05 -8.112475057023486e-05 -0.06345768593859542 -0.01561055899578836
0.167 0.20960210881337546 -0.08724726035868846 -3.167240264710261e-05 6.0179420531603925e-05 -9.945313070576118e-06 -5.053846671326245e-05 -0.06483837099337045 -0.009220650788524371
0.168 0.20194622815128535 -0.10520531081478471 -0.00010087316875207737 -9.937141403296885e-05 7.043000242779447e-05 -3.556577320030349e-06 -0.06567656057139457 -0.0025804390927458114
0.169 0.19369351114074482 -0.1221561236927427 -0.00011250910630669514 -7.658227286449053e-05 2.013120676329575e-05 -2.203712918915314e-05 -0.06598376080075495 0.003936409971211139
0.17 0.18273112468023772 -0.14144570425441558 -5.624870186548974e-05 6.25390738905191e-05 -9.29129021910509e-06 -4.000848302299922e-05 -0.06548352829312665 0.01049059346535503
0.171 0.17053847150184426 -0.15570383570889104 8.130145146036673e-05 8.890733175958135e-05 -4.095518456238547e-05 0.0001451782435177791 -0.06474508090923103 0.016942156258990256
0.172 0.1586122718799252 -0.17203232085545672 1.1991533819492895e-05 2.673207556178175e-05 -7.530127728234348e-05 5.258892453302959e-05 -0.06302051660870982 0.02350365771501686
0.173 0.1417374856772776 -0.18690946571298073 1.2443685772275732e-05 4.79005475427171e-05 -4.439445452160437e-06 5.1185178595448243e-05 -0.06073188289615719 0.029610668193191848
0.174 0.1268819127542711 -0.19849213074914404 0.0001288481684391739 3.400979486950969e-05 7.551517340643754e-06 8.370154787707392e-06 -0.05790738853396602 0.03562704001575484
0.175 0.10886056478505976 -0.21011498582713414 -4.329216343804997e-05 0.00014520621109955263 4.759989279154275e-05 -2.7773572827773286e-05 -0.054261361491290974 0.04148359873559943
0.176 0.08957624343336948 -0.21955122700037127 -6.840634152625686e-05 6.380738616676044e-05 -9.448717679863283e-05 -4.5273838108113114e-05 -0.0501233072386993 0.046958431766667856
0.177 0.07081409459826575 -0.22921693236042795 0.00010307824941107247 4.9758032590107066e-05 -6.371646504110878e-05 -6.942921155870283e-06 -0.04543953742285047 0.05188517727543571
0.178 0.05110218905575972 -0.23390074659973908 -2.983130460882896e-05 4.594989634477477e-05 4.037940787205155e-05 0.00010922379757046545 -0.04031404154414178 0.05638799243692836
0.179 0.02975236049183617 -0.23974570262116426 -1.2954218567210442e-06 0.000126668147410369 5.644118691228518e-05 -1.244784898839964e-06 -0.03467493802299014 0.06043879534399567
0.18 0.007552509539424618 -0.2433902345470155 -5.799007068219721e-06 -3.449456337503153e-05 -6.304677488811531e-05 5.862545795930703e-06 -0.028421926815275285 0.06416606654103899
0.181 -0.011771006460604068 -0.24401709970438792 4.590134106901021e-05 1.5695790488612174e-05 -4.795789555391377e-07 -8.784191309534946e-06 -0.022047226854669248 0.06716812595062398
0.182 -0.032143125305761716 -0.24440879578477037 9.289269505374707e-05 -1.7127405636298172e-05 -2.069555949055688e-05 8.191340348530456e-06 -0.015613268834069507 0.06913208292782075
0.183 -0.05734615576608289 -0.2405975453417095 -3.5081390525712794e-06 6.37774160220458e-05 -0.00013338482003247322 -0.00010429953878762453 -0.008304121811235602 0.070822961098706
0.184 -0.07866209551142825 -0.23579051918043856 6.8400676912055e-05 -6.426586671020969e-05 -5.1598537762519325e-06 -8.946691399997428e-05 -0.000830338913098566 0.07163901744584181
0.185 -0.10041554872692457 -0.22931349053989314 -4.290155311886559e-05 6.195951618534366e-05 4.908340596321955e-05 -6.112472004122715e-06 0.005961121427000034 0.07185857536200123
0.186 -0.12101789269920751 -0.21973312426052563 1.5585263612636098e-05 -1.964747664686108e-06 -0.0001029163715452333 -8.889871903230376e-05 0.013241606060778266 0.07125551422974107
0.187 -0.14086862854196364 -0.20710568430978318 6.529573114923692e-05 -1.4245865427894697e-05 6.453626120581118e-05 1.958526943936647e-05 0.02083669788184404 0.06985356356694991
0.188 -0.15789069257356805 -0.1960696458971823 3.296044466391206e-05 0.00013667423946528716 -2.2780913585765292e-05 9.982314838462262e-05 0.027527391227729063 0.06811931269149506
0.189 -0.17523014376853507 -0.18264852224778558 7.15734344607525e-05 -3.6656153550072914e-05 5.6750721587058704e-05 4.9609024383172375e-06 0.03485697748687499 0.06452865735100446
0.19 -0.19104188873763736 -0.16657390802999963 3.497678442741304e-05 0.00013635679283313348 7.2204413474102e-05 2.345247280078732e-05 0.04156457290716754 0.06104575173607777
0.191 -0.20620061592190753 -0.14810196996046154 -4.554926713697669e-05 -7.189761475989018e-05 -1.529734077820109e-05 -2.2083157453250947e-05 0.047848415978678144 0.05709463156942857
0.192 -0.2202010342048788 -0.1298701467881688 3.9921117670672305e-05 -5.3681923204263996e-05 -5.0069685412608964e-05 0.00012236280826262436 0.053371551422988606 0.051607153950658124
0.193 -0.23179901852135373 -0.1102522425133645 2.6819295052550753e-05 4.581895902639383e-05 2.0708457803874852e-05 -6.5891607909882586e-06 0.05907474369422759 0.04639470344773597
0.194 -0.2415716487080462 -0.08953235988744394 2.98366837863315e-06 6.986747019165543e-05 0.00014012037384583282 -0.0001378180195452466 0.06360431265489987 0.0404168555496104
0.195 -0.24939159297587338 -0.06766326444917516 3.915219599922634e-05 -1.1508906901973846e-05 9.33885553388819e-06 3.808601603896431e-05 0.0685367540636225 0.03375212749682756
0.196 -0.2547136716089588 -0.046346726765146236 5.911845318313732e-05 4.290282531393653e-05 3.937721911923769e-05 -4.822214296266532e-05 0.07110344136578234 0.02678496373748612
0.197 -0.25930322099576497 -0.022579213200651253 0.00012930427026680157 5.73718507008305e-06 4.599897353485014e-05 5.874793155458795e-05 0.07411202240418398 0.019375704037897425
0.198 -0.2608642190118188 -0.00014227937418337237 -8.536515446095958e-07 -6.355517035154552e-05 4.173244183353021e-05 -9.640687222999401e-06 0.07623650278952153 0.011676728984638177
0.199 -0.2601237868046466 0.022829364901067177 0.00020733119920577682 -7.349142099227081e-05 5.2999708660753274e-05 7.285379281464377e-05 0.07760212651984603 0.0036966750255022253
0.2 -0.25842910545432346 0.04585874703490361 5.255335893720604e-05 -0.0001123209484335402 0.00012925944303777875 -8.574518591567343e-05 0.07748377451444885 -0.0040766440667510204
0.201 -0.2536461962181553 0.06870621284695158 1.2154492388349526e-05 -4.371193651313513e-05 3.869433564598487e-05 5.3955140180992825e-05 0.07719522534786741 -0.011791928136115718
0.202 -0.24770426764678563 0.09169003116208886 -2.9717545825521042e-05 3.1590681585877555e-05 8.50769053690031e-06 -0.00010445770479402659 0.07594190960877525 -0.01972071924161186
0.203 -0.2398092893930891 0.11226311467066453 2.038812384742392e-05 -5.895016804100763e-05 -2.7231775649122805e-05 -0.00010042439114269369 0.07361078078957374 -0.027300507538500298
0.204 -0.23034035732720126 0.1331127281687657 7.892188311550324e-05 -8.86310631413762e-05 7.956625859581759e-05 3.9829567100449805e-05 0.07048560848967088 -0.03512033067305117
0.205 -0.21906330198286827 0.15423710251513037 6.97565143004577e-05 -0.00012780977587441923 0.00011403554851035881 2.5394270478804892e-05 0.06706565763200095 -0.04252332878245623
0.206 -0.20611590661374485 0.17395995684845766 6.332792521502501e-05 -4.9006100892526096e-05 2.0802032131905482e-05 -0.000119305525694142 0.06256962668791634 -0.04908427925895077
0.207 -0.19076885259551832 0.19066483269159165 -2.1010669154024756e-05 -7.510544905587372e-05 1.6875959125327858e-06 2.8094860093724207e-05 0.057402697051746776 -0.055614942716930515
0.208 -0.17535325201051788 0.2063356087771196 -6.822256823955919e-05 -2.6433969107794558e-05 -5.762118850297452e-05 -2.3564279231051533e-05 0.05177317429430119 -0.06111046187253022
0.209 -0.15428465622508952 0.2217864261275744 0.0001073015390438326 1.4848124787339445e-05 6.732123062778949e-05 6.264947176495606e-05 0.04513117238623824 -0.06643967819364059
0.21 -0.13787845148283662 0.23727828598477055 1.9318034783096048e-05 7.520471990608178e-05 -4.03653347660941e-05 -6.941117960604315e-05 0.03833130982349549 -0.07097205380065741
0.211 -0.11574313583647391 0.24874306044474886 -4.487700444598176e-05 -2.2827450323363086e-05 -1.751130075064469e-05 6.251434290661552e-05 0.03136515120375594 -0.0749262773788077
0.212 -0.09559019695337188 0.2591629775203943 -4.954142211622949e-05 -1.1080315195849382e-06 -1.5699171427409997e-05 -2.544705620961612e-05 0.02387329893981781 -0.07778247676643939
0.213 -0.07270056150008654 0.26861002553423824 4.088884029788125e-05 -2.6172684404275812e-05 6.593302263175337e-05 -7.78724653603286e-05 0.01592798185007275 -0.0798477432151557
0.214 -0.05128150345975986 0.2747038582050959 8.745542473050449e-05 -9.461521577647233e-05 -2.3162982546211374e-05 -3.380593473703677e-05 0.007306219008802694 -0.08127627339714018
0.215 -0.024514252873371802 0.279321843412738 -7.783445391459181e-05 -4.472998902819497e-06 2.188817296656258e-05 1.0978797959878658e-05 -0.000817422992289792 -0.08211873445566942
0.216 -0.0013543163031148418 0.28377972731905743 -5.390225103179878e-05 -9.90982953821296e-05 0.0001697401716107629 8.693370644654869e-06 -0.008824997237442735 -0.08202709890624278
0.217 0.023217123103991183 0.28267853226156464 -8.34889234601483e-05 -0.0001020432689493547 -0.00015798376494608577 -4.446302360892911e-05 -0.017540304835648137 -0.08091876913028671
0.218 0.04831174200380497 0.2811577771018955 5.5445614671803774e-05 -7.126329478060808e-06 1.9632859962062062e-05 -2.5873395186015874e-05 -0.02568992367001276 -0.07862746377106605
0.219 0.07367500612351448 0.2786794530757694 -3.4617093524776612e-06 -1.3673485994696094e-05 2.597406807619812e-06 5.0957283696018934e-05 -0.033260851934614505 -0.07665187225136337
0.22 0.09733269964041387 0.2712102937420898 -2.1177952771516187e-05 -7.489586669528499e-05 0.00010430402955246732 -2.102379638277692e-05 -0.04068432685574922 -0.07289168992687745
0.221 0.12098775191355757 0.26296123071617283 2.69537169698625e-05 7.394490868045721e-05 0.00010643591213383291 7.338364986551168e-06 -0.04839644185610189 -0.06892707808339557
0.222 0.14402685161979217 0.25491116032074757 -7.256171647310807e-05 -0.00010423270556994806 -0.00011194980288958658 1.64502093564332e-05 -0.055444343953733224 -0.064275403032159
0.223 0.16520834934783427 0.24251654609692214 -6.510112499246747e-05 -8.354849212858454e-05 3.7015291157093624e-05 3.149639047228372e-05 -0.06149684418046147 -0.05816738314401371
0.224 0.19061039096059187 0.22805908332797353 -0.00018894172681451374 -3.206841159603392e-05 2.717644284365391e-05 -1.7446442942606857e-05 -0.06711210343979783 -0.05203696688736749
0.225 0.20887041984655866 0.212533590829897 -1.5580305814849382e-05 -4.032490942590724e-05 9.869514255208994e-05 -0.00010702369039643124 -0.07247128752028627 -0.044873929742760686
0.226 0.22798215985813575 0.1930011447981363 -4.169462040111674e-05 8.989397182739218e-05 -2.7710531354697337e-05 8.533972691567936e-06 -0.07698726821459556 -0.03808344419126723
0.227 0.24636060112120195 0.17316771461784516 0.00015691852409155656 1.654553328946453e-05 8.831596769875122e-05 5.565590392930647e-05 -0.08012191534972053 -0.030555533419607404
0.228 0.26241232774763434 0.15092592078764738 -3.1285600107741884e-05 4.592886253246035e-05 5.5238705390431315e-06 -0.00011682869785719567 -0.08334781203943108 -0.022186873848180307
0.229 0.27453501453069884 0.1296736542327917 -0.00011452183062314203 -5.027901893196925e-05 5.265629895340378e-05 6.041590538444912e-05 -0.08577491039077371 -0.014329751872693421
0.23 0.2863546294629732 0.1045839786215641 -4.058951634384215e-05 -6.519393217520017e-05 5.3831426815037876e-06 -3.555502381967894e-05 -0.08688013788828325 -0.005753914418417299
0.231 0.29631561834087233 0.0795518234969638 -0.0001107377531656117 -2.7626061553553486e-05 -1.874882619056748e-05 3.309104603587519e-05 -0.08742153569936709 0.003052827296772169
0.232 0.30261777913963295 0.05394488119941914 1.1334801181847048e-05 -3.6521608753992e-05 6.874306628708676e-06 -0.00010621304260992786 -0.08702687092788612 0.011590124589305062
0.233 0.3092130812041238 0.026522981207730657 -9.419266542613114e-05 4.6978767909506175e-05 8.901167979475437e-06 -8.332258267240329e-05 -0.0858244206275371 0.020097838475446037
0.234 0.3089446275161715 0.00021474282475226157 -6.525243420973551e-05 0.00011405975518660466 4.757139071723015e-07 -0.0001041431290860986 -0.08390531218566843 0.029070195475580318
0.235 0.31010747297196617 -0.02767955122956787 2.4227173587558407e-05 3.916857737890057e-05 7.0035726099021e-05 -9.240416518623487e-06 -0.0809454121763473 0.03738328180229012
0.236 0.30767767821572733 -0.05468725928202411 -0.00013058680657005928 -4.613675719703498e-06 0.00011174011548451287 -1.6493338956145188e-05 -0.07729118940592966 0.04489147631416357
0.237 0.30161563032521205 -0.08105463683941203 5.924377992654823e-05 6.633138667027922e-06 -2.2052074288088778e-05 -1.4509621594471626e-05 -0.07267273533884626 0.05289072642508513
0.238 0.2945772100444688 -0.10831034906945344 -4.934909550486385e-05 2.7257969535241143e-05 1.4458492869592056e-05 6.280286120767327e-06 -0.06744348900390484 0.06003059599700403
0.239 0.284135772841055 -0.13310246520984387 -5.034751092596318e-05 0.00013305423731236232 8.259688411883102e-05 -3.4852802509631784e-05 -0.06136666249297952 0.06645876427177615
