!Created with skrf (http://scikit-rf.org).
# GHz S RI R 50.0 
!freq ReS11 ImS11 ReS21 ImS21 ReS12 ImS12 ReS22 ImS22
0.13 0.0013930642687415293 0.001541333356180543 3.966258554696421e-05 -0.00011577795981186185 6.668890919316819e-05 -0.00013633126713250585 -5.780422439948279e-05 -0.0004588757944107994
0.131 0.0013025558114488638 0.0015383220294701732 3.226617904920741e-05 -0.00018379650790623997 4.950457486708256e-05 -1.9885626581328658e-06 -0.00010565822800399082 -0.000673038083729725
0.132 0.001320177474035814 0.0015421064502231358 -8.486434402378314e-06 0.00010717641692624207 -1.4772647444472441e-05 7.636469927448916e-06 -2.1045986706160343e-05 -0.0006537925201137493
0.133 0.0014229112010493848 0.0012497486805263893 4.5667852145203205e-05 7.288142544345105e-06 5.299760889053475e-05 5.333834399061552e-05 1.2652815338268962e-05 -0.00061039925197616
0.134 0.0015601233936608616 0.0012402836798876388 -2.3273300627947563e-05 4.797830227726605e-06 7.64296687303741e-06 -0.00012468239896878827 -0.00019300371175234976 -0.0006625019782881704
0.135 0.001422936566362607 0.001235492902763074 9.051580112185047e-05 -7.216086969963428e-05 1.356893037837801e-06 -1.7546816711183618e-05 1.606889118844283e-06 -0.00039282112480491354
0.136 0.0014501743780429845 0.0012200454006658296 -6.493020723097135e-05 -4.5096164400708694e-05 -5.7031177667096994e-05 1.0176451905339283e-05 -0.00022722480194463 -0.0005812553295188277
0.137 0.001425202298735843 0.001021359056558296 -7.787989136759321e-06 0.00010737510073528652 4.754307352436243e-05 0.00011999882102031574 -0.00018849474579557088 -0.0003815735007532875
0.138 0.0012782070221385743 0.0009328055952579158 -2.4003534177235225e-05 2.9005623957314796e-05 1.6251464540290543e-05 7.335295116198844e-05 -0.00014480642486504965 -0.00039013784039720293
0.139 0.0013361763618094176 0.0009073056506601702 -8.743961669048186e-07 7.204925927369296e-05 0.0001697858061403453 -7.912855436857405e-06 -0.00024027668576799194 -0.0003842315604971083
0.14 0.001376132406976747 0.0009201130876942356 0.00011686742928715762 9.527893260152666e-05 4.417278339664027e-05 -2.5061377758895866e-05 -0.0002579408541369574 -0.0004192512555824622
0.141 0.0013429625148031776 0.0008742794681176845 -0.00010677932930311833 -6.979959901526592e-05 3.5433952104637174e-05 -9.293438163656851e-07 -0.0002634537832035225 -0.00036643436825324074
0.142 0.0013349981504543948 0.0007949800050748275 -2.459343793641182e-05 6.095463187461971e-05 0.00011273992033623174 9.868683602908083e-05 -0.00014570987221944342 -0.0004081087701438619
0.143 0.0012709889938478476 0.0008789596332089746 0.00010106291797181605 -7.024260149709373e-05 5.707011067690691e-05 -7.617352647832835e-06 -0.00016162571515364603 -0.00038279637896207946
0.144 0.0011405087997653355 0.0006337199316949053 -3.548642851276462e-05 -7.610089152979138e-05 -7.648298908967669e-05 7.904932085439238e-05 -0.00017911140605071145 -0.0003697246224484077
0.145 0.001149745965620933 0.0006309252136805563 -1.1721367289752631e-05 7.79206673603319e-05 4.181870899797928e-05 7.94654555866024e-06 -0.00021414121113122022 -0.00030595851285448436
0.146 0.0010653829672290754 0.0006426206560509431 4.349352036485174e-05 -7.5651701877764696e-06 1.2348595121058818e-05 2.553008017223135e-05 -0.00013691287867165518 -0.00033387996129441357
0.147 0.0011551108346168578 0.000641678913679676 -3.6210737251956174e-06 3.370057271115258e-05 4.256603656076157e-05 -9.206858633549155e-05 -0.00020285476542311403 -0.00022609773460288452
0.148 0.0010167867756160679 0.0005726194190010529 -7.53769614496602e-05 3.2457574640043236e-05 0.00011903104415988066 1.0362249793354771e-05 -0.00023067184983811145 -0.000285810956645221
0.149 0.0009174929098165826 0.0006301610505491662 -1.8400076221929925e-05 -6.153178024870597e-05 -3.0615783650765098e-06 -0.00015067179204386347 -0.00019916357654843064 -0.00023695993125730805
0.15 0.0010674530145121138 0.0006175563762496279 -1.7908855336839142e-05 -0.00012531964606750278 0.0001002017671746035 -2.1748782914414447e-05 -0.00018286173318798007 -0.0002212752042385614
0.151 0.0008752621772904949 0.0004909741612548127 -0.00011245191181172885 -9.764532673250591e-05 3.574819514576878e-05 -4.132873065910019e-06 -0.00011441607404145588 -0.00021610861106502075
0.152 0.0007097275697385074 0.0006379909588852284 -0.0001411236748409469 -6.024439083025409e-05 -1.3405501229650952e-05 -9.89411352697477e-06 -3.5064295330039654e-05 -0.00016811813887874537
0.153 0.0007055609502544723 0.0006971452164201871 -2.2455309796810788e-05 -0.0001625102569680233 -0.00011806092139298354 -2.64100261316316e-05 -2.359441277787657e-05 -0.0001776262715245264
0.154 0.0006863504984398633 0.000620837068723026 4.989586404286554e-06 1.3213274645049423e-05 0.00011487264310758629 7.920950156292866e-05 -5.605128818328861e-05 -0.00024716301151208345
0.155 0.0007407075400064229 0.0004841863085060834 -6.515591668430142e-05 1.8817838845482516e-05 0.0001314681441045359 4.055921272964839e-05 -4.165277745041323e-05 -0.00016585537195935366
0.156 0.0006744889015003514 0.0005881027087209717 3.54642227478122e-05 -1.913358328073296e-05 0.00014015904973810518 -8.717968820571538e-05 3.190424794105062e-05 -0.00017227100766642415
0.157 0.0006200258286627943 0.0006643512418078722 -4.3618483660473354e-05 -4.799390135316303e-05 -1.260358006230485e-05 -2.0379576609804716e-05 -3.604425575033018e-05 -0.0001115015884160518
0.158 0.000578295366738269 0.0007537555924360094 0.00014103367291239797 3.485784043162352e-06 -3.678443358981282e-06 -4.441544827358168e-05 1.8250229301800647e-05 -0.0002540209926615853
0.159 0.0005621164012586659 0.0007760765450346382 -9.241187169655552e-05 -2.8239366564141967e-05 6.67176774753466e-06 0.00010611397825304834 3.363142339785359e-05 -0.00022020402530573428
0.16 0.0004580957623487692 0.0009116270365688274 6.510171146567948e-06 -3.544935363317992e-05 -6.435414771281662e-05 9.39363191956994e-06 3.434456134943598e-05 -0.00020873021949011683
0.161 0.0004070412447597753 0.0009255850911784574 -3.3101532847188756e-05 -0.0001247263279996736 -1.428970330720939e-05 2.4453913504696773e-06 -7.415246861634895e-05 -0.00018403935421565978
0.162 0.00033371682403604574 0.0010032811320707477 -4.864634290309013e-06 -5.336507529175366e-06 4.4312720247781784e-05 -2.8809241679122324e-05 -9.473569170902321e-05 -0.00018891250537221918
0.163 0.0003554272577949172 0.001049876041150678 6.027770383768708e-05 0.00010231528305530273 -3.742134034558193e-07 5.263821591434866e-06 4.191982786862285e-05 -0.00025008403549074573
0.164 0.000309560382583522 0.0011683486573310033 4.2137027249613874e-05 -4.694252131902316e-05 6.101335195692191e-05 -7.006714536412535e-05 0.00010348459593663675 -0.00039723907187757575
0.165 0.0003755931836878451 0.0011424256584325735 6.106225116622797e-05 4.6432814753723444e-05 5.927610713952303e-05 -4.02473833370257e-05 -6.694958005596988e-07 -0.00030687378331918094
0.166 0.0003971966515102027 0.001187633801892051 -5.1647886255091045e-05 -8.358935875343976e-05 -0.0001171767885660523 5.836235611314024e-05 5.900885415819806e-05 -0.0003469533676573528
0.167 0.00036668955666919047 0.0013752525957995278 8.632462761407724e-05 -5.392320333716253e-05 -4.598925566301669e-05 -0.0001341266544740922 -1.313866111413112e-05 -0.0004329327319792875
0.168 0.0005306016466404221 0.0015617027204491505 -2.0321514055382765e-05 9.840589250993631e-05 5.791967618291393e-05 -2.075740509360656e-05 7.762326653944889e-05 -0.0003568071034569204
0.169 0.0004145172839168795 0.0017354472504581045 3.957691449932691e-05 1.0340786697238197e-05 -3.860543684953285e-05 -5.3959247723842724e-05 0.00011845896676210457 -0.00053675787556209
0.17 0.0004397704048566911 0.0016195840455900594 3.697669002163707e-05 2.7531391057297694e-05 6.3328589235280405e-06 1.0965380189521528e-05 -2.732801608008775e-05 -0.0005478902295099432
0.171 0.000544425697670075 0.0015927590188245747 3.1479694536694735e-06 4.6009665359217164e-05 1.1345304403882679e-05 3.9575961563526875e-05 7.25032441444371e-05 -0.0005418647364448185
0.172 0.00040114712604592844 0.0017880999526138077 -7.236091147505303e-05 0.00011107754493042619 -8.936606588483994e-05 -2.919854337353937e-05 7.911685191561239e-05 -0.00048684167174234026
0.173 0.0005282839635555054 0.0018513930475893615 3.080015810568956e-05 -1.6539375385253655e-05 0.00015811142280092535 6.370254823956739e-05 4.8602713234094276e-05 -0.0005917590900218673
0.174 0.0006460672001864445 0.0019361540034968465 2.4061457952509958e-05 -9.182393585948368e-05 -4.13632014171348e-05 -0.00012262059220036905 1.6831509217717467e-05 -0.0006478328853686112
0.175 0.0007585208368903467 0.0020095214121529027 5.953932834747972e-05 -7.076983234253643e-05 9.48196463874233e-05 5.6105853280388965e-05 -3.863202270963005e-05 -0.0007031983046486325
0.176 0.0006705651096718165 0.0021922504815798877 2.527616969730561e-05 -3.760327808241016e-05 -6.115987729958109e-05 -3.149940665984466e-05 -8.584337316124877e-05 -0.000617526520259452
0.177 0.0008741764590896826 0.002227237721655239 3.0817395720419307e-06 -8.140633756151474e-05 8.210096943735028e-05 3.6051823295679777e-05 -0.00016959330957772503 -0.0006988462796981664
0.178 0.0009401910585193317 0.0021785187501354632 -1.9862587192599327e-05 -0.00011654535798871018 5.8608314073012225e-05 -3.3370305826534284e-05 -0.0001565797324683031 -0.0006433069477847995
0.179 0.0010382111719130038 0.002407445741393229 -2.152920252937135e-05 1.1462346510163785e-05 1.6404607028948423e-05 6.818673256407873e-05 -0.0002302110303449417 -0.000786225521673909
0.18 0.0011447168684580967 0.0023091391317562387 0.0001001246599134449 1.9297045161844565e-06 -5.113785086627421e-07 7.010764242686562e-06 -0.00025332910583966825 -0.0006863903540506588
0.181 0.001172969205495914 0.002360062003874494 1.2367737777627054e-05 4.1073198802699934e-05 3.2305899269373577e-06 -4.735945336402362e-05 -0.00025636556086269606 -0.000785366676983068
0.182 0.0013129428783698073 0.0025648960113812537 -3.752782963627632e-05 6.86592900956099e-05 -3.80441287589007e-05 3.977397362841745e-05 -0.0002639158329939375 -0.0008489259445326294
0.183 0.0013930708296199417 0.002606252210521188 8.916546803151372e-05 -7.057868638468878e-05 0.00011332065076188585 9.255465162205067e-05 -0.00030493835119253175 -0.000745223635647131
0.184 0.0016962276843466558 0.002630769505016536 0.00011551145543993513 -6.404918593576369e-06 -9.056853969824504e-05 -1.664541624936869e-05 -0.00027404449769557955 -0.0007174167686298375
0.185 0.0016116842179210793 0.0026229998472546636 -0.0001533385339176129 1.1037678380402962e-05 -3.307330264336175e-05 6.638010980594739e-05 -0.0003761375396814166 -0.0008041947833408339
0.186 0.001824507065525432 0.0026606932904514793 2.8506913747928434e-05 1.6413156868100463e-05 -8.363743909133106e-05 -1.156845958613532e-05 -0.0004508879232338343 -0.0006690590337600959
0.187 0.001977936841628543 0.0026053560346748824 7.388000171110148e-05 -3.2117949984881895e-05 1.6066253890243703e-05 -2.5211380255251e-05 -0.0006090901714516132 -0.0007822347258866744
0.188 0.002155937667106109 0.0026847424796011855 9.256335897621142e-05 -3.458464696279923e-05 -4.452462255561968e-05 -6.839844634062804e-05 -0.0005213358595501834 -0.0008754715889986911
0.189 0.002208224203017566 0.002759860140219538 -1.1517633655487088e-05 -6.524171341085603e-05 3.228917116692843e-05 -6.315802202364873e-05 -0.0005092940610468316 -0.0007341443552507165
0.19 0.0024131872206829873 0.002741704477474393 3.483398358446291e-05 8.463474865056585e-05 -5.405712315581678e-05 -4.003439765205622e-05 -0.000700152805735073 -0.0006673292898661346
0.191 0.0024506625953055684 0.0025985560307302084 9.704810856859988e-05 3.1646070504446424e-06 -5.6077838422589095e-06 -1.981130135682964e-05 -0.0007265861276431137 -0.0006846253123201948
0.192 0.00268890736188594 0.002553594738943712 8.173328876457508e-05 5.887762771841862e-05 4.547240938573456e-05 -4.430330261415947e-05 -0.000717067432798922 -0.0006597744053512318
0.193 0.0028170861177500696 0.00254661902780427 -3.421191955047921e-05 2.6643753419000115e-06 1.9329820165249762e-05 2.7706232064807206e-05 -0.0007383247092016028 -0.0007151351155821475
0.194 0.002869036109833167 0.002324109414529 -2.7576741896099706e-06 9.468359632893515e-06 7.776204501711763e-05 -9.266678113576833e-05 -0.0007498115354861863 -0.0006105785786737275
0.195 0.0030843833418212974 0.0024651242366417673 2.3022846431653724e-05 -2.0201604319268606e-05 -4.281252516831166e-05 9.552572526996845e-06 -0.0007890444309728828 -0.0006819490062471548
0.196 0.003206683030278255 0.002377391143893992 2.8471343938717166e-05 -7.923131625211452e-05 9.117513047516249e-05 8.265388510400547e-06 -0.0009759583369783189 -0.0005716615554832316
0.197 0.003411983595093959 0.0024137940512423553 4.372368395491945e-05 -6.497536114254713e-08 -3.554464871757738e-05 -9.753396259108207e-05 -0.000922522559806429 -0.0004679907741249085
0.198 0.003546426170387532 0.0023598661704899502 -4.627165540275672e-06 2.4497964817281926e-06 -1.5201759148705857e-05 1.6644403928363697e-05 -0.0009186824927085421 -0.0004846225004634892
0.199 0.0036331330253832447 0.002205740824482641 1.6163444973880318e-05 5.469008145712174e-05 -0.00011082399333028991 7.755476375139147e-05 -0.001057077308568073 -0.0004153951375558353
0.2 0.0037637237202485267 0.002048521687524941 9.306654677403093e-06 6.628586898991042e-05 3.098863831858303e-05 -4.9352272857715424e-05 -0.0011037444099011105 -0.00034173193846189105
0.201 0.0039649905839621675 0.0019780528355484855 -2.5453741190993792e-05 -0.00010557842090074657 8.311610590720263e-06 -0.00013321065334491192 -0.001164507445674357 -0.00040061688103464315
0.202 0.003992376264582033 0.0018783538411235865 3.1765418977892404e-05 1.4546356967740551e-05 -1.3453861840496792e-05 -8.056455699877244e-06 -0.0009993463921426032 -0.00027802395074470054
0.203 0.004104795036061288 0.0017848988693938425 -1.1442170892990387e-05 6.209073198479784e-05 -4.083905621983002e-05 -0.00010728477203925703 -0.0011290430828568955 -0.0002717106383307359
0.204 0.0043309705604780875 0.0014845877564374304 4.006894413217594e-05 -7.686294030800966e-05 -7.405312869876172e-05 -5.372564801560806e-05 -0.0011211781967553007 -0.0001339404933883792
0.205 0.0042795120528291925 0.0014802476935810137 2.568553460204709e-05 -9.40618108388223e-05 5.362306492269955e-06 -8.07167562050771e-05 -0.0012032961635365432 -0.00012580801474974137
0.206 0.004387816604669096 0.0013651596632756854 -3.658047897485347e-05 5.249330508871385e-05 -1.2375433481597005e-05 -2.7179959649749835e-05 -0.0011830003775718716 -0.00011863306772850545
0.207 0.004472123154193655 0.0012327218687113244 -8.708194038312065e-05 0.0001106800381979782 2.7462276491869062e-05 0.00012335682318554268 -0.00117533273508181 -3.959947551990747e-05
0.208 0.004619437369043787 0.0010451064286786248 -5.382435336577419e-06 4.224038608730739e-05 5.490910367071671e-05 -8.036773495306008e-05 -0.0011578757926912757 1.6894446456736426e-05
0.209 0.00476198437604325 0.0009142698667164089 3.41526061641075e-05 -0.0001377786820363344 1.3032355871756085e-05 0.00010674159577933715 -0.0011558096508793654 -2.553520644023052e-05
0.21 0.004538563187605329 0.0008990375458462968 0.00011019045759465024 6.622444454050874e-05 4.392674513085524e-06 -6.844924163446318e-05 -0.001115008074364191 0.00020523952936034217
0.211 0.004707715602409041 0.0006622399732722592 3.86766032013193e-05 9.037878520646096e-05 -1.6320160735367717e-05 -7.504272105316672e-05 -0.0011138245957193849 0.00018935802563393105
0.212 0.004732482548698451 0.0004932655406864604 2.510208508035465e-05 2.2161963767791446e-06 2.275063885711139e-05 -2.1226916318692804e-05 -0.0012180553670064784 0.0003213977131582137
0.213 0.00470847390932441 0.00026910761328103634 2.248402974679229e-05 1.9585473348478415e-05 -7.180562674589418e-05 -8.597857700971455e-05 -0.0011675656770656565 0.000304332092304403
0.214 0.0048205167403314745 0.00012943624481057331 -5.051494410012948e-05 -1.2492413469017404e-05 -1.0993536540551654e-05 6.086614588766612e-05 -0.0011615927438079208 0.00035600068346709594
0.215 0.004869683162689288 -1.260565385578078e-05 6.556268593833862e-05 -3.742538142545066e-06 -2.754324536774818e-05 -1.0443792498049999e-05 -0.0011051302700594986 0.0003835634243017713
0.216 0.004776460878395342 -9.629693685298122e-05 -1.3172281666158007e-05 -0.00016064673250328605 -1.3782692213162934e-06 2.1050314808449315e-05 -0.0010755895073105977 0.0004846941760032826
0.217 0.004870248619634104 -0.00029991856279148224 -1.804887991580213e-06 -7.877666680152584e-05 2.1527233136048897e-05 -0.00010625461475650617 -0.0010523812945981027 0.0005102643211297843
0.218 0.004725179820609293 -0.000590502966726348 2.4470483483229334e-05 3.444027656713654e-05 5.7148680262086714e-05 9.546485274077034e-05 -0.0009937746830401399 0.0006283520768495686
0.219 0.004731916673383869 -0.0007159733529452165 -8.701744525229465e-05 -0.00017542762150871323 2.7646599716464117e-05 8.998035122978205e-06 -0.0010541856140995327 0.0004818095184769755
0.22 0.004733202946835069 -0.0009286677663958819 -1.2715642704588974e-05 3.1044928149993504e-05 9.37201341739194e-05 7.167065376549397e-05 -0.0008964528605850847 0.0006543040066583264
0.221 0.004725577252225233 -0.0010761915607377477 3.343132275611572e-05 -2.63736134371771e-05 0.00012090074400211016 -1.2352584438710238e-05 -0.0008987195646058479 0.0006207450213657187
0.222 0.004651242118840516 -0.0011802523846885058 7.144916381382012e-05 3.2387874112545516e-05 0.00013582161613464767 -3.245856956428761e-05 -0.000889204357399628 0.000697460255769893
0.223 0.004590936252514823 -0.0013600675036919217 2.516354527667766e-06 3.040898451274399e-05 9.699615167413213e-05 3.068458415433333e-05 -0.0007537881679270414 0.0006044721669670232
0.224 0.0044293639145354695 -0.0014703850104078953 -5.6176022068049826e-05 -4.919733517488665e-05 2.4550173979872018e-06 7.421934454394234e-05 -0.000759753711566422 0.0009716209032586354
0.225 0.00440906536449834 -0.001647625503138939 -2.1170345712488597e-05 1.946286921927328e-05 4.6490435132701786e-05 4.3501412793938546e-05 -0.0007340859516763094 0.0008695388494990503
0.226 0.004339333845024756 -0.001841763365370634 -8.255205808870707e-05 9.333376873058495e-05 4.366249685401202e-05 -2.0323022208072317e-05 -0.0007011019588116535 0.0008397177268647025
0.227 0.004259508072748152 -0.001850015367192318 -3.7457206314953326e-06 2.594588353303189e-05 -4.803596938457361e-05 -0.00023643434932476792 -0.0006331571861796177 0.0007740836129616835
0.228 0.004164501443489595 -0.0020164221550848186 -3.349400753413907e-05 -0.00010920768805647246 9.702620978165114e-06 -4.525266222252932e-05 -0.0005507141905363261 0.0007966312973841219
0.229 0.003945253715244696 -0.0021414015039522482 -2.7482159126142996e-05 6.270132336504735e-05 1.746121162332892e-05 -5.174020552869583e-05 -0.0005186225497874183 0.000823210085037811
0.23 0.0038558574377468564 -0.002118560451485184 1.1955512705391912e-05 3.318499630613875e-05 1.5960110060502958e-05 -0.00011872622156686041 -0.0006335896051036989 0.0008134697098799488
0.231 0.003750816325066979 -0.002308980740051687 1.8447575501061402e-05 8.521652538957011e-05 -0.00011276882203455532 -2.568313212083238e-06 -0.0005269313150041946 0.0009266252177616923
0.232 0.00369082736569349 -0.0023637166562580935 5.3108338925956264e-05 3.439637282773298e-05 -7.705665815409906e-06 1.1901180299121707e-05 -0.0004809054941200812 0.0007865708871928663
0.233 0.003582710412039371 -0.002459452645981922 5.065568143197764e-05 1.178621707006755e-05 6.0879215087000623e-05 -7.907668949188636e-05 -0.00034350399909769216 0.0008457167573671677
0.234 0.0034675683248482298 -0.0024508122502190956 -3.89322206382089e-05 5.299070907550779e-05 -2.7949483864521858e-05 -5.156482644243153e-06 -0.0002592231828973287 0.0008419236616348701
0.235 0.0031610076729980162 -0.002454933284572416 2.880007387229607e-05 6.39337932551337e-05 0.00015062948874355504 -0.00014496586413410183 -0.0002655577077853797 0.0008125873888877144
