!Created with skrf (http://scikit-rf.org).
# GHz S RI R 50.0 
!freq ReS11 ImS11 ReS21 ImS21 ReS12 ImS12 ReS22 ImS22
0.13 0.0012873777076927372 0.001393344224570339 -8.731460648393302e-05 -4.8135031067816064e-05 -2.8006805579014458e-05 5.993272513722921e-05 8.195226435086218e-05 -0.000572357509444026
0.131 0.0013453510139141752 0.0013370301067676515 -2.3125480624466945e-05 3.9477183789864375e-06 -2.131514324509301e-05 -1.5553066081546835e-05 -0.0001233332194415718 -0.0005187025018080051
0.132 0.0012085633613508964 0.0013621913652755735 8.025910161788475e-05 -6.771453385639995e-05 2.81298506154638e-05 3.2164055391205545e-06 -0.00013114512067833567 -0.0004885075957361641
0.133 0.0013641469865495364 0.0011717020367641904 0.00012611424554667046 -6.319525665112285e-05 -2.0182834351494034e-05 0.00010368071765389032 -0.00011024643226518749 -0.0004472368876274654
0.134 0.0015251831485361704 0.0013279223272507229 -3.4671047741888195e-05 -3.521421880391095e-05 3.576847876117861e-05 -8.935336573263216e-05 -8.418043242137227e-05 -0.0004984485671582099
0.135 0.001430940256675287 0.0009466277358668745 -1.091219878626192e-05 -5.042431425978051e-05 5.71187889815656e-08 -2.9921477158662917e-05 -0.00014724973251988027 -0.0005783096463198203
0.136 0.0013238183913745697 0.0011163637811891895 -7.576257281016316e-05 3.8032147574632044e-05 4.893507491562909e-05 -3.2114257092409635e-05 -0.00015932963834394922 -0.0003969234498681766
0.137 0.001462876805054656 0.0009567528079613833 -5.11359840641647e-06 0.00012288783719590222 -6.333408673376606e-05 -2.122010092379977e-05 -0.00021110228463737287 -0.000468715025538545
0.138 0.0014693386447363701 0.0009518514274922506 3.497337091071186e-05 4.862206638223291e-07 7.026124107958277e-06 1.4062200935534157e-05 -0.00014331902030466075 -0.00040106697480671733
0.139 0.001263090402419141 0.0009905145419191875 -5.7320187284231675e-05 1.6309496381331196e-05 4.173633752829627e-05 -6.536040566822805e-05 -0.0002491908990578744 -0.0004109065133781267
0.14 0.0013581889230131906 0.0008165864309150472 0.00013203107400025353 2.465424119603729e-06 -7.75779414882799e-05 -1.9961482112572497e-05 -0.00010882514116576418 -0.0003841599969916196
0.141 0.0011801976536807129 0.0007628879093334075 -3.4767675643232233e-05 7.055036739820407e-05 3.528516560280794e-05 3.862050145919366e-05 -0.00016720132562961554 -0.0003557111061656975
0.142 0.001197603904077832 0.0006924170711480125 7.261801606077306e-05 -6.624674326508846e-05 -2.833389870041679e-05 3.5155763397321036e-05 -0.00016165161513831687 -0.00025458405179168956
0.143 0.0011752750117844629 0.000683039878647576 4.5176768527723546e-05 1.4348375307619398e-05 4.2515516684907406e-05 5.587910852606682e-05 -0.00015745261614940803 -0.00034431558797044993
0.144 0.0010999821027831516 0.0007939821074408178 -3.715241753279696e-05 -9.826428571843938e-05 -4.9552300120854556e-05 -2.410975126144328e-05 -0.00020706516191078722 -0.00021719064328261096
0.145 0.0010563172448197706 0.0007186939208070053 5.4129668351698024e-05 -5.562632632707529e-05 9.174926327615449e-05 -2.5786517604843918e-05 -1.846528306378193e-05 -0.00025676936185446605
0.146 0.0009325016099362141 0.0006861853983877122 1.4615766220773964e-06 2.5104129922635363e-05 -7.764486687927658e-05 -3.6141970104304666e-05 -0.0001488135662880867 -0.0002354637551460345
0.147 0.0011064504337257326 0.0005421754343092497 -2.749767671617012e-05 9.216108754649275e-05 2.120640602429811e-07 0.00010725834863405532 -0.00027909068851056737 -0.0001504025062582137
0.148 0.0010066547344645869 0.0007394825495617269 6.352220934022524e-05 1.632923636520027e-05 -2.0995826856879008e-05 -4.053481260294521e-05 -0.00017942918550726351 -0.00012699152832796028
0.149 0.0008263170876465295 0.0006333396556368414 4.532499945795958e-05 -5.6615969211239104e-05 0.00013329633654887235 -3.8337696731588794e-05 -4.4516318983224266e-05 -0.00014949825562973754
0.15 0.0009120075417903816 0.0005462982773872662 -6.866383036107079e-05 2.4199295945355587e-05 2.014196789105306e-05 -5.1297390487838435e-05 -0.00020851094979308844 -0.00010858006856870515
0.151 0.0009248784515949982 0.0006226922618454487 0.00019233357719998146 -3.2610373224624255e-05 7.021549256111992e-05 -8.474764334096806e-05 -2.7543409543885628e-05 -0.0002784850391499321
0.152 0.0007222844140366319 0.0006236482587655253 7.392313642894907e-05 -2.835186061476007e-05 -7.035097819990891e-05 2.142456635819506e-05 -0.00010192473486775788 -0.0001247149333376053
0.153 0.0009742004549734314 0.0005675807585370794 2.8144987101785706e-05 -9.194599231095379e-05 -1.1265241221569903e-06 -9.49584183534371e-05 -4.201368310335158e-05 -6.791404862045719e-05
0.154 0.0006666958019747409 0.0006047133610549487 -5.73576682241379e-05 -7.853836155109633e-06 -1.472683856249606e-05 -0.00013732400553309606 -9.726627032047591e-05 -0.00015072000888816903
0.155 0.0006062424837440896 0.0008134755733213739 7.212877673589828e-05 2.7000077683991607e-05 -1.4821682246159065e-05 -8.086255960818885e-05 -0.00011316475879365767 -0.0001150003587046009
0.156 0.0004990649831214298 0.0006685191853994359 -2.4789234800616076e-05 -9.632224478025566e-06 -1.3412765499085056e-05 7.212180669854758e-05 -9.436833330614275e-06 -0.0001336435779797626
0.157 0.0005624758377223803 0.0008159619818218992 0.00014826573298133464 -1.0208095132014048e-05 3.444735832064927e-05 -0.00014967338224761677 7.280238328672076e-05 -0.00017364717418105987
0.158 0.0004598922142771206 0.0009253219400029001 -6.376460401994862e-05 -0.00010024112640842972 5.720759623560901e-05 -0.00010521783277300468 -1.680959532768192e-05 -0.00020992618208785451
0.159 0.0003910402642374496 0.0008602344686310645 -0.00016692596278260722 -1.9802996611525488e-06 -0.0002317662597493942 -2.4679174765573617e-05 7.35869584729619e-05 -0.00025349438385614196
0.16 0.0003156994390141062 0.0008675611102694052 -2.9212277315133785e-05 -2.8356592977794384e-05 7.74042475719051e-05 4.2267650580709305e-06 2.1423112030252257e-05 -0.000357463327622006
0.161 0.00040040329795010444 0.001013846952270026 1.0652618343502758e-05 2.6711580602062625e-05 9.917343113610888e-05 4.578723154672312e-05 0.00015977301871569603 -0.0004792479244117551
0.162 0.0004294381335832369 0.00102468133389767 0.0001955260020955484 8.177941532510856e-06 -3.489767357876193e-05 3.8970994641750454e-05 1.8488858522784012e-05 -0.00025252459486587364
0.163 0.0004499051725511014 0.0011649159254544321 -2.5776698349678082e-05 -3.519521981309266e-05 -2.817057120641788e-05 6.494522699348536e-05 0.00014252012139379257 -0.00020803583717235243
0.164 0.0003533259937590296 0.0012498634300472957 1.8525122820535358e-05 0.0001045194109606032 1.2437739395594293e-05 8.644552121900367e-05 0.00021463916942215038 -0.00037667238930388984
0.165 0.0003145568191586199 0.0013133787692871063 8.905424279437224e-05 3.8512706012356074e-05 2.8366317743608998e-05 3.85763594962079e-05 0.00014897576341681927 -0.00037918220713461305
0.166 0.00022973877715980426 0.001331019494468826 7.751224090564721e-05 -4.737063268389249e-05 -4.2364031785820866e-05 -1.1773472618005616e-05 0.000143099394640041 -0.00039466865497575666
0.167 0.0003611145402035622 0.0014158215044521357 3.400856742924973e-05 -4.819765940435275e-05 8.971117431854412e-05 -8.24643097855721e-05 0.0001123056979796601 -0.00042351639089661393
0.168 0.00037920081638949014 0.0016243004472903508 -2.137044571284899e-05 -9.9044897112313e-05 -9.140631590377196e-05 9.853182481115982e-05 0.00012998048435404225 -0.00041510540465239875
0.169 0.00020530175327227278 0.0015844571558892855 7.918444067229278e-06 -8.253106347979137e-05 5.6023801694757525e-05 -4.6131161124599275e-05 0.00013167357897826424 -0.0003813096459474676
0.17 0.0003133560938394508 0.0016684890502799744 -5.6947228793077923e-05 4.958764550503492e-06 0.00014811844309414656 -1.9174078536678595e-05 0.0001781497488584008 -0.0004716735745752512
0.171 0.0004491453105748487 0.0017925700725917705 1.8149417428479425e-05 -4.594632546106963e-05 0.00023238310509881343 6.0658590844881214e-05 4.303158392462591e-05 -0.0005182970483658008
0.172 0.0004452022159190573 0.0019356060585308799 0.00011019566222293886 0.00010287857145135953 0.00011966882530824231 -2.0159911984490067e-05 3.0269592857196117e-05 -0.0006505365044900541
0.173 0.0005469544683286787 0.00203294359252581 -7.934360057213825e-05 -3.690637062383166e-05 -4.189479283461016e-05 2.6673867408122943e-05 -1.940377636264851e-05 -0.0007060484615267083
0.174 0.0005313474982820614 0.002080292282775544 -2.873042730340426e-05 -1.5756955942817424e-05 4.798956793998613e-05 -0.00010776656051107662 7.327017396731098e-05 -0.0007115828532504944
0.175 0.0005991502694111185 0.002188248719433287 -3.2917941976365755e-05 2.279295631377555e-06 2.132458167939085e-05 -6.333043178251799e-05 -5.2365247772228696e-05 -0.0006359751302100365
0.176 0.0007218907853839329 0.0023727650728664423 6.92899787233664e-05 -7.043791380528394e-05 -1.39347898183456e-05 2.29215191597375e-05 -3.263182134787693e-05 -0.0006275639543049174
0.177 0.000765458002004497 0.0022676572981666595 -3.905851143529888e-05 -2.977650092330991e-05 7.5663483297639426e-06 8.965076008447809e-05 -8.814614001733835e-05 -0.0007539898228481599
0.178 0.0008538017687367976 0.0023699032605207344 -1.6131773298568177e-05 -5.7529101974342596e-05 -3.508753781481091e-05 -5.103032150934001e-05 -0.00012116361077681762 -0.0009421602364463178
0.179 0.0008987282221883503 0.002524248812047872 -8.05456526324239e-06 1.2546651098282833e-05 3.49766184172908e-05 -1.621198983614991e-05 -0.0001594253847551523 -0.0006690763141942371
0.18 0.001063135551520305 0.002440947461182769 -5.734482359816754e-06 0.0001325857881735009 7.73288448983292e-05 1.2018107986011003e-05 -0.00016951503263493793 -0.0008361103834082437
0.181 0.0011683592137151106 0.0026474604891880567 6.072387893553379e-05 0.00013036197655786567 9.163149104147054e-05 6.992501193138956e-05 -0.00014278436479899195 -0.0007920748038618232
0.182 0.0014352043176506168 0.002559261734974371 2.432614520177737e-05 -2.599584086744934e-05 7.377984589724425e-07 5.2785932900562394e-05 -0.0002489391793300602 -0.000737810384982831
0.183 0.0014596561893446102 0.0027604049591463107 -2.3112413789209196e-06 3.20473941519285e-05 5.6824374447917365e-05 6.266168517577957e-05 -0.00031857023911475475 -0.0007811196289108055
0.184 0.0017381859500365019 0.0027013006639359464 3.255861743904371e-05 3.224932665184467e-05 9.828492639684907e-05 -6.164374729088604e-05 -0.0004142213170421374 -0.0007405925754444567
0.185 0.0017855284623261233 0.0027775794421600777 8.340243352135025e-05 1.8269270588737e-05 6.783325294603552e-06 -3.345785105128705e-05 -0.0003688222354900357 -0.0007946162314030601
0.186 0.0018370192718973337 0.0028106879106759406 6.718862659877755e-05 9.132652281229667e-05 -8.27118280067624e-10 8.435202625662159e-10 -0.0005022350287234763 -0.000778593244920682
0.187 0.002021008774704496 0.002876479943485697 -1.373195786521394e-05 -4.184481535181139e-05 -7.72792944951289e-07 -6.332149427023128e-05 -0.0004770804072560069 -0.0009017020756925757
0.188 0.0021165824965472288 0.0028777987702889147 1.559947087021948e-05 4.476805978087956e-05 -9.898528593835374e-05 -8.382040266812639e-05 -0.0004844822032394241 -0.00080993677533098
0.189 0.0022907738040189806 0.00288979200724171 4.8993938397379025e-05 -2.761920911485858e-05 2.818359229650073e-05 2.2692476804728857e-05 -0.0006008546100541407 -0.0007658250593306755
0.19 0.0026396295686135812 0.0027914824910687643 -3.8533673315398755e-05 -4.0750443037731394e-05 -4.987860953150942e-05 -8.044351256898414e-05 -0.0005763878778958241 -0.0007948102862674197
0.191 0.002626454973117952 0.0027262756377088066 -4.190406567098255e-05 9.617544791983835e-05 -2.1844476899724233e-05 -8.786857459294402e-05 -0.0007519961094244662 -0.0007802036759101105
0.192 0.0027862545903562814 0.0027391651849259066 -1.0781188557183467e-05 -0.00013082830762552094 2.0593624689197937e-05 -0.00016161506890707332 -0.0007738368881343574 -0.0007202349072511927
0.193 0.00288869700808358 0.0026298443604102547 6.37148429693007e-05 -3.113363106597849e-05 3.526024321367464e-05 3.2613259261785247e-06 -0.00076865470191489 -0.0008003215206444717
0.194 0.002997348649994459 0.0026421914521123006 -5.88354960170548e-05 2.593613054336354e-05 -3.530031290454397e-05 -1.7086220535533095e-05 -0.0008334127006204944 -0.000711801690619911
0.195 0.003155690662204115 0.0026796250059846084 -4.292638737599725e-06 -8.774485670391472e-05 -7.0390746508067746e-06 5.295299828434077e-06 -0.0009679380582816911 -0.0006910210800535982
0.196 0.003281714984320907 0.0025661192871405977 9.620687246830506e-05 2.4034098879758745e-05 6.630606227850509e-06 7.026720221212612e-05 -0.0009475527241159431 -0.0006299623249288264
0.197 0.0034469989220572137 0.002319392652650916 7.125837081390655e-05 -7.965223708319153e-05 6.276601737203072e-05 -6.0159239626295157e-05 -0.0009640133256328066 -0.0005107217557851159
0.198 0.003610708782579531 0.0024696291452748044 -7.247833221037177e-05 -3.996893703397075e-05 7.830051644215543e-05 9.060331942836824e-05 -0.0010196412898883628 -0.0005279675288879618
0.199 0.0037954174966654515 0.002394730098981751 -7.012362003416288e-05 -1.365049779073859e-05 -2.064920689634081e-05 3.545775671715908e-05 -0.0009618305345607927 -0.00045523297828643203
0.2 0.003881054499149674 0.0021758417523059627 1.4625583358742644e-05 0.00011446774222750255 -3.648555077785531e-05 -0.00010864980264307739 -0.0011840366379650418 -0.0003600552912030404
0.201 0.004004388442737051 0.0020642957722928454 1.9202752780543155e-05 1.3987653308197877e-05 -1.4533869965681116e-05 -3.485240794736188e-05 -0.001248556906445947 -0.00038265314105286784
0.202 0.004243377484429161 0.0020123694780775393 9.719503732733814e-05 -9.309496781436495e-06 -6.460415073947128e-06 5.985678578738124e-05 -0.0011775414593152473 -0.00040007962406593
0.203 0.004296853650544415 0.001850152905035535 -6.093958971799025e-06 1.5253474206065104e-05 -3.500568989389689e-05 2.648360042789861e-05 -0.0011411959505685258 -0.0002391553827046556
0.204 0.004374786729830156 0.0017307724315688978 -0.00010309792577286002 -1.0992397447670265e-05 -6.338808884871575e-05 4.1744678586442746e-05 -0.0012132320847705951 -0.00020813078951040725
0.205 0.004422462201328237 0.0015874858069027623 -2.0969100052741464e-05 6.867052462951652e-06 7.215931783877055e-06 5.792008334683266e-05 -0.001105999729574048 -0.00010177918106328832
0.206 0.004491976471103877 0.0013987421222034111 3.072781567422671e-05 -4.0366273523054676e-05 -2.8297280926974165e-05 -8.407608422399285e-05 -0.0012699281361038402 -0.00015452159512318103
0.207 0.004596236849599013 0.0011769320819217761 -2.2515963095691594e-05 2.79526600512107e-05 -5.564780775849891e-05 3.090562578953806e-05 -0.0013529502578332935 -4.447568400242139e-05
0.208 0.0047077159123058866 0.001075162722094749 3.7441328288415843e-05 -7.992089214749497e-06 1.994436014062872e-05 -5.486650137352332e-05 -0.0013523344710489752 -9.773158596952638e-06
0.209 0.0048284822526000245 0.0009678902327122283 -3.128106393179121e-05 1.6359862814701705e-05 -2.134590703278888e-05 -2.248775079376873e-05 -0.0012704797763412499 0.0001087091317055139
0.21 0.004864546047916449 0.0007724233489355769 -2.548898882949127e-05 -0.00015497613326231777 6.365674359905934e-05 3.445329372832139e-05 -0.001252527043069989 0.00017498635471755903
0.211 0.004902495018352953 0.0005821126616089814 -6.44104946212545e-05 5.358450224076045e-05 -2.3194269411504206e-07 -1.4056866491834698e-05 -0.0012329467826292092 0.00021410974405803294
0.212 0.004914804637387179 0.000481803547676629 -8.115213122450709e-05 2.023349880467404e-05 0.00013944365193451996 -9.265847440202174e-05 -0.0012129509719565434 0.00026751693773650415
0.213 0.004952224973080203 0.0002700632366014492 -1.7965859377387572e-05 4.590241617235723e-05 -4.949499904463521e-05 -0.00011937638289931148 -0.0011796226928584173 0.0003776002009989061
0.214 0.004935949386393237 0.00012010272609861889 4.8093610380378655e-05 -0.00011206728431984944 -6.197403686170181e-05 5.574049799549726e-05 -0.0012027766120532649 0.00041176583241408376
0.215 0.004864232681099252 -0.0001356297035200736 -6.534735104056297e-05 -5.429946141801097e-06 -3.68482598589415e-05 -9.045604536783009e-05 -0.001169045578875278 0.0003812562954198328
0.216 0.005059713207738958 -0.00032607769243868937 1.9479321470025863e-05 2.677641984092628e-05 2.744616543240503e-05 -0.00010922364076399206 -0.0010585740105571479 0.0005602643402033644
0.217 0.005055997282740161 -0.00047303351581473146 1.3133644864218964e-05 2.9358482837652936e-05 0.00010509468681213488 -3.067118036114743e-05 -0.0011582101139633299 0.0006317225220217475
0.218 0.0049857678905214885 -0.0005864641861046714 -0.0001445345484886038 -4.296318562525921e-05 6.156201921831526e-05 -0.00012763127545771226 -0.0011461529665293705 0.0005259223084300794
0.219 0.004881588660459686 -0.0007011716796874483 -9.814477344181191e-05 7.818425448940835e-06 1.4354988246695291e-05 2.6096031423521763e-05 -0.0011893234508665133 0.0006754581622337845
0.22 0.004905723614459866 -0.0009419969060250852 4.633794130773405e-05 5.026199288894276e-05 -4.204416828672362e-05 7.410049275770528e-05 -0.0011199461879583628 0.0007121969575341995
0.221 0.004811848737135689 -0.001162511460242661 0.000163697747056078 -4.807398538433212e-05 2.1214690492393616e-05 8.27076233270735e-06 -0.0009683729566839758 0.0006753107978662988
0.222 0.00472686565980542 -0.0012909421691240405 2.5931620141540224e-05 -4.727474476721498e-05 -5.5684296356203376e-05 2.8852439220005676e-05 -0.001027698254843655 0.0008099447842831668
0.223 0.004750422848273899 -0.001524818811844844 -6.246388335946151e-05 4.443950044453724e-05 7.829739606863272e-05 0.0001188923347042713 -0.0008763521763568462 0.0007753309110714877
0.224 0.004507344774115517 -0.0015763628471710555 -5.292746525771998e-06 -0.000146136731047695 1.3231919395217477e-05 -6.326866730547605e-05 -0.0008833052785746555 0.0007537892989972428
0.225 0.004547732613728473 -0.0016644623310553088 -5.920854323285105e-05 1.3805495994988724e-05 -8.535439991874655e-05 -8.862859497413418e-05 -0.0008513147797899793 0.0008329416633005189
0.226 0.004425425553440281 -0.0018393486584099427 -0.00011234731770588439 -2.2331346263278074e-05 -4.898128322222561e-05 1.1420833420854337e-05 -0.0007827764237644059 0.0009072052761171993
0.227 0.004285725711798985 -0.0019718508229388206 -4.800591001653754e-06 -1.8093566309590155e-05 7.450481632682959e-07 9.502550949071706e-05 -0.0006641477611985637 0.0009158268111556353
0.228 0.004150439588413815 -0.00216022246310785 -6.657172956507363e-05 4.609542494481077e-06 -2.090040324324029e-05 9.108093101135748e-06 -0.0005779171152685259 0.00088120802090766
0.229 0.004015313270897458 -0.0021129954375838137 5.493596904191703e-05 -0.00012510591429261043 6.87633264963359e-05 -0.00012739092097407805 -0.00048610556619718454 0.0009709949261245264
0.23 0.0038992346100146743 -0.0021731247954437202 7.504047917627369e-05 -8.681310875142828e-05 9.836067299275591e-05 1.7131963892125146e-05 -0.00045962235383169834 0.0010531297950072398
0.231 0.0038440685416557584 -0.0024426828384086544 3.1251229571295424e-06 4.183262204631614e-06 7.195563890310535e-06 0.00011082500592101767 -0.00043684383430449666 0.0009061445900097805
0.232 0.0036760602343196536 -0.00249396370386814 2.486201114113055e-05 -0.00010613641900301746 2.1040583693943146e-05 -3.859037821827867e-06 -0.00034962942096491517 0.0009366834725055409
0.233 0.0035596096329529817 -0.002532459804903118 6.378071737665111e-05 -7.771702898797969e-05 2.5685291342487325e-05 -0.00011153271983113537 -0.00030401672481375984 0.0009621588967607637
0.234 0.003416624719065641 -0.0025177307329186144 -3.3264667993215516e-05 -9.221464964511305e-05 -2.7631312581186765e-05 3.724589677646228e-05 -0.00033995982285102855 0.0009224696788999754
0.235 0.0033162350596011186 -0.0026198123660379855 2.0816266827096824e-05 2.7989639454102983e-05 4.8111110614463465e-05 -8.153021841858099e-05 -0.0003459955302860843 0.0009479997860626103
