!Created with skrf (http://scikit-rf.org).
# GHz S RI R 50.0 
!freq ReS11 ImS11 ReS21 ImS21 ReS12 ImS12 ReS22 ImS22
0.13 -0.05857002872807692 -0.17508703287101174 -3.381422511796598e-05 0.00011510525109876507 -7.847002094208506e-05 -0.00012939414253059119 -0.036318483608658185 0.038808656497995773
0.131 -0.07107288976253164 -0.17132078359687625 -4.7609144119371294e-05 9.22688075066039e-05 7.67417904218427e-06 5.313194170097771e-05 -0.03286933366675207 0.04189392738990886
0.132 -0.08536597523496563 -0.16585938467691944 -2.6705948629848217e-05 -2.4686724984144208e-05 -9.580376632361428e-05 -0.00011906938793475831 -0.02956685055845243 0.045029958554628144
0.133 -0.09822369860338205 -0.1615198339951167 -7.539791599437595e-06 4.1261685516685304e-05 4.858959108019415e-05 -0.00010857572525684535 -0.02539314802270274 0.047986205328883154
0.134 -0.11111100782371737 -0.15440952134784772 5.1398496059074966e-05 -5.670950140959633e-05 3.507901252464451e-05 -1.204483657394232e-06 -0.021380655345627962 0.05017932320805772
0.135 -0.12394574773719069 -0.145885456998229 -6.582413981994124e-05 0.00011093283267895198 2.4197879139568607e-05 -5.896388119194592e-05 -0.01698847780125731 0.05256547989539605
0.136 -0.1337642304733142 -0.13701348576563774 -1.628137450223572e-05 -5.881772737005873e-05 -8.471494463418313e-05 -0.00017987560562901194 -0.012128620102875269 0.05418397255887759
0.137 -0.14679498290547632 -0.12683582979743152 -6.92277675049267e-06 -9.873758722821511e-07 -4.67593379289718e-05 3.152102195100038e-05 -0.007286113345184653 0.05566608632510062
0.138 -0.15720161322836804 -0.1161904416740439 5.886880625300849e-05 8.332824563900252e-06 7.107152627065433e-05 8.714472679671965e-05 -0.0027557371825851717 0.05625082152091939
0.139 -0.16613249663813984 -0.10586992236779623 1.4184735386105318e-05 -4.0371081180990624e-05 0.00010353930963354482 -9.63607824065326e-05 0.002876325189002616 0.05704117354770465
0.14 -0.17536906790729392 -0.09278579765168764 -4.840549015126547e-05 -6.433145530587534e-06 -3.547337585492969e-05 7.9835585408811e-05 0.007832975626893885 0.05723435219294011
0.141 -0.1835496276944286 -0.07948250837154637 8.683989574088594e-05 3.3445143906154804e-05 -0.00012228009461353806 1.6505753192035083e-05 0.012606215306111952 0.05608436509607301
0.142 -0.19009180646888477 -0.06588905763216067 3.268149137209134e-05 -4.498543858057693e-05 -9.800286361799093e-06 1.0248697098939766e-05 0.017850779592923843 0.055349638639589235
0.143 -0.19648677926465916 -0.051444266434415284 5.237726708653738e-05 9.825668344190168e-05 9.641705583978064e-05 5.033156773294707e-05 0.023460032997261324 0.05395438204666812
0.144 -0.19977643221258679 -0.03660389264400318 2.6958962275786453e-05 0.0001303230797172451 0.00016908789291581112 7.655021098445731e-05 0.028090411235210912 0.05205726900240549
0.145 -0.2050582908660457 -0.020394119512087333 -2.259593191260048e-05 -6.629806067261217e-05 7.04056967960174e-05 1.9765161051412767e-05 0.03276958809113286 0.04949111717442034
0.146 -0.20678363280401857 -0.004850557328389447 4.3813633860860625e-05 1.3622509961443185e-05 4.587323433616586e-05 -2.148344482707132e-05 0.03771123339914458 0.04692165423689566
0.147 -0.2082760276308674 0.010374288798799789 2.4716536939341657e-05 7.400405521855489e-05 -7.885232870791455e-05 -7.365168679929357e-05 0.04186574961966105 0.04327938068822187
0.148 -0.20833358917427075 0.026936495717522452 -4.1571315835557915e-05 -5.4441368615744026e-06 7.789551974460129e-05 -3.8285160776321235e-05 0.04606070461995415 0.03988034931492103
0.149 -0.20620043332375607 0.04283108984593355 -4.682717123224797e-05 2.2194500963544246e-05 5.300344960632403e-05 3.2043505207319065e-05 0.04974399297818287 0.03578995883882916
0.15 -0.20325478097848299 0.05963446698677871 -9.059292568002652e-05 -8.335463435602522e-05 -2.089713579834145e-05 7.868378192816807e-06 0.05357339961666346 0.0316112855827374
0.151 -0.1997632451187095 0.07571467323458286 -0.0001243964258691839 -3.094345677228884e-05 7.489522687003249e-05 -8.599711756552665e-05 0.05611076497296615 0.026660228783857015
0.152 -0.1947838947810888 0.0914767411239844 0.000176101053051795 -5.946377059728047e-05 0.00019744953745219488 3.204616057865789e-05 0.058764375562644654 0.021562193502390883
0.153 -0.18812000376945287 0.10677205585678104 4.518051013993864e-06 -3.466493415361585e-05 5.737241109992321e-05 4.8774491063593154e-05 0.060737603702601485 0.016470030623779497
0.154 -0.18072305807578737 0.12111205350213583 7.126610846471729e-05 4.5258205264718735e-05 -1.9753768527047928e-05 -1.9918207483762436e-06 0.06268690176852466 0.01090968038469103
0.155 -0.17106729416489516 0.13588275177304293 -2.0221930395528166e-06 2.795977724420668e-05 2.9590054346676803e-05 -0.00017542692130722098 0.06372737177937049 0.005550797207322621
0.156 -0.16147072258904865 0.14909875987308746 0.0001544339983205209 -8.566266913380649e-05 -3.953075603135779e-05 -1.559649042039705e-05 0.06445289689249334 -0.00017147720328614864
0.157 -0.14994872711185342 0.1616820752011285 0.0001029333780231214 -4.167760697200569e-05 0.00019093084042290476 -2.271365731996677e-05 0.06450183112583002 -0.006171986952319953
0.158 -0.13802735718119483 0.1743033662680068 3.459634509486975e-06 4.656415302708383e-07 0.0001239060229257538 -3.754266731935414e-05 0.06405777345918871 -0.012297541641690621
0.159 -0.1253570035437535 0.1833312130546308 -2.2292840108382735e-05 -1.720269004107387e-05 1.772288768624101e-05 2.1837194823221416e-05 0.06317713770126733 -0.018019650540644597
0.16 -0.11102059997534444 0.19366303033796742 6.669951556643884e-05 0.00010134144294659961 0.0001374332857825048 -9.922801557547208e-06 0.06158389125183862 -0.023773617564687485
0.161 -0.09717458085776637 0.2036592749221451 -0.00014296136972390724 1.6150180936630814e-05 1.416538410161516e-05 -0.00014978871164743736 0.059652014114771994 -0.029283254948117125
0.162 -0.08200982901290729 0.2114852786479531 1.6274771874508856e-05 2.331714037971597e-05 -0.00014728228896445926 -6.845894125568966e-05 0.05687944158473086 -0.03480777777036437
0.163 -0.06633937670316006 0.21815608456649974 9.491264245601723e-05 5.483235631758773e-05 -3.199835522739382e-05 8.305378051939554e-05 0.054068094186510984 -0.039808977557147164
0.164 -0.047553898460583555 0.2237235025207425 -0.00015814892078329699 3.537764301087723e-05 6.276854504669257e-05 9.957463348853121e-06 0.05042961920258379 -0.04470838096647371
0.165 -0.03274157049670651 0.22900209979017971 -4.089461893070208e-05 -0.0001744728035750653 3.487291538531697e-05 0.00013435221642125845 0.04655675119405365 -0.04956909973435512
0.166 -0.01498208667711885 0.23050880556047315 -2.580532681630844e-05 -3.1575354283007135e-05 3.334576328591396e-05 5.229121241924677e-05 0.04193542372191747 -0.05363719696790571
0.167 0.0017536139823152355 0.23172096470759898 -2.715178292428668e-05 8.098295588331397e-05 4.005703975896618e-05 -9.594679549940683e-05 0.03725756079419074 -0.057423023878613436
0.168 0.02021370572263828 0.2332413353989228 1.3023105409634338e-05 -5.350190807471063e-06 -2.8154111061839272e-05 -6.776087714185478e-05 0.032027868877996815 -0.06111237919657777
0.169 0.03515204701588363 0.2313226428982018 4.15196214117932e-05 -9.99864913644166e-05 -3.550296851375845e-05 4.542895801337819e-05 0.026548082724208617 -0.06394472298779044
0.17 0.054677265922420434 0.23093538814545603 -4.465747189588651e-05 2.891440562547874e-05 -2.1398375083496974e-05 -4.8371846303589574e-05 0.020947668819312204 -0.06657993986584362
0.171 0.07208755773497642 0.2260504263955724 0.00014795095675141745 0.00015444615434804601 8.762050472042682e-05 7.41249731234547e-05 0.015042446191862534 -0.0683369915497482
0.172 0.08843348690042542 0.22052372769938225 -1.215076743287561e-05 2.6619129946761427e-05 5.724876674836482e-05 -2.957399921075516e-05 0.00934142887864252 -0.06945442074087249
0.173 0.10557237883648829 0.2145957206185213 5.497579220326448e-05 0.00013448337267970813 7.907944989192301e-05 -3.6899969948365075e-05 0.0028236759293826814 -0.07051920501941115
0.174 0.1236442754048107 0.20703953380941403 -0.00010711327315552545 3.467408005177945e-05 -0.00010890062319946721 -3.3944832035004905e-05 -0.0035242706737209934 -0.07056023484344413
0.175 0.1369048748402506 0.19927058147332108 -2.4020087236916083e-05 -5.937021033454808e-05 4.109374379140795e-05 -0.00010476215179487472 -0.010342837730754666 -0.07055406413184107
0.176 0.15190557073045052 0.18976022392697567 0.00011958164943342843 1.5943359439793975e-05 8.145737367516677e-05 -3.381234098344377e-05 -0.01559300217471527 -0.06990682323703744
0.177 0.16856878427056676 0.1789492779819475 3.209002197714804e-05 -1.6966569818715985e-05 7.751856258854361e-05 9.51159756056928e-05 -0.021869268521269292 -0.06854483520370405
0.178 0.1799688585604428 0.16602051126188644 -0.00010096702749443842 -4.9006540011568134e-05 1.7786805239651622e-05 4.445084870356265e-05 -0.027966119693698915 -0.06608438166852952
0.179 0.1929172314645385 0.15362516409612723 -4.3228330506729244e-05 -1.957229463913398e-05 4.489960893146337e-05 -6.787611989657151e-05 -0.03373473946994757 -0.06362360145451329
0.18 0.20473208937472187 0.13928478811388503 4.096559617689917e-05 -7.902932784246332e-05 1.3537462532315026e-05 -6.132069607567932e-05 -0.03973360626674578 -0.060603821192321335
0.181 0.21718934387572597 0.12576972541572978 8.877233127124445e-06 0.00011408861989910378 -4.425374417141364e-05 -2.0672602770673183e-05 -0.04498213464074184 -0.05780160545302638
0.182 0.22602920436140525 0.10971770449913963 2.190704999122629e-05 -5.317518142478735e-05 -4.44164703908811e-05 -7.699218275831404e-05 -0.049524507191874484 -0.05347282678802173
0.183 0.2345587627216905 0.09228433469808969 -6.093780092849252e-05 4.8485683438484395e-05 1.621376478149159e-05 -8.090654349525699e-05 -0.05488054581831493 -0.04926581645270665
0.184 0.2420731666526284 0.07487177303996562 0.00012993280294268047 1.6715235406027426e-05 -1.5996912098110683e-05 -5.2838480115352326e-05 -0.05862534330921267 -0.04429026648790454
0.185 0.24798624779465808 0.05782451140295392 -3.086855821885743e-05 -3.214904562753517e-05 3.829745248474231e-05 -8.481780808428707e-06 -0.06316880198870482 -0.03900670833966189
0.186 0.25380471120081044 0.03894250949689254 -4.369677403760768e-05 7.668064711523161e-06 -3.783870332822441e-05 4.245291056945488e-05 -0.06610384602471941 -0.0335681349357484
0.187 0.25790313444405993 0.020061909535994175 -5.0379813359130894e-05 7.416983355040606e-06 -1.4833927693497596e-05 -5.1612508635295184e-05 -0.0692796802387376 -0.027913917306152735
0.188 0.25932253009141243 0.0005531855943003268 7.317765453448708e-05 -4.658424573926516e-05 -3.79996916467264e-05 -5.752197563081353e-05 -0.07202476482883031 -0.02181630385537504
0.189 0.25986053813761967 -0.0184304950243876 -6.511344848009385e-05 -2.229366295532894e-06 6.897183120866882e-05 -4.8857372946083694e-05 -0.07378584438098533 -0.015431466900406074
0.19 0.26010303166291904 -0.03862115272187158 -1.0317221784014225e-06 3.510128971430283e-05 -5.142961404567509e-05 -0.000142662011861877 -0.07544201544905219 -0.008970877297023479
0.191 0.2568159574165034 -0.05789069429185712 2.6510681016365043e-06 -0.00011962695266381627 2.7303502244124202e-05 -1.1137033117642216e-05 -0.07619863105915212 -0.0026401097350075534
0.192 0.2535781853113308 -0.07784811564268107 4.222136146499961e-05 4.0884099637473745e-05 2.810115569887945e-05 -0.0001210415932179732 -0.07591936101994907 0.004113722074653015
0.193 0.2475601464861134 -0.09703917819269062 -3.728417309514323e-05 3.66890547356533e-05 3.5625168283257906e-05 -6.741087580673114e-05 -0.07623052452799649 0.010883147931162022
0.194 0.24206412002569522 -0.11662058815492299 4.1309222559374386e-05 9.722626814240457e-05 6.138076468241167e-05 9.725323749722734e-05 -0.07509393791435483 0.017196652442251208
0.195 0.23166743122849048 -0.13547511708778326 5.973437483681182e-05 -6.991583302987565e-05 -2.339934256208055e-05 -9.627888417989464e-05 -0.07382327190773158 0.024131392908117638
0.196 0.222940208602848 -0.15182795590992768 4.344164136539737e-05 -0.0001282333969164418 1.64258602263116e-05 -2.0875707799082384e-06 -0.07147886325690637 0.030145626424708635
0.197 0.21169246479694076 -0.17116247392251965 2.2551017728390257e-05 -0.00010271481761001285 -2.7932736067519835e-05 5.463678056685792e-05 -0.0688692452224344 0.036642521621516225
0.198 0.19902958165941514 -0.18689611073271814 -3.822849211248951e-06 -3.576207049287788e-05 -6.692118186498094e-05 9.646648502418857e-05 -0.06588824929403314 0.04269897382565857
0.199 0.1858413852308243 -0.2028796954549873 -0.00015419858594871487 -4.2921592925220916e-05 2.5984280287395277e-05 4.231502145229295e-05 -0.06216776590872944 0.04876218335023131
0.2 0.16930114016484993 -0.21668035242645278 3.606455749048801e-05 -5.864091198452769e-05 3.888317197347061e-05 -0.00010815946906132409 -0.058100566306486155 0.05386944501092381
0.201 0.15313625537886272 -0.23013441630802 -4.432628725791013e-05 1.5235727161887679e-05 8.046619920000375e-05 -3.502031961077126e-05 -0.05340346020901357 0.05913194971541026
0.202 0.13434401818925892 -0.24261652213750634 -5.962858982021232e-05 -0.00012091481877888736 -3.218934992049704e-05 -2.8345983341920133e-05 -0.0483251935472703 0.06402973336847112
0.203 0.11714793297962421 -0.2524817855676133 5.6893518506432044e-05 9.172912830516969e-05 6.764462480823977e-06 1.94300084290607e-05 -0.04279864520229666 0.06807832365725881
0.204 0.09773618755736035 -0.2628266266340388 -5.433360623228874e-05 -1.4289001612836494e-05 2.3295815729485424e-06 1.396782611246421e-05 -0.036537431376573205 0.07229262584556338
0.205 0.07785837122392429 -0.26930557103375224 3.183699001860766e-05 5.349656705555381e-05 -5.362525273214303e-05 4.543479737648935e-05 -0.029569296100787876 0.07568576533405956
0.206 0.05703976357336982 -0.2764024203078918 5.5044951273113073e-05 9.192220463107927e-05 -1.4356198741798246e-05 -6.2865275431305925e-06 -0.024000599201987768 0.07795086896055821
0.207 0.036478486878668205 -0.2819825576588968 6.0363824757958704e-05 -4.107918724659061e-05 7.579305757016605e-05 2.757020743837832e-06 -0.016193062627854957 0.08051827497165624
0.208 0.0146437798667557 -0.2838632560360027 2.7386470570364045e-05 8.157220929792307e-05 1.9132556993529393e-05 4.5687096358113e-05 -0.009485678426012542 0.08186500032081613
0.209 -0.007892913580473811 -0.28507752334561676 -4.412179616266166e-06 3.462599340694372e-05 -1.9808841820084426e-05 4.287640302491377e-05 -0.0023007062966710736 0.08248745230794914
0.21 -0.03146236563511205 -0.28530353865381575 -9.529474431883461e-06 -9.248614827614673e-05 0.00012169603646616602 -6.423057993187748e-06 0.005222031070706527 0.0829657026000296
0.211 -0.051881462853638 -0.2832671721368211 -1.711180739544148e-05 -3.047730034375658e-05 7.630567302175955e-05 -4.002521356263882e-05 0.012462852572099803 0.08281149111557005
0.212 -0.07331960325497952 -0.27841026645967376 4.221717346818834e-05 -7.889218968960201e-05 2.0132204916618524e-05 -5.297446694478433e-05 0.019973096898970442 0.08201068943089508
0.213 -0.09372113172469392 -0.2726084932689398 2.6832827649060228e-05 -3.7531540852638725e-06 3.053709191233161e-05 -8.343947481381083e-05 0.02704172033740297 0.07951982245581692
0.214 -0.11612699803641038 -0.2651436691680802 6.811639660280685e-05 4.409019213040777e-05 1.6286167557322912e-05 -1.346075057154021e-05 0.03428941990579998 0.07758402041822275
0.215 -0.134908134445264 -0.2564606176368957 -6.754805011183071e-05 0.0001388301859867295 4.8548055257950034e-05 1.5045544934716633e-05 0.04162661735748272 0.07418724048843083
0.216 -0.15584431105626378 -0.24484753338025497 5.7824422963979956e-05 -9.088918301331624e-05 3.256878406698648e-05 6.186724564546496e-05 0.048489987359103884 0.07045556734666722
0.217 -0.17450270196157455 -0.23352137074191312 -3.816836466415283e-05 2.322526715945475e-05 1.978801752695446e-05 1.9675960787298938e-06 0.05453760432190158 0.06638501516450436
0.218 -0.19162273531699425 -0.2194074887167603 9.290136479422874e-06 3.6372052727376945e-05 -3.035221228246474e-05 2.9527512228904194e-05 0.06037482176440813 0.061370873628550274
0.219 -0.20894757274224912 -0.2050523742912109 -6.288549686874304e-05 4.80904632998804e-05 0.00013277765108779646 1.9227581769208648e-05 0.0663369435424544 0.05596067970925338
0.22 -0.2251799251014261 -0.1888437708826381 -2.0387311649438183e-05 -4.493055060811296e-05 -9.96159198021767e-05 -4.3427338949208594e-05 0.07137462024297331 0.05026767906416851
0.221 -0.23909658249273677 -0.17143289285528152 8.395406753686712e-05 1.6931683310769435e-05 -2.1277230842029553e-05 -2.5746904604481695e-05 0.07564053369312405 0.04382937204920385
0.222 -0.2522429421612754 -0.15396030778038333 4.549205365219438e-05 -6.442100550882053e-05 -7.040847769234692e-05 -8.236058587155806e-06 0.07962102127074235 0.036893548390507534
0.223 -0.2641452335366418 -0.1354063647039206 -6.29490460052412e-05 -5.7477229921600204e-05 -5.6065150227540625e-05 -1.2638040505348387e-05 0.08318287938673907 0.02934495910756861
0.224 -0.2739738198218156 -0.11493068630364146 -7.475981659086133e-05 3.20348587494205e-05 -4.448090964257624e-05 -4.320154399087497e-05 0.08602394755593147 0.022085476529824136
0.225 -0.28193008747395376 -0.09373442472705261 9.946359316254853e-05 4.823074126955985e-05 -2.3770388416362477e-05 6.021218507260421e-05 0.08763985198713047 0.014131255497054608
0.226 -0.2896357965471014 -0.07254999023967075 5.791431367953968e-05 4.255566799926957e-05 6.391795524578215e-05 -4.3590379834270645e-05 0.08901456585127085 0.006190773842199862
0.227 -0.2949115210053052 -0.050261167850523925 5.3302147813655385e-05 -5.635312612335796e-05 -1.0104114187472236e-05 9.806318382208794e-05 0.08973747279667325 -0.0018241873667175473
0.228 -0.29875184917064007 -0.029465620558703363 -1.1284740814261192e-05 -2.2518232105991918e-05 1.2582865094255531e-05 -2.875080244694019e-05 0.08934373446406783 -0.010231497658299176
0.229 -0.301142091595197 -0.006324459560199455 8.935198184302952e-05 -2.3354315097311904e-05 -1.93275737368073e-06 1.9789579195847038e-05 0.0885864349450405 -0.01800110154882884
0.23 -0.3016146205469788 0.017003145435778168 -3.365642717542251e-05 -2.5405134384234753e-05 -3.3618392525968024e-05 5.9212907081441014e-05 0.08676662749346543 -0.02607186293518142
0.231 -0.3015308234935519 0.03973911427052729 0.00013383617368381036 1.0930883368830188e-05 -1.54854456964557e-05 -0.00010644351538921387 0.08430946964839797 -0.033777735399978304
0.232 -0.29882520625963355 0.061858229626459545 -5.216578040842047e-06 -1.4673908336211777e-05 -1.57288609115968e-05 -3.028035551383316e-05 0.08100944088871505 -0.041720856698346666
0.233 -0.29570880059712673 0.08597256585095701 -5.4889197139696226e-05 7.782391343420402e-05 9.995510707178297e-05 2.265424768741359e-05 0.07749551596540534 -0.048848028783194115
0.234 -0.2870241538655582 0.10695721689128014 -8.364471207336291e-06 -5.7468016189599336e-05 -8.970373972105967e-06 6.652392845641628e-05 0.07289377389639358 -0.05553174555413222
0.235 -0.2807600226573177 0.12943214328378033 -0.00012304436805228366 4.087179266389074e-05 4.942047910091522e-05 -9.402620159854561e-05 0.06805436026321464 -0.062155785103104856
0.236 -0.2709564719158906 0.15082211605951829 8.135372631980337e-05 -1.8199417395000087e-05 1.726814242386341e-05 5.393299741990686e-05 0.06222524149736118 -0.0683266047901834
0.237 -0.2596133643185797 0.17259898516076158 -0.0001053133448517856 3.5899838546176837e-07 -1.944412114457455e-05 8.66715223412824e-05 0.05564388274439915 -0.07379481087235974
0.238 -0.24627473064674474 0.191870699466723 1.8067981947494106e-05 -5.391398486252497e-05 -4.700055559804327e-05 4.22730954406969e-05 0.04926508097739648 -0.07864361290656587
0.239 -0.23389114521796178 0.21100111440589187 8.243082730427485e-05 -5.258931682932691e-05 2.374676591429006e-05 -2.6406020982601467e-05 0.04202421401831002 -0.08279087928587621
