!Created with skrf (http://scikit-rf.org).
# GHz S RI R 50.0 
!freq ReS11 ImS11 ReS21 ImS21 ReS12 ImS12 ReS22 ImS22
0.13 -0.05669139677001517 -0.1761932594184572 6.124110977388052e-05 -2.1489463966148223e-05 -1.9036257806283356e-05 -7.972259082940765e-05 -0.036195274104240865 0.03853983947971308
0.131 -0.07060380729947063 -0.17200956039470383 5.900463198511326e-05 1.8708074358946996e-05 7.650140705297164e-05 -3.764206335599693e-05 -0.03292766003948643 0.042015434727380445
0.132 -0.08446377821742528 -0.1671758742191489 6.328467840795209e-05 6.207528893131711e-05 5.877197275485577e-05 0.00010264274299977302 -0.0294717796546208 0.04511274511577883
0.133 -0.09803896616939535 -0.16171233230026966 5.831984363978668e-05 -8.979128126737996e-05 -9.610408835375515e-05 0.00011187316975142401 -0.025712075201059448 0.048103909295215436
0.134 -0.11018242568117464 -0.15496117384614777 3.7228340923800824e-05 2.0666708311542884e-05 -3.426096135914377e-05 3.554609878643681e-05 -0.02100912885032365 0.05027399489757991
0.135 -0.12247683506229799 -0.14628598182168678 6.273356537891992e-07 -9.294387583273847e-05 4.342753187672121e-05 3.592338668524681e-05 -0.016908840078753654 0.0525270352598201
0.136 -0.13470028776675175 -0.13778422733908774 -1.4396034888637819e-05 1.4597661645106436e-05 3.885751117117404e-05 5.8477471140801424e-05 -0.012011349854502919 0.05390137806683532
0.137 -0.14629132956669613 -0.12766021962491128 8.771666759129115e-06 -5.0511471846103765e-05 1.5296002461606315e-05 3.556220990810174e-06 -0.007064972238552042 0.05544463358891189
0.138 -0.1565095402153748 -0.11640651128592347 -0.00011890088274891793 1.8201028727489755e-05 5.058114895868548e-05 5.095648753460618e-06 -0.0024005079056670874 0.056482825956193
0.139 -0.1656158855651363 -0.10544547122318798 4.0974335832506875e-05 5.022691350042174e-05 -4.050698210214547e-05 -0.00012492844700919933 0.0027304407655881014 0.056763820927949314
0.14 -0.17474136197427328 -0.09376913381535978 4.3298501077378996e-05 1.8036935400639248e-05 0.00010628096962231302 4.97891785285621e-05 0.008079941960928675 0.05673381155868868
0.141 -0.18306256189755474 -0.07989484866605329 2.2689620245452864e-05 -8.768492679723585e-05 4.451913593794648e-05 -1.809555758845374e-05 0.013376821061407487 0.05632714532717775
0.142 -0.19035122511694105 -0.0658627046926693 3.170930350001715e-05 0.00010873450120386387 -0.00011660620462652523 -6.896500937997164e-05 0.018502394183335234 0.0554107944172622
0.143 -0.19614632577049945 -0.05189849374286613 2.7427241573906255e-05 -4.3730054349868e-05 -4.505057845563547e-05 3.566466026288803e-05 0.023115446033628865 0.054138166551133966
0.144 -0.2007843417438632 -0.0369866785779876 -2.7482331554372067e-05 -3.328321778074498e-05 -2.0215653541181864e-07 -5.491040687381854e-05 0.02826217015740369 0.05202283517664887
0.145 -0.20459840514406874 -0.02158878044355754 2.817651689069252e-06 9.908246895856859e-05 9.175259306029572e-05 -3.339167078925531e-05 0.033225956071803696 0.04962721707070715
0.146 -0.20725449382985772 -0.005257477563618814 5.42918420373087e-05 3.547368844837035e-05 0.00013868951359392555 0.000101851374754768 0.03727446635860726 0.0468801046396898
0.147 -0.2080523693286959 0.010107211698408123 9.086579877353648e-06 -5.8374540565867615e-05 -4.03001705172097e-05 -1.4456834025533686e-05 0.04193241759727433 0.043392677977889184
0.148 -0.20812539686211587 0.02688072488557052 5.2595101738281333e-05 -5.6189760266093e-05 8.004348038702629e-05 1.0396734755011149e-05 0.04627846349450547 0.0399200771460874
0.149 -0.20660803565799848 0.04285698402798082 0.00011131701357468405 -3.857799710377065e-05 -0.00014645610127414746 -2.882065628408081e-05 0.0499045059291268 0.035926103535624025
0.15 -0.20460006525830998 0.05927243592591123 5.957128879238538e-05 -7.41051891576689e-05 0.0001211976746273196 -8.211605582034177e-05 0.053260524193687965 0.0316007064225714
0.151 -0.20043778659087413 0.07494061759617268 7.314223690580518e-05 3.839316360962235e-06 4.111488376235291e-05 -7.543572681817467e-05 0.05615974519733375 0.02698684594210857
0.152 -0.19578943334309593 0.09029253749964987 6.390581253361237e-05 8.481240572877829e-06 9.706307992091443e-05 -0.00012943938646723318 0.058791022338866405 0.02145607496627355
0.153 -0.18878383759393855 0.10585932900740215 1.5976996647341734e-05 -2.313499529841805e-05 -0.00010544719807138477 7.804907505658841e-05 0.0608645590619139 0.01657018122094944
0.154 -0.18126139500820485 0.12193897878635795 3.748558444699783e-05 -1.0735682113338013e-05 -2.1971619438846923e-05 4.581501413518268e-05 0.06249996087234406 0.01109183834050368
0.155 -0.17226551939893997 0.13549875169275877 4.123553357571407e-07 -5.4488260910087735e-05 -3.497339046734939e-05 -8.428691634229607e-05 0.06367159225414369 0.005442893771580125
0.156 -0.16249660572498495 0.1489414720696684 -2.5758068282270486e-05 -4.9703962066847555e-05 -5.7467642011826626e-05 -0.0001929924223779574 0.06439413840918118 -0.00047692787170958135
0.157 -0.15207776029016953 0.16060702963810625 3.955725234276557e-05 -3.4322725811201635e-05 6.214645279231789e-05 -3.6462344283511086e-06 0.06455183032385142 -0.006129863849291299
0.158 -0.13997533112458416 0.17309630165774234 2.1141801841708482e-05 2.8747377885894645e-05 -0.00013920388739896476 -7.795792270761573e-05 0.06415947742319499 -0.011944426484278728
0.159 -0.12748691786632846 0.18506182538188998 5.009789090011267e-05 -1.6658142881155216e-05 3.153863416912903e-05 -1.9576965946382733e-05 0.0630586933936292 -0.017920219713256972
0.16 -0.11264398836671106 0.19373006380766908 -2.384207008788338e-05 -5.830046407804998e-05 5.3197716640564104e-05 3.4539267023133154e-05 0.06145520734308226 -0.023746811270931662
0.161 -0.09706461017206171 0.20396521699776954 8.444969415754493e-05 6.790593324364405e-05 0.00010350249650643941 1.1874830230266788e-05 0.05934664225288266 -0.0293936418628899
0.162 -0.08304273754736718 0.21328572048489267 4.682510995638791e-05 0.00015573669055034473 -3.974247997926213e-05 -2.3475851083407564e-05 0.05703070389905358 -0.03465497760981552
0.163 -0.06824248569935387 0.21819986624076262 9.369513937852011e-05 -6.022430799171936e-06 -2.8614565148724647e-05 4.036593066280722e-05 0.0538366657161592 -0.039839877174848895
0.164 -0.05051979488825677 0.2236904191446726 7.425292618132827e-06 2.7471692959156946e-05 -5.099546827377001e-05 -8.584882148506275e-05 0.05024790295741371 -0.04456257844746453
0.165 -0.033664764768095025 0.22866770553597826 -4.736121331458556e-05 5.382718886051704e-05 -5.534530333182315e-05 -2.6630319265126317e-05 0.04630095010029725 -0.04935403060270324
0.166 -0.015821012731480337 0.2310033518135742 -4.416091836669293e-05 2.8953166784512913e-05 -9.205519796238811e-05 1.5005026295396348e-05 0.041809944302808495 -0.053386633194872475
0.167 0.001974595994968967 0.2335655669678929 -6.717862518933835e-05 9.049329658634486e-06 -7.320785164574338e-05 3.0886571486966455e-05 0.03729689403360511 -0.05747935474907556
0.168 0.01849826652453819 0.23381988786719965 1.330863608883351e-05 5.566848191076613e-05 -7.430283523548676e-06 -6.03447361669231e-05 0.03234568923712265 -0.06113471582824737
0.169 0.036872896956481604 0.23157993318761938 4.47096545954617e-06 -0.00010288482563898868 -2.9053535403813337e-05 -4.2285507167672855e-05 0.02686355540801979 -0.06387905104814773
0.17 0.052432598376494284 0.22960882981244063 -4.971763545221573e-05 -7.19487119098449e-06 -1.967655023801464e-05 9.31327349086603e-05 0.020888285744372934 -0.06643865976819562
0.171 0.07092444840586634 0.22645003069956474 -1.425921213094767e-05 1.4653472140444093e-05 5.9800730849284334e-05 -1.44717429926441e-05 0.014682315149667769 -0.06793530479170912
0.172 0.08847283987775996 0.22197874984983232 4.511078583144792e-05 1.4969792130208469e-06 4.7445754695319046e-05 -2.458574652606467e-05 0.008830204827759461 -0.06998268257606631
0.173 0.10402949883656515 0.21462745947387388 -1.3288183578377828e-05 -3.2285772726843985e-05 6.205445945442833e-05 3.2347881457543736e-05 0.002954610938489672 -0.07042602534036542
0.174 0.12132328574107057 0.20702977085971716 2.0389945144563495e-05 -9.737452360812693e-06 0.00010767262581663028 8.462663678293774e-05 -0.0036129337964812243 -0.07088042269779715
0.175 0.1366359173914074 0.20014830570715392 6.04855478993414e-05 -8.364632025066148e-05 -1.5945159513796964e-05 -4.952180200099541e-05 -0.009515522758492689 -0.07038555225302427
0.176 0.15129332866943723 0.18997570254743704 2.6249318938585115e-05 2.5980471149135614e-05 0.00010491788522674627 1.2968073373588694e-05 -0.01613008487129832 -0.06986707347018459
0.177 0.16657715863131917 0.17925592103175922 1.462582183184095e-05 -5.374795862759909e-05 6.652620949325738e-05 -8.727197910860892e-06 -0.022314954986292348 -0.06815623010608587
0.178 0.17976301101972855 0.16654662311390211 -1.1615304166847989e-05 9.080917229830018e-05 -3.574919329849281e-05 -4.781955021621137e-05 -0.028223959800943818 -0.06622769355415804
0.179 0.19289463773091606 0.154911637432761 -3.1409904697893095e-05 -5.457527091314309e-05 7.815797129343357e-05 -8.137234884088288e-05 -0.03376840490623003 -0.06359278263977787
0.18 0.20431505910122968 0.13986879825604492 8.008123473379004e-05 -2.2389394780227807e-05 0.0001514494763016663 5.160157765093353e-06 -0.03980311342049383 -0.060827343110544115
0.181 0.2159426895692231 0.12547084601606562 1.9837726716956682e-05 -0.00010257889055172028 4.0013386312685296e-05 -0.00013011604628403474 -0.044668224522784086 -0.057277285734555185
0.182 0.22527843530977978 0.10927262679560196 -7.238774488426092e-05 -0.00012004664285622643 -2.246379531992666e-05 -6.38088430495478e-05 -0.049214649624817426 -0.053840866722702926
0.183 0.23410627976582707 0.0933850595568116 6.1474969969294735e-06 4.7975537441033765e-06 -6.0005657827905266e-05 -1.2455588986520383e-05 -0.054727792833729 -0.04919611202440299
0.184 0.24203522869058047 0.0769306831006615 7.277356545964606e-05 -6.590391217153893e-05 -4.838298904230739e-06 -0.0001044419899294399 -0.05881712588559725 -0.0444477529824631
0.185 0.2485888389465746 0.05731985465915632 8.207049068770692e-05 4.550155942906955e-05 -8.014655934799968e-05 3.4407791387603816e-05 -0.0626688996141915 -0.03946948600296654
0.186 0.2534534708776314 0.0392180920383075 5.1132313998648755e-05 1.4308439035253633e-05 0.00013352144798797183 -3.29631788521929e-07 -0.06662963887225809 -0.03368670664266199
0.187 0.25733668629007933 0.020644561376785605 1.9864470913014693e-05 2.1470167890675296e-05 1.0233078005661782e-05 -9.760005521009158e-06 -0.06974740663738739 -0.02793669449534918
0.188 0.2593023100968026 0.001696739528547732 -1.903146556046637e-05 1.676374117988085e-05 6.463741933916236e-05 -1.8395009173617057e-06 -0.07180274505058587 -0.021759743349100566
0.189 0.26041530483342923 -0.017710526511684685 0.00013446884925815368 -4.9454607220494086e-05 -1.370191074831202e-05 -1.1009238447278957e-05 -0.07363630437479379 -0.015567945256945473
0.19 0.2597594976343976 -0.03791651657448586 -3.0752312601393e-05 -3.179285809795826e-05 2.8128382738374524e-06 6.576202502485164e-05 -0.07501847303978634 -0.009325347379214755
0.191 0.2579289795732431 -0.0568955843738404 5.499344353102263e-05 9.777524636861181e-05 -5.057383797569218e-05 2.186724427930751e-05 -0.07595135012351899 -0.0027248642467819365
0.192 0.25447197853328357 -0.07695647229825885 -0.00012833995476552447 2.3171502426615275e-05 4.783898798875343e-05 -4.25370566868465e-05 -0.0760244924960417 0.0037036706950605053
0.193 0.2484714602183419 -0.09663501738193217 -4.596512428516385e-06 -5.5328408754747915e-06 -1.8075481426743352e-05 -5.642325260698069e-06 -0.0761697505033496 0.010768514721009693
0.194 0.24243656582330894 -0.11584434098053617 6.842605408935889e-05 5.175315168448962e-05 -6.377838278415546e-06 -1.4361735370973249e-05 -0.07492209394789119 0.01729712830508912
0.195 0.23357946483995776 -0.13390865918566552 2.7940234812595573e-05 9.599824553574745e-06 -2.8954159882157295e-05 -6.948578617978454e-05 -0.0737998798278242 0.024190593147158337
0.196 0.2237083528191242 -0.15311134822537392 -7.11572026045839e-05 -4.2755560805259835e-05 6.128407757721292e-06 5.920074209612953e-05 -0.07145662180258285 0.030090351209717526
0.197 0.2127495979682411 -0.1697977794339545 2.2689518900925855e-05 -3.387471069887728e-05 -2.0970813779240165e-05 -8.914158045903202e-05 -0.06908021056979897 0.036513400320193866
0.198 0.19919828409811943 -0.18508369268575764 5.4960804767243184e-05 9.701938859323393e-05 4.463522928441899e-06 8.618083862225698e-05 -0.06585681872807511 0.042691357425470554
0.199 0.1867765599723723 -0.20270431832113367 0.00010708287870002599 -5.920678425959722e-05 6.262706022880202e-05 5.1132864586217165e-05 -0.062088739799597406 0.04859089493071161
0.2 0.17238318857326437 -0.2178868373395129 -4.882026352036974e-06 0.00010310482602424978 -4.371010725353952e-05 -3.5336576093953116e-05 -0.0581098567640354 0.054010824870674407
0.201 0.1541803208875799 -0.22928915908522687 -9.762430220819502e-05 -5.3593167333321244e-05 -3.965391591791262e-05 -0.00014896497601101462 -0.05338377823589002 0.05907775917368317
0.202 0.13660937724112843 -0.24220700942467707 -4.395372916177301e-05 1.3195897018411639e-05 -1.6001781276900913e-05 -0.0001221892689893159 -0.048415080894651734 0.06381341751546134
0.203 0.11847018736140613 -0.2514593008834832 3.724547579323974e-05 1.3190743592295195e-05 5.3787563454405934e-05 -1.0956570128155369e-05 -0.04294633227509036 0.06792207635948036
0.204 0.09922638955626424 -0.2629853618185091 8.305391933959373e-05 -2.450779295394304e-05 -6.506075207717254e-05 -3.368828316626721e-05 -0.03646437500509817 0.0720260578727342
0.205 0.08022234660289816 -0.2724624165238911 4.8328948749957175e-06 -1.789016518825723e-05 -2.8903045894485783e-05 -0.00010578774586967589 -0.030564509101305436 0.07541286658783825
0.206 0.05919102887308401 -0.275606393622867 -4.370772837303922e-05 2.948990699720868e-05 1.071881668917781e-06 7.346235582489622e-05 -0.023721182006544328 0.07796856988872856
0.207 0.038102149928929296 -0.2819833230678677 -4.5400142398836536e-05 -8.636290923962769e-05 3.899007133785526e-05 -4.070177515651669e-05 -0.016710527053440793 0.0802566211072465
0.208 0.01470572594260391 -0.28318776440470683 8.513466564526128e-05 4.440501896417208e-05 1.554564310445268e-05 -4.1613302922820924e-05 -0.009915686467323583 0.081399012768004
0.209 -0.008008342508030916 -0.2843415925250244 2.6375005047567996e-05 1.0318312613649414e-05 -7.178307327503506e-05 4.0949531214035064e-05 -0.0023607685358114985 0.08301621384762946
0.21 -0.02757095767525366 -0.2817045417645499 -4.1470783170986946e-05 -0.00011943383708914775 2.0807431902518083e-05 -2.8308892942131024e-05 0.004677263495078621 0.0828682906891348
0.211 -0.0508719537464022 -0.2833106852031047 -0.0001119289913731038 -3.0482555278752663e-05 -9.993023503325526e-05 -3.6790020776272947e-07 0.012539285415503271 0.08263018775020259
0.212 -0.0718411725455831 -0.2781020480032167 2.0909678506009657e-05 6.713002472166801e-05 5.1720891394373055e-05 5.9893140954432985e-06 0.019568142032963576 0.08162975298906301
0.213 -0.0931223475708044 -0.27371636225141827 9.96738478529637e-05 5.294959306488811e-05 5.1960221435917946e-05 -3.2960459433892876e-06 0.027016916728780406 0.07962493824123311
0.214 -0.11540487573152838 -0.2660576456054095 -2.686849060547474e-05 9.079742364322792e-05 -3.4732105043066997e-05 -8.070459234425278e-05 0.03495860977856722 0.07773256779356151
0.215 -0.13453030453579815 -0.25765781417494654 -5.62526411308531e-06 -5.931054032809197e-05 -5.9157863650878504e-05 4.2587567893891333e-05 0.04125824535475053 0.07467178654374344
0.216 -0.15468678568512978 -0.24642761956718148 9.315583926002997e-05 3.9591037074909326e-05 2.7422978457801028e-05 5.826854624833156e-05 0.04811401660790736 0.07063901459992489
0.217 -0.17222279755110848 -0.23515110951797744 -3.9537468308627863e-05 8.921151599235374e-05 -4.383704563759031e-05 -2.685515481035269e-05 0.05414113514889033 0.06672840584835062
0.218 -0.19225540049470777 -0.22073866429415093 3.371703720370087e-05 3.809185858773742e-05 -8.043295830179225e-05 7.92571217809088e-05 0.06072088740286606 0.06128652156414629
0.219 -0.2090487425463195 -0.2053195945398048 -4.182764729626306e-05 -5.709467556805561e-05 4.248382552715089e-05 -1.1195511449929546e-05 0.06643791167931433 0.05592966151023799
0.22 -0.22280927751548377 -0.19008702883467865 5.575330977229385e-05 7.366792424626098e-05 -5.530004026158461e-05 5.452134962001585e-05 0.07132660857251612 0.05026297037473697
0.221 -0.23693379005066895 -0.17407501714603754 -4.488892075144187e-05 -7.132768315349123e-05 8.170699483264665e-05 -0.00010493363988063742 0.07572423533465412 0.043867528948814835
0.222 -0.25165166464036515 -0.1547792991189382 -6.251824286902567e-05 6.209345909752363e-05 -5.193444059635501e-05 -5.115095936904299e-06 0.07978421165391836 0.036785972082779186
0.223 -0.2646661389567264 -0.13562782336660148 -4.327327157974867e-06 -2.8981854182676118e-05 3.260505212632124e-05 3.520929034346597e-05 0.08299341113535409 0.02979767934175456
0.224 -0.2733923370147749 -0.11556452651167055 -3.767065537426715e-05 3.403991520037777e-05 3.6687791060097564e-05 2.9945997206410487e-05 0.0859056476040193 0.02237533794120717
0.225 -0.28251279135429425 -0.09439897216630755 0.00010959981037062512 -2.9748926394082177e-05 -3.619958675952729e-06 -4.826714163212504e-05 0.08780183119222876 0.014204975568582088
0.226 -0.2895299304096852 -0.07353123501020203 2.5377206243501215e-05 -2.7660267816597566e-05 7.121743840658659e-05 1.2358648209007862e-05 0.0892747712925642 0.006243082408633079
0.227 -0.29482657052207506 -0.05173721106949455 6.446219304289687e-05 -3.8867501599226624e-05 -2.457759127556255e-05 -1.9769720538154424e-05 0.08952839913157729 -0.001785589675209999
0.228 -0.29907461192938956 -0.03007403698185466 1.09552221964752e-05 -5.421100867494077e-06 5.786364396424923e-05 3.739506939571215e-05 0.08945387825120549 -0.009935682809247798
0.229 -0.30155754308327065 -0.006867981842240038 0.00013222032472820977 9.759398161625487e-05 4.667136973867642e-05 -5.247780431544151e-05 0.08838251176185519 -0.017951036365177028
0.23 -0.3025676070844608 0.01577415840898445 4.6598554484402576e-05 3.144961461446845e-05 0.00010593027897303141 3.073291347846237e-05 0.08686496238872614 -0.025902985925600013
0.231 -0.3023627076683395 0.03842349995141707 5.634057056980107e-05 -1.9391021525919476e-05 3.4699497776995125e-06 -7.87358169281764e-05 0.08444913583998141 -0.03380863770211899
0.232 -0.29838967448558934 0.061174285864466355 3.12748495253786e-05 -1.5358820286392252e-05 9.263231294570999e-05 -3.342425378406105e-05 0.08145238705604337 -0.04121393797769284
0.233 -0.29579790367613196 0.08494964784781138 0.00010119926851467888 9.043542276822487e-05 8.344054624151881e-05 7.499640266442852e-05 0.07748905872056472 -0.048722241884823526
0.234 -0.28722904683325157 0.10609789544831397 3.3997825932737584e-06 -3.273313118390183e-05 2.7821590811763475e-05 0.00010301644957837857 0.07285583098445755 -0.055707211326562665
0.235 -0.28194085355851706 0.12960378873820258 4.523301358346366e-05 -2.2492698208291192e-05 -9.250412902934731e-06 1.966230335092639e-05 0.06802062436420443 -0.062022979620591515
0.236 -0.27173969961632377 0.15038567894934982 5.453698785555878e-05 4.548989928422219e-06 -0.00010581432650634265 6.761417701067068e-05 0.06229358319040711 -0.06808861547561929
0.237 -0.26100935388881186 0.17087090562568355 6.706920495323036e-05 -7.232719717536875e-05 3.608392791800362e-05 5.6377126523443136e-05 0.05583561884206774 -0.0738603632145175
0.238 -0.2481319425673894 0.19066725053231387 -1.9063778154993265e-05 2.4704610572894716e-05 -2.9771057007742063e-05 -4.15155643250505e-05 0.04927478746970373 -0.07875455188488456
0.239 -0.23384143105213584 0.21078282521025685 3.53337844906402e-05 -4.763191192282187e-05 -4.240361377529481e-05 -7.922761007687313e-05 0.04236106889034089 -0.0829704002216991
