!Created with skrf (http://scikit-rf.org).
# GHz S RI R 50.0 
!freq ReS11 ImS11 ReS21 ImS21 ReS12 ImS12 ReS22 ImS22
0.13 0.060518308278584225 0.1758358121451713 2.5874243124017026e-05 9.601392011578919e-05 -5.984614619882418e-05 -8.842614790505601e-05 0.035896274316696605 -0.040620766392303734
0.131 0.07451240007669536 0.17175090704848456 -6.844406456859109e-05 1.4597013416067456e-05 4.160843580104792e-05 -1.8596694948115014e-05 0.032520791473054644 -0.043736932117575955
0.132 0.08756981219108345 0.16721672010599847 -0.00011370292748464586 -4.9753151930610626e-05 -0.00011870423851903754 -1.418088963961702e-05 0.028479158933072454 -0.047055083562199854
0.133 0.10015573860418915 0.1613086670486976 -1.8048730471467752e-06 -6.7561408126995745e-06 -0.0001350261665344232 2.1442667079573457e-05 0.024679190858306166 -0.049613100049486034
0.134 0.11225186531333352 0.15395998244279463 6.019015794100564e-05 3.622735947264449e-05 -1.274248084994503e-05 4.1496574622622295e-05 0.020161321739848304 -0.051792479734009224
0.135 0.12589342257023606 0.14627784360048182 9.720427061458613e-05 -1.5268294722007887e-05 -0.00010258942250032016 -0.00011896244412528884 0.015344407745891707 -0.05381682655190565
0.136 0.13649175837984898 0.13730375507150758 1.3523066998825834e-05 -8.32493772017641e-05 -2.1085369133723492e-05 3.410994547326559e-05 0.010669664955163177 -0.05507105507232276
0.137 0.1475771104181979 0.12756434184312312 4.6263998232578324e-05 -9.536628165619867e-05 -7.188263245875948e-05 -4.568412803772515e-05 0.005651364110951066 -0.05623913516896703
0.138 0.15646806786672457 0.11605289578083015 -3.0066880593289564e-05 -6.0760603003986636e-05 3.347101847580394e-05 -0.0001389576549587014 0.000629573537639664 -0.05665047822987433
0.139 0.16652886640191783 0.1048735807723208 -6.958242856266306e-05 9.095090938316903e-05 9.801198764389326e-05 1.238170861936611e-05 -0.004240372394466206 -0.056956017840510076
0.14 0.1744658273266499 0.09243734899177634 -9.429612723529831e-05 2.5073738667178692e-05 7.935894478341107e-05 -2.069965887584553e-06 -0.009540526160491147 -0.05691658110806648
0.141 0.18214872169967666 0.07922266852312436 -8.215231915882617e-05 -3.802224847984033e-05 -1.603208504823019e-05 3.424671526515463e-05 -0.014350002116193823 -0.056278063969433835
0.142 0.18845702486546065 0.06580493174436922 -5.055636497354448e-05 2.7512379398148637e-05 -4.411034686459514e-05 -3.0475872837065827e-05 -0.019631574001547553 -0.0549965669674084
0.143 0.19384930139069412 0.05242544400765317 5.563936769079308e-05 -8.732974346919955e-05 -9.448715670282592e-06 -9.912022432889712e-05 -0.024447273664307538 -0.05326884925434759
0.144 0.19860882318963352 0.03778597993820761 -4.233670042896782e-05 -2.294959367353756e-05 3.956066522857331e-05 -4.715635778605168e-05 -0.028748345645526415 -0.05113741572042348
0.145 0.2020541778415483 0.02355507578490695 -8.305184462645814e-06 -5.9152981206518175e-05 1.5177339872981882e-05 -9.088652052674968e-05 -0.033572809331812524 -0.04861406703589672
0.146 0.20333969645373454 0.0074451963584802145 6.359890161387103e-05 0.00010215883023851214 2.246681327231348e-05 7.837125447385293e-05 -0.037740735327337245 -0.04570693394845488
0.147 0.2055289042100508 -0.007703378706490047 2.0208740931284063e-05 -5.4313473226272155e-06 -1.0515427932772548e-05 2.765252391666994e-05 -0.041878339007316044 -0.042233880894620386
0.148 0.2048639549879119 -0.02316181036395249 -3.089765639473337e-05 -8.723338885203375e-05 -4.868438517357686e-05 8.165362667125895e-05 -0.04566264760554925 -0.038774007170218186
0.149 0.20373371744294477 -0.03823592174097694 -6.735153894259507e-06 1.881676757039513e-06 0.0001018365348240288 -0.00013554497614757304 -0.048894830392542894 -0.03464550036401955
0.15 0.20127013747312322 -0.053886051695898475 -0.0001281962123045809 7.419808505401766e-06 4.7050385027494816e-05 9.11862356732108e-06 -0.051722254304161525 -0.030390788325131077
0.151 0.19767835229716413 -0.06908907853376492 -6.198136355695336e-06 -7.61651011828773e-05 1.926783238153117e-05 1.0262092477764831e-06 -0.055036158810824576 -0.025746054964867867
0.152 0.1932038439241002 -0.08372173831042988 3.208140655737327e-05 -0.0001207496733242148 -1.1568201709591243e-05 -4.3032262872733635e-05 -0.05746614186038206 -0.020924839318365134
0.153 0.18791947992722735 -0.09901649233910922 4.4901590211681905e-05 -2.0936091958830122e-05 0.00013632538368607802 -1.3364709432967002e-05 -0.059074989164160124 -0.01593274236252718
0.154 0.18049407635214895 -0.11343646629663429 6.273705962408647e-06 -3.4947856832366956e-06 5.082345794026117e-05 -3.2825620133708604e-05 -0.060318674171202555 -0.011000848413642132
0.155 0.1718576422017626 -0.12692334845847633 -2.2271498739612178e-05 2.5542951081313057e-05 -0.00010593496144678124 6.410517335033616e-05 -0.06178716696252338 -0.005227443329044471
0.156 0.16340532590821835 -0.14074081189514442 6.152265266659283e-05 -1.2918209147379615e-05 -8.148798922067751e-05 -6.062527438251097e-05 -0.062274302419216214 -0.00028021613609410887
0.157 0.15368725523648782 -0.153049427231664 -8.180481562543311e-05 1.845192137345473e-05 1.7494263781719048e-06 1.0103732921843932e-07 -0.06234175025037425 0.00536855054621065
0.158 0.14279191750764358 -0.1652733421934562 6.7218267385959325e-06 -1.8583299766064042e-06 -7.778477471869145e-05 -5.389839982609871e-05 -0.06205782746916584 0.010741906625315883
0.159 0.1307538981750166 -0.17523772989637543 -9.660654208383087e-05 7.240661357303152e-05 0.00013272865360127866 -9.780852092009582e-05 -0.06097076796333669 0.01602559687638701
0.16 0.11665268305492471 -0.18623096577054118 -0.00016554992042348092 -0.00010163551657323435 -3.6365864212592854e-05 2.636835091360859e-05 -0.05988620843007967 0.02160280224959545
0.161 0.10355937313703253 -0.1963140030969956 1.1228706034544451e-05 -1.2049545458551171e-05 -5.755353463030818e-05 6.04999046108009e-05 -0.057860668445920985 0.02714433555497581
0.162 0.08940276540081299 -0.20454361020881862 0.00014038732597778262 -9.374152544869117e-05 8.38239478394003e-06 7.086388671493615e-05 -0.05560960228603385 0.03201529222767068
0.163 0.07280037753837316 -0.21293563784289923 4.613204200316633e-06 0.00012665784200060207 0.00010681008851661488 6.012153234501371e-06 -0.052966822203948494 0.03695875721876999
0.164 0.05540208015892536 -0.2198416261569174 -0.00011141705913000822 -3.5966598172191597e-05 7.316990515058447e-05 -1.7154873081031942e-05 -0.04958026897273334 0.04172966982438341
0.165 0.04043598080376119 -0.22274652872359227 -6.355668060114498e-05 3.21875017763233e-05 -0.00010657400193811328 -8.91047589531746e-05 -0.046290910245302415 0.04631616490799202
0.166 0.02214953103781892 -0.2271100202236305 -8.504904276292694e-05 6.413529678929468e-06 2.3231249756272004e-05 -7.61716928147206e-05 -0.042116074478468636 0.05047086804413723
0.167 0.006099770315593726 -0.22994535491026868 1.8984969541612915e-05 -0.0001746708831854706 4.165534602955748e-05 -8.925073325447416e-05 -0.037583509654503196 0.054358208239939136
0.168 -0.01199712265456821 -0.2313327949727171 6.060728469421579e-05 -4.319336093311658e-05 -1.3665356535346072e-05 -7.73394669349116e-06 -0.03300625279715266 0.057987314478133906
0.169 -0.030565394172395465 -0.2302262940957857 5.416341766473152e-05 -9.407281536816385e-05 -9.180023521293966e-05 -5.436149195235349e-05 -0.027925017118960286 0.060879444791731935
0.17 -0.04762599364815523 -0.2289707940181155 -2.4837723456150767e-05 -3.848756498772484e-05 0.00011432162724861866 -0.00014851457888104657 -0.022088919351907918 0.06361501263368374
0.171 -0.06708524644991953 -0.22619282383802744 -2.0310444231151037e-05 -2.154938737199599e-05 8.306515781335209e-05 -5.9858564020074835e-05 -0.016918645884497437 0.06556705590931189
0.172 -0.08454736668982633 -0.22147109443557214 0.00011913467384875615 1.3445653803126122e-05 -4.455632249366121e-05 4.7068113665351956e-05 -0.011047366847774737 0.06719793419842585
0.173 -0.10207092766334057 -0.2154307164794457 0.00016282639180291382 1.5501254522122277e-05 -4.830957392952049e-06 0.00014726346375005145 -0.004570941388223358 0.06859252651800739
0.174 -0.11943932413283123 -0.20690755368940367 -4.806497853692308e-05 -0.00012598312310707716 9.426102668130186e-05 -7.906701864215959e-05 0.001134293819763154 0.06902907231768973
0.175 -0.13525339738277692 -0.19931733927639694 5.876683756904268e-05 -5.1537133352568915e-05 -3.0945782150565876e-06 -0.0001267636640947452 0.007458107452171957 0.06905643693757424
0.176 -0.15153014017524258 -0.18954273540133418 -3.034570892727019e-06 -6.579691734123315e-05 6.773604058726217e-05 1.7127200994447516e-05 0.014057938345951378 0.0687370906909556
0.177 -0.16518854642457143 -0.17704620429144072 -8.773367907268972e-05 -3.059771292907113e-05 4.892206686807902e-05 -8.240950855058836e-05 0.019961918528925978 0.0676102965460896
0.178 -0.18010602920576163 -0.16472079444095192 0.0001736745118709584 -1.4403302719642615e-06 0.0001162645899390588 -4.283149572744754e-05 0.025916217129157967 0.06592391825331165
0.179 -0.19268462833884123 -0.15126231871720078 -9.383035623891017e-06 -6.240495646859581e-05 -5.0066352324868815e-05 -4.546461476616909e-05 0.03220188781270361 0.06345623164354622
0.18 -0.20581061855936997 -0.13565878700436826 -2.537557467844153e-05 9.511784274656531e-05 5.9976105998990445e-05 -3.929867579933269e-05 0.03766699590885759 0.06062874791809908
0.181 -0.21642477901381382 -0.1194651961661991 9.183960980152984e-05 0.00010255226450986802 1.6505233834977913e-05 -1.3194204429201619e-05 0.04338049510512456 0.05737636891839052
0.182 -0.22607709074555787 -0.10370013476423563 5.2191469803509364e-05 6.198466119022045e-06 -7.747463297094172e-05 3.4037839839039196e-06 0.048621011778980684 0.053622974428025945
0.183 -0.233893384922347 -0.08614292300538098 -1.4363925871528229e-05 -5.220907193372107e-05 -1.7746208086232726e-05 3.4215349585806616e-05 0.05378678102317798 0.0494317400007269
0.184 -0.24052643531061108 -0.06822509468027382 -6.516449485190747e-05 7.874410572570584e-05 4.510202323397796e-05 7.303419484733128e-05 0.058012307629900124 0.044082381490957855
0.185 -0.2469631077167577 -0.04950920569987688 8.672810680599143e-05 -8.103570738707067e-05 1.6559828707308473e-05 -1.3163068345800406e-05 0.06203869844283269 0.039081440699380514
0.186 -0.25115235462947766 -0.030316333599031645 5.289562800106822e-05 3.421767021411254e-05 -7.860711096339016e-05 2.4196785017619733e-05 0.06640955733539934 0.0335555427220335
0.187 -0.2535426333824075 -0.011069910440983117 1.8521846241254e-05 -0.00012028382454173041 -7.867721827821966e-05 -5.278796020384664e-05 0.06936214966845163 0.027749463266156908
0.188 -0.25476045610580433 0.008374768751824007 -1.841673855964478e-05 -1.4880346904401006e-05 9.118070280955958e-06 4.9783676900507306e-05 0.07178222969613923 0.021443981800129963
0.189 -0.25433842998128026 0.028135389784073712 -2.4354616216809534e-05 6.847842877780706e-05 -9.191169093778899e-05 -5.4546050690697505e-05 0.07382371218838069 0.015059573954644726
0.19 -0.252908235340838 0.04730193610736674 -9.469801050362521e-05 -5.536476751580711e-05 8.067588111610046e-05 4.157209352672193e-06 0.07503447278329366 0.00830660201425311
0.191 -0.24922358361534622 0.06699784054062137 -2.483158083335364e-05 -1.1361414067957548e-05 -3.610779123906414e-05 1.9407761435915387e-05 0.07622354448304243 0.0011949298441905668
0.192 -0.243639162235082 0.08601553122472455 -4.4679522273244147e-05 -5.844995070553684e-05 7.933591804930683e-05 -4.553456771909092e-05 0.07595467947016189 -0.005328506041160737
0.193 -0.23817302725521228 0.10460488113038661 -7.388057446935108e-05 7.375978645457621e-05 -8.893749134726972e-05 -1.1154111892264887e-05 0.07596984092962387 -0.01259787888123193
0.194 -0.22958773290618809 0.12291851893823012 5.464357029752993e-05 -3.7175501573410723e-05 7.990278292092977e-05 1.76190280718998e-05 0.07467459649455757 -0.01927346852645271
0.195 -0.2207450118886351 0.1409688421865852 1.565035181903263e-05 -4.7778601244448836e-05 -4.674919960650157e-05 -4.469158251111577e-05 0.0731975994822643 -0.026183483494335146
0.196 -0.21021053132809261 0.1568823752974477 -6.530253271956871e-06 5.9328291315953116e-05 -2.493587654297786e-05 -9.263237802897122e-05 0.07056054659062314 -0.0325201084660224
0.197 -0.19760072980627622 0.17376841633915352 3.109600585949048e-05 6.401081712599982e-05 -0.00012207883974123788 6.201368629301258e-05 0.06751010464539288 -0.03929520819886411
0.198 -0.18678713522723245 0.1885785382142397 -7.315467852346902e-05 -0.00011421028874741294 -9.027309552140981e-05 -2.4809741468306545e-05 0.06421042297694723 -0.045182799181972565
0.199 -0.17161095993434247 0.20254698225740944 -0.00013040839950128 -7.984101092459148e-05 5.121619839441811e-05 -9.629198271972914e-05 0.06012390686748524 -0.050990190481419354
0.2 -0.15670902452383928 0.21715133422290483 7.816988009574573e-05 9.515101992625684e-05 -8.960155270765711e-06 0.00010522372471673711 0.05539084919496944 -0.05630467646575387
0.201 -0.14171855403828051 0.22842255747789034 -2.3736050241593456e-06 1.6973032448446045e-05 -2.0056814560197223e-05 1.3017272684080507e-05 0.05032773427148977 -0.0612138076995921
0.202 -0.12492854022770296 0.2378828695429529 8.916863665607971e-05 -0.00012065926291397574 2.3090253965815694e-05 6.463015946876566e-05 0.04480697665342378 -0.06598660881797538
0.203 -0.10519746406241773 0.24886685747072895 9.216121283458557e-05 4.7231861990876636e-05 2.949669318790537e-05 8.162022480689955e-06 0.03851482747133646 -0.07042512285118337
0.204 -0.08780058942109839 0.25755562627388917 6.362608100804183e-05 2.2744981945699947e-05 -6.266326698476799e-05 -1.0644405580833084e-05 0.032658760573806636 -0.07324523753505284
0.205 -0.06953241864239704 0.26315511280462495 1.1167172279341604e-05 9.479388133233499e-05 -5.201155831364018e-06 -0.0001409510114279589 0.025701042161315406 -0.07634499564563368
0.206 -0.04796120379207922 0.26984935679300653 1.7614765278905585e-05 3.85753846659636e-05 4.8129078416279505e-05 5.189868215495108e-05 0.019288811199979636 -0.07850224653207528
0.207 -0.02824151706959576 0.27538059173608936 -1.97337489610347e-05 7.106410567115908e-06 -2.65294360527635e-05 -6.447000675492095e-05 0.0120668466139361 -0.08003185127830696
0.208 -0.00715572929424643 0.2790830828097096 -6.829607948795308e-05 -3.690107979775425e-05 4.32712489781794e-06 -0.0001330119045202097 0.005131060549833029 -0.08116732526166157
0.209 0.010774507602786112 0.2771191116167424 3.552597791821943e-05 2.4753031113334367e-05 3.0028967976794322e-05 -4.784563587932936e-05 -0.0020174575148653984 -0.08172788036327706
0.21 0.03398043843904579 0.2792665634631088 9.057449424733111e-05 -6.582509329009731e-05 5.2084845498682194e-05 -6.808950842078103e-05 -0.00904606001085228 -0.08106651668997678
0.211 0.05380756241756508 0.2766145349646501 6.35634401913731e-05 0.00017833757245054493 6.51385597957243e-05 -4.268431142359851e-06 -0.016962821922504975 -0.08110804674074001
0.212 0.0768580685095818 0.27230495616757827 7.2149167022149236e-06 -0.00010358405102262128 1.1051782818141228e-05 -4.162014437237551e-05 -0.023515344451975215 -0.07901049314377157
0.213 0.0964853243907774 0.26639021843166977 1.4224906473752646e-05 2.4884486244692427e-05 0.0001069511717750616 5.169207991255935e-06 -0.030463072106079014 -0.07690417072630858
0.214 0.1170196121520529 0.2623969272099395 5.695671906386704e-06 -3.226317187313165e-05 -0.00012927547590190766 6.458648283688172e-05 -0.03771878858113843 -0.07397741040435939
0.215 0.13647232441745255 0.25409120767094473 -2.5395291597918578e-05 1.2575271968049163e-05 5.4818799801464365e-05 -0.00011666512924466282 -0.0442030786413282 -0.07080414571685709
0.216 0.15633744437625027 0.24436994525937236 0.0001222489002120003 5.19112531170844e-05 -6.577112236413585e-05 -2.4162411991578745e-05 -0.05070370233869287 -0.06742944702113228
0.217 0.1750312836962505 0.23318268543112858 1.0413524166993115e-05 3.877918584339276e-05 0.00013587458051580846 9.161487051832677e-05 -0.05624911225267987 -0.06283184990979954
0.218 0.19316035047935967 0.22033291098898083 7.856998171250755e-05 4.847439524597357e-05 3.073367360525165e-05 -6.92066603178506e-05 -0.06174216580053981 -0.05790691900142072
0.219 0.21082396115661925 0.20738813791816396 3.9606075814797684e-05 -3.8564115785750534e-05 0.00010069311046988445 -0.0001214150710851021 -0.06663774853434158 -0.05201923114075984
0.22 0.22826591770215401 0.19086257638672224 -1.0459259405524299e-05 -3.880160084697106e-05 -3.533534094213694e-06 -3.5308884132533734e-05 -0.0716158784766814 -0.0460648809428267
0.221 0.24317992698378935 0.1745364397689388 5.246636703668638e-05 5.966622315834857e-05 6.287960850578652e-05 9.632023277337255e-06 -0.07589604572163847 -0.04032809827479697
0.222 0.25670444683858695 0.15774836416624294 -3.317631538118895e-05 1.083968589240759e-05 6.517924883720816e-05 -4.655748191858614e-06 -0.0795082434483127 -0.033429842456691866
0.223 0.26935615698018656 0.13718021159365312 2.3016681868465467e-05 4.456689389183545e-06 -1.3424788051674368e-05 6.259189267897007e-05 -0.08224985756163963 -0.02688587999645091
0.224 0.28150901148329655 0.11727998290247599 1.4571620226803994e-05 -2.5661280571655533e-05 -8.011040992824081e-06 -4.9702098285919896e-05 -0.08462859462847752 -0.019428691097985087
0.225 0.2894183868795155 0.09636106384413619 -1.673390423273527e-05 7.174568227690399e-05 -4.494686872450916e-06 -0.00012672920059343023 -0.08633613893529825 -0.012217797841588104
0.226 0.29796157008362717 0.07346538045917202 3.8244298926546997e-05 -9.41954042962748e-05 0.0001308478975944834 -7.959281805688824e-05 -0.0872615684328692 -0.00453739239180933
0.227 0.3042054775526219 0.05158371312629618 -6.112697872539248e-05 4.053102173108935e-05 -5.3637597226464926e-05 7.541443804119114e-05 -0.08771424986871079 0.0030869988503475637
0.228 0.30803375569318164 0.028743829124179526 -1.570882053198432e-05 -5.5295016210088534e-05 6.743656416718784e-05 -1.0656749931509801e-05 -0.0875497614456264 0.01074975901625529
0.229 0.30995818162628486 0.004940847803006754 -8.351442917644319e-05 -1.53136411259129e-05 -5.5711985952479344e-05 -1.001946303681509e-05 -0.08663424411290367 0.01837764039962222
0.23 0.3112217895158355 -0.018948620389254496 9.480352903331758e-05 2.4318873796662613e-06 -1.5396782580270269e-06 -4.2272641112128525e-05 -0.08509720246257678 0.02601682569910922
0.231 0.31034613742608264 -0.042984024866040166 -2.8175020215964347e-05 0.00013935981636619037 1.97672050806852e-05 -4.843994545420329e-05 -0.0829942129763487 0.03311133352749025
0.232 0.30664584503906844 -0.06588733664332519 6.466628643805062e-06 2.34982211355524e-05 7.317174074990298e-05 -3.247062141953015e-05 -0.08015421782130898 0.04055193212027794
0.233 0.30346383086794254 -0.09016020210443683 1.4649132544025375e-06 3.2143831510854116e-05 -0.00012351183043054307 -3.3799874533880046e-05 -0.07672311579618642 0.04770949926301315
0.234 0.2957059071866041 -0.1117045459110558 4.398926733814015e-05 5.4645209926126635e-05 4.333739610613782e-06 -2.0856651763583874e-05 -0.07233354126257575 0.05444540408402277
0.235 0.28730479398035647 -0.1362567561553853 -1.774451161223175e-05 -0.00011263074013641652 -5.3100174581164605e-05 -3.0214917975060216e-05 -0.06778974654941496 0.0609879686445107
0.236 0.278401097497597 -0.15617401165665296 -5.5718394084041385e-05 -4.4556583500056715e-05 -4.156517145920041e-05 -1.57476347680008e-05 -0.06230737465158017 0.06668874864074127
0.237 0.2637263064014435 -0.17742820274851087 4.5131723314907093e-05 5.7851286101931025e-05 -1.9887626391344855e-05 -0.00011364900267300665 -0.056637184125607365 0.07252285951439677
0.238 0.2513492021837823 -0.19803661403774184 -2.5972051697654256e-05 -4.1601829317995255e-05 -0.0002053655373237412 5.041440969957045e-06 -0.05033404118940591 0.07747293157206171
0.239 0.23451773335643783 -0.21674149053737413 -0.00010589939596008628 -4.401729896145155e-05 -5.2620614878253424e-05 -7.276979306227021e-05 -0.043277252051064134 0.08136590643776885
