!Created with skrf (http://scikit-rf.org).
# GHz S RI R 50.0 
!freq ReS11 ImS11 ReS21 ImS21 ReS12 ImS12 ReS22 ImS22
0.13 0.059675526892520085 0.1750922120801819 9.18546252898037e-06 -1.7552968864758645e-05 8.394387526556216e-05 0.00012515007947497966 0.03595531368533931 -0.04039249188797667
0.131 0.0727699763915521 0.1714028299841001 -3.2385432392988286e-05 -3.169513279412004e-05 -0.00011359972681628708 -9.905026888064523e-05 0.032549107753803534 -0.04380619300212466
0.132 0.08676430589354106 0.1661054537381807 9.483642019035537e-05 -4.84152658835478e-05 9.216324740854377e-05 -7.696532788942578e-06 0.02877329884248907 -0.046405167442061634
0.133 0.10123416859072193 0.16110280694507653 -1.0083428514005551e-05 -3.1611926452406835e-05 -1.0738576646266181e-05 -5.0017774777744686e-05 0.024472803459853847 -0.04962167190428624
0.134 0.11214485976477352 0.15291349441335936 3.603648165043438e-05 -4.6679669787301866e-05 2.678738251774792e-05 0.00011177889196647976 0.01999012382120765 -0.05200186165925943
0.135 0.1244868838804188 0.14567495147843237 3.636766344955942e-05 -6.870808416361204e-05 -8.90707270861538e-05 -4.0900290088173946e-05 0.01563726511589051 -0.05364902617225445
0.136 0.136831405790587 0.13619851708765296 8.543481905293642e-06 2.848537500246392e-05 0.00010627355469083179 -3.4935423596525636e-06 0.010735041287641285 -0.05534786728913693
0.137 0.14713415941324146 0.12701505362885993 -3.024956842102493e-05 -3.651393230341987e-06 -0.00013688647080433678 -6.215748398478459e-05 0.005976253791987788 -0.056452968035268655
0.138 0.15701741469672062 0.11645205138404556 4.0155412588239037e-05 -8.085656325850115e-05 6.429044922297735e-05 -0.00011562026680958508 0.0007016355442518824 -0.05685564093838123
0.139 0.16551983622144756 0.10451414140629543 3.507891093991566e-05 1.8261685127435176e-05 0.00011518273001419644 -2.8304706715399507e-05 -0.004201122945940277 -0.05732612569760423
0.14 0.1743693952066337 0.09172120431285866 -1.6044860423263333e-05 -0.00011991386271248042 -3.116146391725016e-05 -5.865441632915788e-05 -0.00899838037130935 -0.05693915301936586
0.141 0.18155430201092662 0.07898253500246463 5.7281624504097445e-05 -7.479858233431677e-05 3.9928106554682966e-05 0.00012479397219902565 -0.01426663635276207 -0.056078853777687426
0.142 0.18890214697085242 0.06498660804730753 -5.2583573586624806e-05 -7.290682750398523e-05 6.231142472244387e-05 1.6658168642456356e-05 -0.019636829222996217 -0.054881261123644096
0.143 0.19325401712780013 0.051907605765503136 6.07124980206569e-05 7.814129565447156e-05 -3.79547044720848e-05 0.0001312821370469574 -0.02455463866353776 -0.05330135530292207
0.144 0.1982013114255936 0.03723084629636377 -7.688572888123684e-06 -9.455990780984154e-05 1.6481121094567916e-05 -3.4109451982340994e-05 -0.029048476315724995 -0.05104215550424843
0.145 0.2019838557582687 0.02255642608374432 -5.045332238643439e-05 -4.245273139010857e-05 7.683619013817184e-05 -8.81105021953044e-05 -0.03368220811199609 -0.04866596762705369
0.146 0.20301792697146956 0.0070488345912168866 3.912711700890503e-05 7.908428228321035e-06 2.9303268135578452e-05 8.671291381078185e-05 -0.03791162800949979 -0.04552061604992858
0.147 0.20482730953596237 -0.007475631126384578 8.720217305020738e-05 -2.458954510150853e-05 4.032609482447893e-05 0.00012987124939436146 -0.041802661808343404 -0.042088635445500296
0.148 0.2048616572770454 -0.022977679179391593 6.694134676189358e-05 2.654831014738305e-05 7.152451757779055e-06 -1.232091145489894e-06 -0.04537810758927232 -0.03859633051612896
0.149 0.2035215530103474 -0.03874220988886998 -5.423777117561295e-05 1.3475873160568186e-05 -9.739494553121923e-05 -1.8284705041569563e-05 -0.04912299932582065 -0.034656476775844
0.15 0.2012415293866156 -0.054520344451816465 -2.1909619393040225e-05 -4.6209831104350594e-05 -9.357926134197411e-05 2.9281127368915057e-05 -0.052120450332014207 -0.030405272881524514
0.151 0.19792748378786848 -0.06957767863381335 3.4207371106774e-05 0.00010851771729829372 2.0756846463002456e-05 6.469617671852631e-06 -0.05490737144331604 -0.025831961200087506
0.152 0.19293065707292256 -0.08400596500875893 3.401069845228374e-05 0.00015430825362039343 4.567120569280079e-05 -5.3507343608544003e-05 -0.05694339919508991 -0.02095461777953916
0.153 0.1865862535535899 -0.09990013441035359 0.0001132031469508649 -1.2820672271772453e-05 4.683928003120794e-06 -5.618363615649244e-05 -0.05928778275178761 -0.015764871946069844
0.154 0.17937178528197753 -0.11412634967517053 4.4378525732075774e-05 2.4560869208135652e-05 -2.07218408358016e-05 -6.626884051641616e-06 -0.06062668625764568 -0.010894808252671938
0.155 0.17154658099117215 -0.12716417667881919 3.227119522014541e-05 -1.3656783727085943e-05 -2.8313784615579344e-05 -5.289765385708889e-07 -0.06167166680378382 -0.005412519181023479
0.156 0.16154136852818957 -0.14168746282319866 0.0001021281292219756 -0.00011819922656911399 6.278189176588909e-05 1.1158429804025014e-05 -0.06210606772311418 -0.0003556767432525252
0.157 0.15430431332624855 -0.1530887942336872 8.440607023306447e-05 1.1935860974411445e-05 -6.268984188049543e-05 9.108119515550416e-05 -0.06236977108690155 0.005079785280664283
0.158 0.14241583682391637 -0.16496304831615863 -4.513650238855563e-05 -2.5691598612964328e-05 0.00010310202845885051 -0.000143361994778376 -0.06198097559236582 0.010693788972426354
0.159 0.13014436481894157 -0.17619384746328673 -3.514387458597821e-05 -6.397605401431852e-05 8.215279628157966e-05 -5.7423900496523345e-05 -0.06096070351522102 0.01613852971993883
0.16 0.11690797685362946 -0.18737601464546477 0.00012250156599234098 -0.00012329756563789408 -1.382454855650967e-05 -4.5356737986226485e-06 -0.059683686778505274 0.021263409506224875
0.161 0.10215657641315458 -0.19696168091125194 3.053414353545507e-05 2.693649218510088e-05 1.5524470994178144e-05 -0.00012256626026469736 -0.057916467844237214 0.02685321964839196
0.162 0.08763612275006846 -0.204709327026208 0.00010840563414396008 -0.0001230448948125502 -1.1134714016617584e-05 -3.625198754527386e-05 -0.05546231385879431 0.032011099296724806
0.163 0.07276921461759302 -0.2122769864215156 -8.331087530810708e-05 3.7092391485331935e-05 -1.0453609605562965e-05 -5.526633524770377e-05 -0.05291507437366359 0.036826178357297776
0.164 0.056268518898866735 -0.2181877690126587 7.645569680526075e-05 -5.933601402119041e-05 6.573731508683569e-05 -3.84420477716694e-05 -0.04972313683527723 0.04161879013415033
0.165 0.039902743242673185 -0.22388894438385906 -1.2399676406045035e-05 3.123460839123997e-05 8.818666132614531e-05 6.0039760813416965e-05 -0.0461316040944498 0.046308067377339376
0.166 0.022179936729720615 -0.22790427166113725 -3.390071255304134e-05 8.63921417133993e-06 6.964316871815117e-05 -0.0001715976962572579 -0.04214177192386183 0.050250431884004625
0.167 0.005577231071681515 -0.22974493630198983 2.8746823572828735e-05 6.603928048099212e-05 5.901795002689468e-05 6.741287913005724e-05 -0.037573428907202944 0.05427240889025962
0.168 -0.012033606092018407 -0.23021549506627248 7.079012218895869e-05 -3.097429702351023e-05 0.00011201475165090359 0.00010221492332100367 -0.03294310410473797 0.05782134133138649
0.169 -0.030390982654251407 -0.22927200956413063 -0.00010886435039515395 -2.0284311605552312e-05 -2.5067173083484867e-05 -4.56988110688468e-05 -0.02779623453395864 0.06085029199776445
0.17 -0.04832136844962879 -0.2294098454712754 7.150864560817833e-06 -9.239027645024411e-05 -5.620518464320179e-05 -3.6069220957030076e-06 -0.022614848955656377 0.06349069711539163
0.171 -0.06582051444797063 -0.22599199875152515 1.0178023410231825e-05 5.5336690266899175e-05 0.0001565104810757688 -2.173094701156057e-05 -0.01697512440043069 0.06539876468672598
0.172 -0.08278346343372837 -0.22058881103987657 5.688221447970159e-05 -2.8661270446254616e-05 -4.089677515920161e-05 -2.030689624508163e-05 -0.010949040491422838 0.06728745878994705
0.173 -0.10263256950599121 -0.2154003703719861 2.0244628602574674e-05 4.124326164649652e-05 -4.0050984724861146e-05 -3.1177086833755975e-05 -0.0049826289595860385 0.06850265433675502
0.174 -0.11863401306788258 -0.20786241952643975 5.052637460198758e-05 -2.6437143386500133e-05 3.2034268527107646e-05 4.295709498351441e-05 0.001794430964700422 0.06943100862583802
0.175 -0.13753192005028775 -0.19856924698149114 -2.885647323054486e-05 9.470848945147501e-05 -6.03109909800014e-05 5.5750906604397166e-05 0.007378875938472377 0.06907262078757051
0.176 -0.15167391593510327 -0.1891930784835438 -9.863841058944143e-05 -1.2083969854848942e-05 2.588431366445749e-06 -4.569379882871732e-05 0.013303346065226688 0.06819153766614146
0.177 -0.16591543056093816 -0.1777766622496534 3.1575400937240975e-06 9.988312305485827e-06 -4.844181091508389e-05 -1.2619557299064887e-05 0.01981530678852619 0.06782829119483333
0.178 -0.17965853910390062 -0.16363797272905556 -2.118645229678656e-05 -4.0861899702169266e-05 1.0468999446834145e-05 4.159001707819726e-05 0.025932468803200933 0.06604458837919126
0.179 -0.19318409991231397 -0.15084713785448695 2.3558885463226057e-05 -6.415532155356886e-05 6.570373987595082e-05 6.328508953240462e-05 0.03157011934795815 0.06318495873520631
0.18 -0.20600868198917005 -0.13582963728857878 -1.3110557710923718e-05 7.382378611624827e-05 4.260368390142825e-05 -4.501505926980985e-06 0.03729531172167054 0.06079992216063773
0.181 -0.21547503040242166 -0.12074901806103953 9.386284678441235e-05 9.002597600021501e-05 1.1739138724613233e-05 3.431317086853267e-05 0.04304720434129657 0.057959807595477
0.182 -0.22546936071123289 -0.102938008451401 1.2151183692004434e-06 7.456668652347341e-05 9.293233661489062e-05 -1.392931681836476e-05 0.04836079452948623 0.05395002181195434
0.183 -0.23414855610424923 -0.08620064656297165 -1.461840739043955e-05 -4.66853154559222e-05 5.8518756470606334e-05 -2.7477408547823896e-05 0.053878333001346444 0.04939405275939846
0.184 -0.24134269670079175 -0.06803015586926359 1.0192609898127274e-06 -2.043482175956148e-05 5.6055712650740785e-05 3.751454719789145e-06 0.05789479286802529 0.04489326586555417
0.185 -0.24710827462608506 -0.04932805224473767 -3.4146257487760505e-05 3.11439764213768e-05 -3.7405752278532374e-05 -6.820373493887953e-05 0.06223800418287486 0.03940880920218888
0.186 -0.25120736538786653 -0.03049674911991566 -1.8084402068449594e-05 -1.0732396519657979e-05 -9.30647216208186e-06 0.00012639968421297457 0.06612283017952733 0.034125397677803995
0.187 -0.2536307828476144 -0.010796576549173171 -5.543144418575621e-06 -8.787630721674182e-05 6.571771471837466e-05 7.301193831284674e-05 0.0692251496962547 0.027619401993013024
0.188 -0.2543438757928072 0.008951330637160469 4.9780846005581576e-05 6.293462309906002e-05 -0.00011944950432768034 -9.876785244115053e-05 0.07198477883712229 0.02123080902561742
0.189 -0.25428499685985567 0.028340080228782417 9.263682016594783e-06 6.278341717184643e-06 -2.405589027279523e-06 -6.888705667977903e-05 0.07378074811412019 0.01534379381186672
0.19 -0.2518115368267468 0.04809255793028191 0.00012560239281820946 5.3163526984089076e-05 3.7151779297880415e-05 7.646330232609432e-05 0.07521148576175109 0.00837161816138851
0.191 -0.24976256930525242 0.06681418712660382 -6.298374384667785e-05 8.737966002413487e-06 8.960682013791922e-06 -0.00012125164626709066 0.07624548967346026 0.0014676120140992104
0.192 -0.24359484782965582 0.08618670647344416 0.00012454356655925745 7.048017406397396e-05 2.3466939296133737e-05 0.00016898171788050714 0.07619532614661945 -0.0053323376421870764
0.193 -0.23761311294633355 0.10451360199583934 -0.00010823897596968277 -4.045207376564146e-05 0.00011290383802614162 7.144278485609419e-07 0.07573262383720863 -0.012347754338663456
0.194 -0.23023667773034676 0.12306406815118405 -4.4714392149139684e-05 -1.164786427441762e-06 3.666260596518912e-05 8.711379810427236e-05 0.074607425151794 -0.019059587900174736
0.195 -0.21996817813730463 0.1411069617973268 1.3817228134196769e-05 -7.077429183600291e-05 1.1140470200325243e-06 8.466106840084646e-05 0.07348963820438223 -0.026011359641428117
0.196 -0.2098911898114112 0.15771610788015372 4.372726332223457e-05 -6.890210327043803e-05 -4.341617454077787e-06 6.154531167059807e-05 0.07053241627831897 -0.03251734695190778
0.197 -0.1977779657653265 0.17358979738581984 3.0402506699976456e-05 2.7101777603400612e-05 5.9211966920841735e-06 -9.670251383800667e-05 0.06772745402024956 -0.038842778638864824
0.198 -0.18507058095394305 0.18941104622515295 5.779562823345142e-05 8.586852702802429e-05 -2.7001245596057015e-05 -0.00013355407020410257 0.0640906746667593 -0.04515408981616663
0.199 -0.17129838139678888 0.2031308714299236 0.0001295393619962843 -9.966591344120916e-05 -1.6810102723628066e-05 -6.118181402074531e-05 0.06000186059736811 -0.05093945525959159
0.2 -0.15573355972340336 0.2159547311092228 2.1064981495457845e-05 -2.69713614115467e-06 6.746537478445731e-05 4.027013105766097e-05 0.05551489011073178 -0.056353861247611485
0.201 -0.14020529179483646 0.22854934037924238 -7.403043323694502e-05 -0.00013978228395805032 6.290814588154059e-05 -0.00010373319003621764 0.050446934472595927 -0.0610908769067058
0.202 -0.12390801484493084 0.23925834221564782 4.666339781602199e-05 8.842019851832517e-06 3.287506756243315e-05 3.3948049382006e-05 0.04483764900474887 -0.06590118615127515
0.203 -0.1060978274923936 0.2477873511738774 1.5070740624945487e-05 0.00011453397957176262 6.152291388536773e-05 -6.74675826045284e-05 0.03887625350750036 -0.06996016262001903
0.204 -0.0868947080624023 0.2565580758502238 -3.9109688727263325e-05 8.376660328611121e-05 0.00015329599901296834 0.00012992721868897603 0.032735908403976006 -0.07337790567277097
0.205 -0.0686428456550011 0.2654221901653055 -7.926880208352594e-05 2.7149437904245238e-05 7.940883627924477e-05 -3.7869426669578445e-05 0.02600723304576242 -0.07620495827719008
0.206 -0.048071100134250755 0.26897731248754125 -2.7086478932329692e-05 6.678929776017542e-06 0.00011191359589249157 -8.141495107289878e-05 0.019356808368151044 -0.07852479713946081
0.207 -0.02822446387398127 0.2750295470945586 2.185340727475448e-05 -2.3610186118988195e-05 3.6597919042400805e-05 -2.0554037808037544e-05 0.012691274576036748 -0.08027122678007953
0.208 -0.010879508743289789 0.2754657828526275 -8.400247778095651e-05 1.196934660585486e-05 -0.00011416280412601889 2.173900282742798e-05 0.0053185821481503415 -0.08157194283121137
0.209 0.013611906275804561 0.2778497584306923 3.220829358386895e-05 0.00014180113192809895 -4.141974055895911e-05 -1.3376964304305818e-05 -0.0017833302762564418 -0.08198515403011171
0.21 0.03532873229912707 0.2781609632489188 0.00013320372611882203 -4.21987442190409e-05 -6.33145319125373e-06 9.116923502072922e-05 -0.008904758329188592 -0.08156568434893338
0.211 0.055633056810510256 0.2769224458669438 -5.7568538253110995e-05 -2.027131795557492e-05 -2.423398751938465e-05 5.128368482174049e-05 -0.01616805624609434 -0.08085010437022001
0.212 0.0739720996491671 0.27352986765844783 1.655585631505665e-05 7.521232907669695e-05 5.6301754633321945e-05 -0.00010770605438790129 -0.02329385454233216 -0.07865842726908051
0.213 0.09612845523947468 0.26728146486020826 -7.422264272981826e-05 -9.102115409328787e-05 1.8854417547859003e-05 3.1427534040683836e-05 -0.03011016621220146 -0.07752202630129412
0.214 0.11849305318090278 0.26185209632282014 6.520385226144456e-05 6.511944435561368e-05 -8.537102511245928e-05 1.244953035104616e-05 -0.03701459341563374 -0.07444303735239174
0.215 0.13715525145080076 0.2554044870923108 5.589416834093162e-05 6.1014481661522965e-05 0.00010061864701245347 -2.670902298044375e-05 -0.04416574607450187 -0.07100270582777665
0.216 0.15551381165250117 0.24467798581882538 4.7364074657842296e-05 -7.97602832131381e-05 -6.309814035010288e-05 -4.7149561543422154e-06 -0.05015388459220912 -0.06725023039368054
0.217 0.17625264620392725 0.23157093664847897 -1.8235534601112216e-05 -5.658225596612537e-05 5.613111617944215e-05 4.164769061631e-06 -0.05585655486019877 -0.06278848520632037
0.218 0.19291230009231952 0.22048930348126497 8.908169863356353e-05 2.349209604647867e-06 -0.0001682980329113786 -0.00010443182178950998 -0.06150784609889414 -0.05856033762924699
0.219 0.21033463574772576 0.2055988017029069 3.08476934923876e-05 2.6730682814113102e-05 -0.00013996886859658458 -2.450321811217501e-05 -0.06629268998406303 -0.05282019573339455
0.22 0.22955455665305866 0.19074648008723208 3.6941408010357526e-05 1.2976661183242103e-06 -2.851001914708623e-05 5.356430568851137e-06 -0.07100717462352245 -0.04666517451049575
0.221 0.24263249048809848 0.1734927151659393 5.916782481663815e-05 -2.0961505559759276e-05 7.055513722330678e-05 8.878729276238681e-07 -0.0752008584224637 -0.04040687878391118
0.222 0.2571212467217467 0.1562469452805168 -1.0191875406005588e-05 -3.1528194244868156e-05 3.6920303264708226e-05 8.001457755771457e-05 -0.07886063324177427 -0.03391942196793507
0.223 0.2691471577530433 0.13627746002520247 9.105550775958129e-05 -5.8718179100575254e-05 4.268646643238904e-05 -5.790292644002271e-06 -0.08198521994978065 -0.026774630336323487
0.224 0.28079791258148007 0.11676474133639145 -3.65694324618914e-05 6.869798688516359e-05 8.321670118876018e-05 2.348714659229779e-05 -0.08463247610136566 -0.019867413555095356
0.225 0.2894782396527702 0.09511109283989408 6.480024790105536e-05 -5.000080784268133e-05 -4.280590443523857e-05 7.782769023208082e-06 -0.08587675406742795 -0.012571118435428024
0.226 0.2979365655387434 0.07234779971191414 3.645378317485643e-05 -7.392859355385205e-07 6.784659663876192e-05 4.612743528672058e-05 -0.08726355311838112 -0.004644880528666729
0.227 0.3037503466693945 0.05051642017139321 9.577976448127007e-05 9.688152646974362e-07 5.0802515120059595e-06 -9.31689426892912e-05 -0.08804502822917663 0.0030145019654945126
0.228 0.30764994882888635 0.02723558129669409 8.587547672988223e-06 4.868299421386122e-05 0.00012838174340414646 -1.6509581981984788e-05 -0.0875693200364385 0.01046138603596601
0.229 0.3103446474038858 0.004619637303855884 5.4314214186849655e-05 7.141165924887914e-05 -0.00010134826886059696 -6.21823592186077e-05 -0.08653226328876375 0.01815881908886415
0.23 0.3109247619471065 -0.019790384861277564 4.555090398842219e-05 -6.246677571575004e-05 -5.53939107524808e-05 -1.5810406198193645e-05 -0.08514067404700537 0.02599203788506991
0.231 0.31046474471444796 -0.0433497119507046 0.0001274731313215561 9.439574271002964e-06 7.443444543209406e-06 -6.613047338407813e-06 -0.08293679524459292 0.03319334188071356
0.232 0.3058662963669592 -0.06617265378605114 -2.416195177791816e-05 -5.2704013045673776e-05 -2.686061323885476e-05 -0.00012531857733766888 -0.08006570904539531 0.04061690715170856
0.233 0.30381693781160063 -0.09137640194352886 -4.04403946188266e-05 1.1203238307618196e-05 -1.2067402882465751e-05 -3.2539226136087105e-05 -0.07678486397073109 0.04755936426823734
0.234 0.2946273667232886 -0.11256709628087863 -5.907495935569183e-05 8.902816470668282e-05 1.6645825738098514e-05 -3.942418328247165e-05 -0.07261660666646233 0.05400978005451084
0.235 0.2870789711443197 -0.13555676636630204 -2.638909656974404e-05 -1.3350873876623698e-05 6.0805996270312624e-05 -5.9121569262786526e-05 -0.06807350094904119 0.060607999540858895
0.236 0.27622215603624023 -0.15733103204797233 -5.789429526159417e-05 -0.00010962145629631097 -4.735103446060834e-05 -3.124819930137814e-05 -0.06256747679551652 0.06663851993082423
0.237 0.2644485717750184 -0.17763926359543145 9.135773957383646e-05 -5.758585431268667e-05 -5.0761348787616353e-05 2.5213683012403868e-05 -0.05674473778661037 0.07216232647595616
0.238 0.25099787082990066 -0.1977182026484219 -3.3102461970905e-05 3.424120900075652e-05 9.236937157308611e-05 -1.3840106706138998e-05 -0.050379488256855454 0.07743883483553723
0.239 0.23583956609465348 -0.2169962019764822 -3.243376967267052e-05 -3.158696140990026e-05 0.00014916675359290973 -2.47254810954751e-05 -0.04385350068949568 0.0812562369230837
