!Created with skrf (http://scikit-rf.org).
# GHz S RI R 50.0 
!freq ReS11 ImS11 ReS21 ImS21 ReS12 ImS12 ReS22 ImS22
0.13 0.002824789189946084 0.0003848905487374238 4.668821179474947 0.3395527344644429 0.0022460421256277245 -0.00016346498410400035 -0.0001566886867309965 -0.0009862469302539599
0.131 0.002854796798180289 -5.365155730604264e-05 4.672670015797979 -0.1144834824214224 0.0021779162885949134 -0.00024401618588578358 -0.00033584885484577585 -0.0009695743195103509
0.132 0.002688696176599751 -0.0005340289064897259 4.636310617941037 -0.5531310903763549 0.0021749841044561794 -0.0005675346481340708 -0.0004164057465097219 -0.0008990588229668932
0.133 0.002475697450038002 -0.0007827653472148687 4.567795438593546 -0.9806430781833921 0.0021442654779531283 -0.0007070321934485587 -0.0004830266920646391 -0.0007973510218022713
0.134 0.0022153598183407668 -0.0011051977747826458 4.453273561012523 -1.4228268117166554 0.0021665571648499487 -0.000739897542248996 -0.0004724302081618038 -0.0007497755880671209
0.135 0.0019130071493213819 -0.0014040791594882342 4.301575938916109 -1.835349579376578 0.0020220390567756213 -0.001007764232283829 -0.0006849182799687876 -0.0006381730201182995
0.136 0.0014747155235127715 -0.0016224235978793545 4.099221862767577 -2.2340257770303094 0.002079416439851651 -0.0011719431127984055 -0.0006576714000072263 -0.0003927317903432241
0.137 0.0011634706903336889 -0.00201012332170214 3.8724149766778266 -2.611400737021832 0.002055566645084305 -0.0013570257581822147 -0.0007068452541414052 -0.00043196305387050235
0.138 0.000728377307040514 -0.0020075858348550524 3.5964463276703302 -2.967771459339663 0.0019080770998384346 -0.0014919057602953815 -0.0007121893432582236 -0.00031755267683521144
0.139 0.00016931162434209946 -0.0021933631244241865 3.308230906614523 -3.2936028693086037 0.0017543449878863343 -0.0015714086605613494 -0.0006412429691406965 -0.00015293195051311112
0.14 -0.00034189583874535604 -0.0021501059244203266 2.9689221277750115 -3.593596596493937 0.001783085565577621 -0.001747460494578231 -0.0006608940827874885 -2.6688666975121867e-05
0.141 -0.0008084272381159732 -0.002188121524007444 2.6207784724136785 -3.859583858901538 0.0015627952651235742 -0.002122570504797214 -0.0006400429566490785 0.00023098186678946725
0.142 -0.0011085835712573203 -0.0017706106363291917 2.2536383853495807 -4.085684256134225 0.001561314728485016 -0.002112404347025438 -0.0005407869014159635 0.00022633736866466418
0.143 -0.0016971226623715165 -0.0015606697052386405 1.868147768000747 -4.274114868341024 0.001355762359984749 -0.0021353419620951915 -0.0004224173496612459 0.00036018123586805415
0.144 -0.002074796767142639 -0.0013465844838363428 1.4512451235744996 -4.429452188145324 0.0012790069250094983 -0.002245787462131782 -0.0003147760928109665 0.00046285306596027755
0.145 -0.002401035120051283 -0.0008605816095529024 1.0374160476207033 -4.552983427057106 0.0011138868353547623 -0.0023874630194989747 -0.00027249832624103693 0.00042244237046293103
0.146 -0.0029786443972743305 -0.0005781468724918189 0.573185289294764 -4.621327736072749 0.0009281307643338466 -0.0025945093541238115 -6.894781622612726e-05 0.0006004155014470558
0.147 -0.0029994249065039952 4.089831297595537e-07 0.13840180817037315 -4.654681123294524 0.0007256044440179366 -0.0025890071926605524 0.0001027494652574861 0.0005268739662833457
0.148 -0.0030592459827346766 0.0006093891970426338 -0.340952707997361 -4.665536865523446 0.0005649508038203966 -0.002716105727632193 0.0002474994720238988 0.0005542649603215386
0.149 -0.0032695428135167954 0.0011965838666944703 -0.7284794994701573 -4.587292888862376 0.00033314451786050373 -0.0026144583589639064 0.0003834727415179461 0.00045514284532407865
0.15 -0.003308866987069154 0.0016984739255726416 -1.1605670679004387 -4.497698358782962 0.0001936326705436996 -0.002850042049082851 0.0004697205795751864 0.00033268649263026417
0.151 -0.003223276378254722 0.00238102059580092 -1.580525799405355 -4.355389113150044 -3.565376119352948e-05 -0.0027964226533709145 0.00070454442309627 0.00028945706571377277
0.152 -0.0030050576063038194 0.0028893071494365792 -1.9785728244392684 -4.177444252405851 -0.0003113286110904944 -0.002752515501838628 0.0008131298438263341 0.00023535261124556277
0.153 -0.0028179366362343443 0.0033222457895309455 -2.3485279787838604 -3.9857664666776156 -0.000511620834979141 -0.0027699432363601133 0.0007282449577629556 0.00024540765834545834
0.154 -0.0024461940431150723 0.0038875460086277903 -2.7247812995647416 -3.7353238428042608 -0.0007544698969751561 -0.0028688547602610396 0.0008168431451617397 -0.0001339890786275176
0.155 -0.0019262265837909087 0.004199374505831321 -3.0605021062213913 -3.465928713061522 -0.0010079711763884651 -0.002703805911447976 0.000880700691387241 -0.00030469428690809466
0.156 -0.0016860034855080968 0.004605858820227732 -3.3790838399021794 -3.1407254408040037 -0.001109082369611399 -0.0027510133266743326 0.0006987058865572411 -0.00036795674603076127
0.157 -0.0012770890950231514 0.0048574487879960195 -3.673598930130941 -2.7997992131423532 -0.0013420874662488664 -0.002721016483931452 0.0009103366420006627 -0.0006131272263933921
0.158 -0.0004891154163116704 0.004966072161018629 -3.903201501256841 -2.454559452386287 -0.0015394121925099374 -0.0026036520276329534 0.000804240267590841 -0.0007365974612306257
0.159 -7.079653933817562e-05 0.00519179713916786 -4.115589932999297 -2.0934647021719095 -0.001937597190450928 -0.0025412308095142367 0.0007236332829619362 -0.0007686145957539573
0.16 0.0006213944821521126 0.0053628699177946226 -4.260003112874269 -1.6841017619677177 -0.0020113998068913863 -0.0024265104009428945 0.0005884265084175991 -0.0009223258034335137
0.161 0.00109347754842854 0.005191378544521076 -4.407863184853769 -1.2743481199934092 -0.0021115924797802522 -0.002273089894598271 0.0006798783629252234 -0.0009212306376778489
0.162 0.0017052006584799715 0.0051148428117031115 -4.538752553606008 -0.8367279087711743 -0.0025038611382117407 -0.002299395696293241 0.0005055568990549705 -0.001111551685416222
0.163 0.002138758498480453 0.004962229959932141 -4.591756386005117 -0.3941569541285258 -0.002642698714620607 -0.002046195969620449 0.0002875180151270444 -0.0011350235576552067
0.164 0.0026223350461400388 0.004657903733875527 -4.5905296990422935 0.020656040211121704 -0.0027732045168728106 -0.0017598230185460085 0.00016240778535958638 -0.0012194727731585173
0.165 0.003055166078944521 0.0042999054264496114 -4.566021298233005 0.45977416848686314 -0.0029080008827212828 -0.0015431611123948757 -5.037638279738884e-05 -0.0010700891571360262
0.166 0.003316198941601074 0.003987572318130044 -4.500951848971043 0.8889166666268756 -0.0030925537332122154 -0.0014052858824081145 -0.00017120671114845347 -0.0012139949452286826
0.167 0.0035570561968169645 0.0034235454967718837 -4.394961947273998 1.307063537276148 -0.0031592409143099084 -0.0011659949345604547 -0.0002957313792881209 -0.0011551974731642857
0.168 0.0037770196748031907 0.0030540959870146104 -4.256823513235131 1.7320337151173704 -0.0033068525111127744 -0.0010804467615263297 -0.000382727663347198 -0.000991378911987814
0.169 0.003860870143559913 0.0025117715481103695 -4.066692697530002 2.1148723460493617 -0.003314081160466329 -0.0007689246705672106 -0.0003634911997299946 -0.0010466066845960921
0.17 0.003759294689510479 0.0020843136719136237 -3.8452027101761908 2.496358478575865 -0.003413496019844723 -0.000569309595003296 -0.00048666532459064495 -0.0009251516985257567
0.171 0.0037906020241856584 0.001625434218798674 -3.5839427933521875 2.8595840348518875 -0.003540133916288537 -0.00014296005608139083 -0.0006746179590318921 -0.0007837967611111749
0.172 0.0034642040542634577 0.001223483960634988 -3.315392505939464 3.177265053586609 -0.0036148373776697523 9.071207946973812e-05 -0.0006645463742204372 -0.0006373814345734747
0.173 0.0032951870125618515 0.0009128081000486131 -3.003311787812093 3.468264507235834 -0.0035263994905552617 0.0002292008875634304 -0.0007878831226872055 -0.0007417741658954295
0.174 0.002963572437152829 0.0007162471941174374 -2.657220550891159 3.749023660120328 -0.003709718619365698 0.0005203353397676312 -0.0006302922019235882 -0.00047671326902913114
0.175 0.0027434615788312056 0.00046066042694259906 -2.299202253915768 3.9617240688436 -0.0035263779952737465 0.0008435577546890017 -0.0006085739211986455 -0.0005071290318702943
0.176 0.0023842787820814284 0.00035961563834705033 -1.908591123436852 4.159430666762827 -0.0035892749859964984 0.0010568065337351778 -0.000502163202301685 -0.0003575700355915388
0.177 0.001950021131344507 0.00022552746697367996 -1.5185701085026453 4.308837767721521 -0.0034543090091289767 0.0012706173976935868 -0.0004807411677899465 -0.0003968432201383468
0.178 0.0016792662752399708 0.00031956006103886806 -1.0993172520612087 4.43487332711894 -0.003580727103034763 0.001637731504414749 -0.00033808341607917636 -0.0002538978829178522
0.179 0.001322743223533901 0.00034914136725706647 -0.6610782604015631 4.51385937481849 -0.0033430793974650844 0.0019058923067971868 -0.00034193348597771764 -0.00014157886705500703
0.18 0.000931494356215311 0.0006592678420192863 -0.24404136467184628 4.567215148545248 -0.0031610349333000744 0.00207123295127256 -0.00030416352246152335 -0.00015497905550201652
0.181 0.0007980981496135173 0.0008474187821814416 0.17652329810067643 4.572277318289057 -0.003074141706562884 0.0024254975955275765 -0.00014171681063245543 -0.0002758991287634661
0.182 0.0005259444436200966 0.0013351877550324932 0.6252377438348298 4.533997210678142 -0.002782780131677674 0.0025893150166352115 -0.00011424003790383868 -0.00023237433439742436
0.183 0.00028712901464534457 0.0016388413162724605 1.0661328587054761 4.474345441534033 -0.002675967824301817 0.0029768574525862977 -2.5498035815649494e-05 -0.0002804304292244642
0.184 0.0003360855192383642 0.002077028529359863 1.4164836285986853 4.313412665041195 -0.0024506673432082276 0.0031495266958923283 0.00010068406609445035 -0.0003742268120811066
0.185 0.0003730543734480818 0.0025125678257457845 1.8634468146961014 4.148021067986483 -0.0023236579145266014 0.003372562726601271 0.0001290930628982372 -0.00044368630394009336
0.186 0.00046284957058244104 0.00299631170867397 2.250328213571965 3.9815574998671446 -0.0020868264310461232 0.003569387539287087 3.0411893470132197e-05 -0.000632240514709219
0.187 0.0007187263231572333 0.0033465471659889323 2.6220084292564003 3.745159526339858 -0.0016864544073197031 0.003709966322215482 4.303570424360726e-05 -0.0007765894843286741
0.188 0.0009243233473036408 0.0038512405085167184 2.951944278642302 3.493250945657537 -0.0016692422837633028 0.003845445221339436 7.946990464314972e-05 -0.000968389780650856
0.189 0.001339679388109046 0.004245891916212968 3.257043456824068 3.177201954343037 -0.0013719700333665505 0.004060784833369401 -2.39804461557243e-05 -0.0010820950602352377
0.19 0.0016129438606124306 0.004384037504774885 3.527436533720773 2.8550683838933226 -0.0009744951004803116 0.004158862055727511 -0.00016744364855623644 -0.0010511669805897297
0.191 0.002240218476981109 0.004677005853727072 3.8123487440211394 2.524647026951774 -0.0007695386342004296 0.0044188621750756015 -0.0002781118865266256 -0.0013357041481102203
0.192 0.0029217345201198127 0.004989635701810036 3.986993843783733 2.135638013573894 -0.00039990865136925447 0.004332722500332544 -0.00043908030135941605 -0.0013454176499904282
0.193 0.0033162307528795533 0.005112650213530972 4.19425123439846 1.7789199358174215 -8.269796883094991e-05 0.00436275311631102 -0.0005137619449051786 -0.0012867348347081324
0.194 0.004210733422416171 0.005050237516549175 4.334855840406787 1.354356885527288 0.00039846842486033156 0.004572466603975043 -0.0008061091615997432 -0.0013868169699868807
0.195 0.004771659181455907 0.004857000225420391 4.446824364846603 0.9520957576311285 0.0005718613497442879 0.0044927507737741465 -0.0009233947448300047 -0.0014342880455779261
0.196 0.005418857150613517 0.0047531906256758315 4.497189811293252 0.510953654114734 0.0008348823929208944 0.00452874172488813 -0.0011650103750061754 -0.001425504726061103
0.197 0.006114295320471774 0.0045140272748772844 4.533206900511095 0.08128185760242021 0.0012458250988965115 0.004409306786808111 -0.0014151232337504972 -0.0012868167888871894
0.198 0.0067276938207092825 0.003950413794690696 4.502211913564356 -0.3315630271948916 0.0016137407628100831 0.004355024183965399 -0.001498661380652742 -0.0012213939382461599
0.199 0.007300955990750299 0.0033908666428215674 4.463805821571972 -0.7616576920771363 0.001862300541444543 0.004271843172363448 -0.0017838665170674065 -0.001144672447923451
0.2 0.0076913657399944576 0.0027936396527023667 4.3638402902966344 -1.172277435043431 0.0022732009206913803 0.004124806154625511 -0.0018275807377316482 -0.0010362994350905225
0.201 0.008160993571117797 0.0021030838512790693 4.2296470417687155 -1.5897868932612882 0.0024852157366956527 0.0040023302770093964 -0.002058813597239242 -0.0008653134159284153
0.202 0.008379676936478658 0.0012916564154249082 4.0637473116586875 -1.9779081138195858 0.0028264797142090936 0.003885856858942692 -0.0020866736194999577 -0.0005796051401457215
0.203 0.008641376936021482 0.0003483533220791331 3.8569806812848997 -2.3417327595302178 0.003099446418869459 0.0036480812412947386 -0.002254199097954963 -0.0003958916851626071
0.204 0.008573478329951471 -0.00031475562401217744 3.6145775078533298 -2.7070100729347106 0.0034152741267580605 0.003394613727699502 -0.0023463372544858963 -0.00019303287546341128
0.205 0.00851057763236586 -0.0012016312344172656 3.3508303372769626 -3.022275902253204 0.003699901290430255 0.003237593189823439 -0.0023430267175437846 7.574329636018594e-05
0.206 0.008439666080792333 -0.0020582374983856523 3.0434349418442364 -3.322690545632704 0.00401986749427277 0.002940120642956713 -0.0023448808238316905 0.0003586208582706063
0.207 0.007931745507358853 -0.002699401986580882 2.734368458927411 -3.589016335599497 0.0042894866089914765 0.0027054424369957323 -0.0022195363937407954 0.0005723970050341397
0.208 0.007795477817347807 -0.0033813580013151035 2.364328733018924 -3.826248695468233 0.004536797334121733 0.0024034373523936807 -0.0020924786019071743 0.0009159488094108751
0.209 0.007117478655838248 -0.004222965449121849 1.9963329267020087 -4.035670137967159 0.004650987607371496 0.0020235324643943027 -0.0020388588865315215 0.000879917556174543
0.21 0.006519215973785288 -0.004617664086329011 1.5830880172992297 -4.210517116784611 0.004948723773815459 0.0017080402140584566 -0.001916006299309511 0.0011637337958077417
0.211 0.005900183778076741 -0.005186075743316357 1.1966126749452346 -4.330893833690906 0.0049923440344369725 0.001504009904904228 -0.0016727709195309645 0.0014271041922506902
0.212 0.005051762971749326 -0.005472820948661404 0.7841865936735141 -4.4279224255131995 0.00515476766641702 0.0011142427162469444 -0.0014656347188070214 0.0015331130868477634
0.213 0.004283528212963011 -0.005661512593423779 0.4063253347022643 -4.46543836918188 0.005335013369818206 0.0007419070150133577 -0.0013413214535457566 0.001587503021376506
0.214 0.003487773001614269 -0.005918295260267094 -0.045803907885859974 -4.478769696493127 0.005429945314611656 0.00033829927505770515 -0.0011029398209572508 0.0017307479027016623
0.215 0.00264028281848752 -0.005924736060505907 -0.48814952034788306 -4.462884474518394 0.005380393308103076 -0.00017544732038700684 -0.0009118482344735956 0.0018127620934257807
0.216 0.0019793170962014097 -0.005797099626475408 -0.8992250181419921 -4.395285475587854 0.005536078385831464 -0.0005395164778930714 -0.000608892310458279 0.0018185511146007062
0.217 0.0012107894238473074 -0.005550999793895313 -1.3081134178581082 -4.305930400186378 0.005495012572409091 -0.001070455156640743 -0.0003303003499657246 0.0017067015190770083
0.218 0.0004153415025415121 -0.005099576656322037 -1.7047625098477184 -4.132384969276283 0.005387683839203744 -0.0013933007945125988 -0.00014008816242833808 0.0017070606224447442
0.219 -0.00017512990728745697 -0.004844600572699127 -2.1025454704769633 -3.961477148246765 0.005303749603876692 -0.0017291912138830046 -6.178243243216162e-05 0.0015616121073235298
0.22 -0.0006475535873262364 -0.004211042093823438 -2.4339540384053917 -3.7704314699105757 0.0052423937068114225 -0.0020950253677521225 0.00024240905651793415 0.0014552830498062474
0.221 -0.001106428608096003 -0.0036500936762384737 -2.7933500188485305 -3.520581717482823 0.005186099135166862 -0.0025292107188175164 0.00035647584961470024 0.0012547942630585268
0.222 -0.001500955665260952 -0.0029981560316366704 -3.1254677002449998 -3.221538737468563 0.004929419238045017 -0.00290749893986792 0.00040791889396335165 0.0011373671422465475
0.223 -0.0017777011611239176 -0.002395245623517624 -3.41288959621653 -2.9156879992062446 0.004688582224359533 -0.0033318095204902965 0.0004997642805949057 0.0008686918126657455
0.224 -0.0018530348233911378 -0.0017455439379955471 -3.6708648248083455 -2.580824441228862 0.004594933962364415 -0.003802526522789675 0.0004955376965034863 0.000771208322711493
0.225 -0.0018855302408118007 -0.0010667816827011477 -3.8935774000443644 -2.2000775828541292 0.004318308146926602 -0.0040235862182729214 0.0005749043801885407 0.0006146585326200821
0.226 -0.001782895351316747 -0.00042161261839079585 -4.080874524201293 -1.8490201913917121 0.0039951361192045775 -0.004364702962035903 0.0005127312345355734 0.0005156057048419756
0.227 -0.0016686110425476303 0.00027268487259464073 -4.232462693414678 -1.4722172026120475 0.003751497292715946 -0.004638529952874246 0.00047048215085086764 0.00031615554101237345
0.228 -0.0013948806429725097 0.0010901065248584499 -4.329754528846288 -1.0419800490441793 0.0033794879617303716 -0.004979115695761707 0.0003583544972346662 0.00010194724654925382
0.229 -0.0010490410396311485 0.0013636686185223331 -4.419013504365125 -0.643187527130646 0.0029920509289451847 -0.005306143343284356 0.00031347663786952037 -5.7908817101017024e-05
0.23 -0.0004776375939230156 0.001860486238867994 -4.476186099922754 -0.21194796925708193 0.0026284984527528772 -0.005566327247180975 0.0003731869137189463 -0.00014358884093780027
0.231 -8.347756727539883e-06 0.0022262178314221837 -4.473025905147383 0.189797127933158 0.0021630610563331625 -0.00580466458925019 0.0001527849648281713 -0.00021645175029561835
0.232 0.0006171929286237373 0.002588669216898738 -4.4252210204382125 0.6151572230758202 0.001935428927812329 -0.0059732613892450066 -6.382210498995807e-05 -0.00021868620824607568
0.233 0.0011360318296436646 0.0026793700590147873 -4.354533089699636 1.039153149567011 0.001469811956835835 -0.006226843330380181 -0.00019829744532983177 -0.0003830273949900095
0.234 0.001713579120991301 0.002700331401664625 -4.23627214923488 1.4348004071232177 0.0009447787080679864 -0.006152273719977979 -0.0003883118426649068 -0.0003813848823955379
0.235 0.0024282041344556764 0.0027430777858893085 -4.07141977059287 1.8260330997386733 0.0005157962539395324 -0.006469223880149013 -0.0005129769087076507 -0.00023792894059873366
0.236 0.0028116634955816025 0.0025100222551342017 -3.8846461669505783 2.2069262893052732 -8.473284164056902e-06 -0.006541246648246429 -0.00046319014629023133 -0.0001807067149462343
0.237 0.003340877959206525 0.0023739298738006684 -3.65667064966209 2.5530048312192513 -0.0004157879531554525 -0.006492905262012398 -0.0007237523677784641 -0.00020603825820737285
0.238 0.0036513761081956356 0.002090319894680613 -3.392680425131974 2.8976228230552024 -0.0008875563075405804 -0.006449232133994791 -0.0008190047775093621 -8.675837788382418e-05
0.239 0.004086100768146135 0.0017274647646882948 -3.109256382696237 3.178707641975868 -0.0013135789940135019 -0.006409462259430787 -0.0010075136051915943 -9.341995977288779e-06
0.24 0.004572739475101813 0.0012579827857835358 -2.796021633136174 3.4634078719991295 -0.001922375949816444 -0.006398419312509306 -0.0009077982712829163 0.0002566938572660103
