!Created with skrf (http://scikit-rf.org).
# GHz S RI R 50.0 
!freq ReS11 ImS11 ReS21 ImS21 ReS12 ImS12 ReS22 ImS22
0.13 0.0027792312221452797 0.00040074477862783427 4.669032951073706 0.3366282328980719 0.002153153018156645 -9.889943324252947e-05 -0.00018920470900403766 -0.0010263233091000034
0.131 0.0027178711461429087 -4.2932911709857934e-05 4.6851719399623 -0.11254253963152552 0.0020762136152549402 -0.00038601147502597565 -0.00021939504710376023 -0.0009132975123281844
0.132 0.002471361895134699 -0.0004943656519988571 4.652782819661181 -0.5448036764028814 0.0020974572025170483 -0.0006113918101561445 -0.0003016850123493929 -0.0009235608051262216
0.133 0.00232015864639668 -0.0008179637180717786 4.581746438337167 -0.9877643577718868 0.002089362990921662 -0.000664141385958769 -0.00040421347405038564 -0.0007371413603826186
0.134 0.0021330235518746874 -0.0011582785192316872 4.453877178990704 -1.4169147527310244 0.0020254992212695457 -0.0007194044779228581 -0.0007244346573264783 -0.0007538680969756541
0.135 0.0018969763104564662 -0.0014416780225939203 4.296273999316612 -1.8433966659807588 0.0020502768516549217 -0.0009438773557053472 -0.0006771747716776063 -0.0006507356865722968
0.136 0.0015579749046232242 -0.0017269886734446347 4.1090752576156735 -2.222529057968756 0.0020551956610454724 -0.0010958692017926062 -0.0006519441972993224 -0.0005039365377748474
0.137 0.0011820845909358997 -0.0018255594081984883 3.8768914869082813 -2.6099999344338287 0.0018688316883829928 -0.001279260217691678 -0.0007619870238315898 -0.00036843583119127967
0.138 0.0005121234378199925 -0.0020055979199456947 3.610052077001297 -2.9608401396317134 0.0018111715046969172 -0.0015208057475739228 -0.0007389579108953866 -0.00026122522801369643
0.139 0.00025068008127775333 -0.001985643603288333 3.3221196615733057 -3.2934790035518886 0.0017674596116633128 -0.0015710350736618149 -0.0007068754147272095 -8.073355922258697e-05
0.14 -0.0002724758157726886 -0.0020237949707908325 2.98017752573551 -3.584267988617185 0.0016930361079051015 -0.0016886555920386747 -0.0007557961741953619 -6.29055875663115e-05
0.141 -0.0007651645937712787 -0.0019362867846061313 2.6269399519014573 -3.848300520905689 0.0016251356278706892 -0.0019647515022294176 -0.0005795639391888491 0.00021094402271880857
0.142 -0.001220582881191498 -0.001737620160824427 2.256954552339464 -4.098631085104622 0.0013890261602747828 -0.0020460496236172814 -0.00042661298487793706 0.0002893649865467977
0.143 -0.001676546434232513 -0.0014517899826382702 1.8523987074602795 -4.2817620664814795 0.0013297334318462246 -0.0021962252882718066 -0.0004182016152360817 0.00020744074305550263
0.144 -0.00213986403385036 -0.0011999150651747597 1.446868475338406 -4.4344791809108655 0.001099343967421629 -0.002280765237494017 -0.00019879379493463513 0.00048648450442819585
0.145 -0.0024443113624118586 -0.0007323840980923969 0.9998421876007516 -4.54813445491148 0.0011382669409913191 -0.0023362180903971413 -0.00015987934559599922 0.0004964304945155549
0.146 -0.00274068586419491 -0.0003077199030817578 0.594743951900925 -4.629679541895126 0.0007785229383579612 -0.002519987591665243 -5.067630140419139e-05 0.0004796361939694454
0.147 -0.002991567772834739 0.00011304532313458108 0.11520025191536136 -4.641148623852414 0.0006976123266254455 -0.0025608762654899266 4.068003775934144e-05 0.0004437136342280382
0.148 -0.0030764902139808667 0.0007857960115618776 -0.3017297954792064 -4.647197478929943 0.00048385379618008125 -0.0026479011933865744 0.00017949484254383116 0.00037605480665412177
0.149 -0.0033385504621480985 0.0012007181224975012 -0.7364838362869723 -4.591207179522589 0.00020247299116791785 -0.0027120933608516936 0.0004298819251349026 0.0003378473294087555
0.15 -0.0032276318487131743 0.0019029992939472897 -1.153622486362741 -4.503769101699757 0.000202862741552618 -0.002781154918632742 0.0006150541670175651 0.0003377030891168804
0.151 -0.0031166378714812502 0.0024343000772892695 -1.5909217127068143 -4.359919792087139 -2.721277702349699e-05 -0.002810823321455177 0.00048411884755689225 0.00026289782501908457
0.152 -0.0029746728081757466 0.002956879375600451 -1.9906222114970045 -4.192535712488317 -0.0002899880926447557 -0.002795717237994676 0.0005502914775613815 6.844575212531014e-05
0.153 -0.0025489781725764804 0.0035048487983194115 -2.3671546915197563 -3.991204478158175 -0.0005670206793201835 -0.0027121426519141176 0.000572368670174525 2.7087061644131663e-05
0.154 -0.0022874589981521703 0.003983290201744574 -2.72940561934712 -3.7304337373346588 -0.0005958431637418982 -0.0028259506337315696 0.0006599301530149852 -0.00013302897408823413
0.155 -0.00198419390987024 0.0044614832105691156 -3.0878320633830625 -3.4700863957598327 -0.0009349498892436533 -0.0028025228460946175 0.0007823467594122008 -0.0002671035696165767
0.156 -0.0015634323626495625 0.004843189093423252 -3.378190949842126 -3.163156508750176 -0.001191163022567135 -0.002835179760417947 0.000784644156913545 -0.0004979203085465815
0.157 -0.0009132813777577658 0.004999881376477951 -3.6742442252904235 -2.809013060297153 -0.0013315666822348565 -0.002708524324462906 0.0007065842250975692 -0.0006376957145913032
0.158 -0.00027983704502373394 0.005203834592540297 -3.910870054600428 -2.446007847203088 -0.001607471027386219 -0.002556561685465808 0.0007245129078259614 -0.000671567216971423
0.159 0.0001800614271251094 0.005322749473339415 -4.122920288792974 -2.079533099761112 -0.0017616975521461786 -0.0024891420794258714 0.0006687660521728381 -0.0008414604519216159
0.16 0.000791920389650545 0.00539698734934032 -4.291162913333869 -1.685604455699548 -0.0020002299141941536 -0.0023220212776107595 0.0004833887776033474 -0.0009524733295956915
0.161 0.0012974707832394124 0.005515217360419004 -4.423205127447152 -1.2722508488358746 -0.0021839183800518623 -0.002236967751541364 0.0005691160540824369 -0.0010980094563569208
0.162 0.001956758909835447 0.005124664395086435 -4.515270367979347 -0.8534242580733146 -0.0023152637962169814 -0.0021372824025561415 0.0002761466834207947 -0.0011315251419582693
0.163 0.0023744966315194216 0.0048009673810253395 -4.588234280544474 -0.4146604925222842 -0.002477938557959491 -0.001964430042293077 0.0001912931602531029 -0.0011832262842716812
0.164 0.002914133647432145 0.004579783863498963 -4.610820941080967 0.01320280279898446 -0.002684207642677826 -0.0017640332646959424 3.9494755266890795e-05 -0.001304326678353612
0.165 0.0033003186343202513 0.004305007765915814 -4.576050851149384 0.45763286341704335 -0.00297351869563431 -0.001607670765398518 -3.237188348271965e-05 -0.0011927265560923636
0.166 0.0037692042336045927 0.0038334783765267334 -4.519054055537818 0.8828922628926703 -0.0029503411277415595 -0.00144845128772412 -0.00026123618284150797 -0.001147228429511647
0.167 0.003918024081231163 0.003390440554564169 -4.400246131120171 1.3243237692431211 -0.003173175834553617 -0.00108294165222474 -0.00024131716129411663 -0.0011961263399846696
0.168 0.003911248555938527 0.002896648413070878 -4.260913852370016 1.714766344329907 -0.003228750664669181 -0.000989054076451492 -0.0003853252752083973 -0.0009880693660421502
0.169 0.004129470002030609 0.0025719704846627342 -4.076582149078941 2.122840885393267 -0.003284725492840902 -0.0005699539400423269 -0.0006070050385669002 -0.0009445440194742745
0.17 0.004141304749055356 0.001988226668063272 -3.85414435595951 2.5036578344157507 -0.003365441466010076 -0.0004440024971604311 -0.0006315376056600379 -0.0008943810564434792
0.171 0.004112932784849838 0.001573340070220161 -3.589374227204455 2.8551171786802545 -0.003521109223864373 -0.0002086142655992198 -0.0006681541528945998 -0.0008189187068538983
0.172 0.0037879173848217643 0.0009438852902683955 -3.31101647178672 3.176537566419917 -0.003504596310526015 7.264591135835359e-05 -0.000806514262687727 -0.0006637315979122864
0.173 0.0037233008802573507 0.0007586046337355164 -2.9917120933844528 3.463448705568409 -0.003455612901718804 0.00031372528332540914 -0.0007078996214374542 -0.00047468067501131215
0.174 0.003392389939259462 0.0005811632823347178 -2.659242666560182 3.7442961665713725 -0.0035907332841150965 0.0005742384148494957 -0.0008219714878077761 -0.000527126715930986
0.175 0.003005457090061881 0.00034167618805887437 -2.2964694149457694 3.966976526581272 -0.0035354573485123254 0.0008258780259977802 -0.0006521045520724398 -0.00026667922255858216
0.176 0.0027165411958659036 -7.162241110259119e-07 -1.904622993311755 4.165007872475676 -0.0035961684533256026 0.001117177637188136 -0.0005910625582455488 -0.00027434251331823895
0.177 0.0022956647693026765 -9.524774324725548e-05 -1.4730894707359903 4.309635915592151 -0.003527696418724315 0.0012584330789855056 -0.0005542255053416346 -0.00024802588798794297
0.178 0.0016549227127220442 0.00015594962052936556 -1.0970740724370691 4.436183254765338 -0.003486005729523425 0.00161514668071814 -0.0004520865521366118 -8.519282157810479e-05
0.179 0.0015816614493772124 9.020878643920787e-05 -0.6740663315139193 4.520824522428954 -0.0031406484904876585 0.0019016931670979987 -0.0003320543869067476 -0.00016572584075301615
0.18 0.0012065016604837268 0.0002863407369652983 -0.2252400949796014 4.546914803874526 -0.003189350821521772 0.0021734616737564263 -0.00019695060103243353 -0.00016176805288362417
0.181 0.0009133738895721 0.0005972327631644449 0.1828547538594007 4.582290572726403 -0.0029970725048016223 0.002418872484443268 -0.00025397103304576456 -0.0002007204721621527
0.182 0.0006672077561087923 0.0007933880232694514 0.6152035642721428 4.541282577286299 -0.002944670144439347 0.0026564865525603725 -0.00014966178713856135 -0.00016749788212933958
0.183 0.0003598492014778261 0.0011388587614916523 1.036784897971745 4.432859619863622 -0.0027009311796027946 0.002868038402366932 -6.38647561840624e-05 -0.0002634821840368107
0.184 0.000396029690266763 0.0015270376020405775 1.486089827645738 4.324536427328656 -0.002464451437923819 0.0031699161971571787 -2.433884761812061e-05 -0.00039136798084480386
0.185 0.0003181846260492203 0.002125058616250207 1.8605622520663976 4.176592037982912 -0.002275907701462367 0.0033445784118687 3.1777585434127506e-06 -0.0004660974896114755
0.186 0.00029933080110417556 0.0023736117151894054 2.2523577501910164 3.96272759969735 -0.002045731739261291 0.003403618030503833 -1.3760193638507189e-06 -0.0005606396001266622
0.187 0.0006569067064796392 0.002996939550271797 2.618547281400445 3.735064417909302 -0.0017811388226165203 0.00366518483602609 -2.961669391791515e-06 -0.0007240115625529604
0.188 0.0008758129792554248 0.0033647428050837883 2.9403820272028813 3.48703632877588 -0.0016511677962448923 0.003862058241995068 -2.6440046898888284e-05 -0.0008712274133689903
0.189 0.0010575782490692008 0.0037547884854834137 3.2649148938711083 3.165606418882675 -0.0013464464606351332 0.0040954283813992454 -2.6921024076120297e-05 -0.0008434530424196014
0.19 0.0015895033906919965 0.004109780988860185 3.520532089208949 2.8848103081684795 -0.0009499802047655636 0.004116096615632575 -0.00012129743583310808 -0.0011655325783735502
0.191 0.0021673482481034245 0.0044177027133433435 3.8145651136157475 2.5150930086690817 -0.0006920975568236258 0.004348622345300002 -0.00014890617065374453 -0.0010481133384983932
0.192 0.002520261542340613 0.004698498672271249 4.006981537132162 2.149509581304585 -0.00041976808227075623 0.0043346761193847625 -0.0002674675406847298 -0.0012107644574060837
0.193 0.0031085424813054804 0.004726894154804796 4.184182095554793 1.746193498572081 -4.2909011387752956e-05 0.0044954159476760965 -0.0005044797478398518 -0.0012884181517017878
0.194 0.0038354177287843348 0.0047304087224055436 4.341567517511336 1.3566162883450879 0.0003525785535057893 0.0044760337951143744 -0.0006341424764102874 -0.0013190773349714847
0.195 0.004521047551535877 0.004630236350100925 4.454442089071381 0.923040710363289 0.0006354594339615304 0.0044230257023176655 -0.0008600357757429204 -0.00144402138435671
0.196 0.00514726068736694 0.004315477738532189 4.50110450740033 0.5260323784779138 0.000807011321310656 0.004435195989625258 -0.0009604360050731228 -0.0013196550004931317
0.197 0.005660262765974283 0.003978618183505866 4.54001247915128 0.09544420173475979 0.0011938896979227166 0.004337160989480344 -0.0012387931517923295 -0.001391383768364612
0.198 0.006349916435631433 0.003699536752198549 4.523924234438874 -0.33589489710370635 0.0015849333013752593 0.004350876303366914 -0.0013685362115215772 -0.00120182563863743
0.199 0.006883920697812613 0.0031668468207961147 4.467968706644734 -0.7633868555293394 0.0019158959227835689 0.0043727923322861035 -0.0015596763275450849 -0.0010766392990826724
0.2 0.007387801893165575 0.002568498111850103 4.3713953563596695 -1.1799006490423762 0.0022530495163418695 0.004115745427733338 -0.0017973713260210221 -0.0009844780575524268
0.201 0.007719377135317124 0.001827117495141824 4.237869265482517 -1.5789607404530543 0.0025466969739546875 0.004034441727119835 -0.001996768376337085 -0.0008434038161894443
0.202 0.007980082773713306 0.0012879134902636397 4.072132095993107 -1.9734971238474623 0.0029080433502153757 0.0037515612874228226 -0.0019808000416910118 -0.0005935031331703208
0.203 0.008032578493879948 0.0005501371543770915 3.8642793424494046 -2.3480574806710046 0.0031138443616803724 0.003587004339291172 -0.0020249753477497292 -0.0005025374754284102
0.204 0.008283382332056234 -0.0003609883836299417 3.6235356831836083 -2.7056300394979145 0.003438511415463497 0.0034462562263442033 -0.00202032568275602 -0.00026233846771206134
0.205 0.008118539536520045 -0.0011405277275673897 3.3319034035317276 -3.0202750048799425 0.0037577883133120254 0.003358559938568479 -0.002105975745859367 4.365425110362551e-05
0.206 0.007753853373038222 -0.0018490999696327002 3.0530532481450066 -3.3297714605464654 0.004042198237038305 0.0028888889507947954 -0.0022831613197343563 0.0003043852769308966
0.207 0.007572023810294532 -0.00252753783097228 2.713729476587167 -3.593333841778522 0.004266095218562293 0.0026398392690536307 -0.0022758171196010962 0.0004788769201688461
0.208 0.007277714886731316 -0.003229848714690437 2.369420161157238 -3.8219489426157405 0.00447888682001253 0.0024051172130369097 -0.0020987297903257295 0.0008046420279396721
0.209 0.006796772288443599 -0.003990508417122473 1.9931363859173634 -4.041333473082895 0.004696679833090243 0.0020434120491013823 -0.0019807782470995274 0.0008702740852286989
0.21 0.00614345583017631 -0.004587536055982548 1.6013223094312867 -4.201526066560545 0.00498616388236855 0.0017491642975032105 -0.0017584757743473764 0.0011732426095476221
0.211 0.005540195542749113 -0.004971001340582564 1.2108871084461714 -4.367474101174435 0.004978580663203764 0.0013465654954610436 -0.001723790853351503 0.001299338131576708
0.212 0.004710967506350931 -0.005229907934876728 0.7814729336010082 -4.403856717096175 0.00517646541189321 0.0009146610497749534 -0.0013989178925523371 0.0013145331023171765
0.213 0.004089126217432285 -0.005489653930084235 0.3858739276079438 -4.488080979232013 0.005171031980454182 0.0006353925875994532 -0.0012100641471856275 0.0015081298980362636
0.214 0.0032784671059208487 -0.005601040210088611 -0.054185239470619095 -4.515544048625003 0.005529785369789034 0.00028321211972851435 -0.0009755951643046398 0.0016126851084761885
0.215 0.0024440485045968074 -0.0056419520373000905 -0.4891582555385723 -4.477755497366216 0.005472204694878684 -0.0001835649300311213 -0.0009002811152696334 0.0016452491238992237
0.216 0.0017411706373153773 -0.005549982099051399 -0.8794230082469794 -4.382110027374421 0.00543679547808447 -0.000515882575924622 -0.0004705761713491172 0.0015459682132481715
0.217 0.0009829008519148688 -0.005329616053180662 -1.2918882429885825 -4.298845969827974 0.005451310917838489 -0.0008395125780531306 -0.0003439989500536344 0.001485863009569593
0.218 0.00028304049295385474 -0.004838778668315823 -1.6899258314994472 -4.183534368259451 0.005405079986042537 -0.0013608064903071573 -0.00018340449907984906 0.0016234962632841105
0.219 -0.0003233239870904398 -0.004646509813865199 -2.1054875260261725 -3.9729053228611253 0.005187508141033912 -0.0019141746041690826 -6.219279001310073e-05 0.0013728963365776778
0.22 -0.0008728002600992019 -0.004018552918926443 -2.452361708396913 -3.761691022728778 0.005282057454423126 -0.002283976253938684 0.00016282309967671465 0.0014325532598057755
0.221 -0.0012714429743820616 -0.0034091286579993785 -2.788693453728517 -3.5127449959952863 0.005084303395576169 -0.002503962122550686 0.00041138802461944174 0.0012000708070717928
0.222 -0.0015444477600696747 -0.002697951924971471 -3.1229435426100323 -3.232138309409483 0.004946733714181099 -0.0029910335757148718 0.0005184507900648191 0.0009235438374079688
0.223 -0.0018250898275584196 -0.00208398048521601 -3.4261537123645027 -2.935110541408321 0.004813325291635991 -0.003251405670077684 0.0004726044065507948 0.0008253834330947417
0.224 -0.0019345328785095603 -0.0014043117026976022 -3.670718883602083 -2.6047289482288543 0.00461173207267101 -0.0038069021934350102 0.0005498999804458135 0.000663433792841175
0.225 -0.0018680910849104265 -0.0006506523903980923 -3.887575879876516 -2.2205263961713153 0.00415758469947206 -0.00406286530392368 0.0005507651229314427 0.0004781798164803975
0.226 -0.0018756242978924859 -7.416747768540893e-06 -4.0781883220568655 -1.8531676307642928 0.0040276274733445335 -0.004390874490325919 0.0005636346612217691 0.00032641449023882146
0.227 -0.0015409009517664614 0.0006047936979183562 -4.247352012875164 -1.4605374344877777 0.0037610893644579703 -0.004753896672613957 0.0005213211954129446 0.00020159611243076575
0.228 -0.001240527796214346 0.0010867172811326264 -4.351307863717748 -1.0452841279395402 0.003372098929593265 -0.005031836328986338 0.0003452340607046528 -4.666968701498538e-05
0.229 -0.0009255547106186452 0.0015863292203800378 -4.445593408970744 -0.6315884613793381 0.0030452957641565553 -0.005282921563126069 0.00037852335760820295 -9.382501855912226e-05
0.23 -0.0003824650281078293 0.0020874145682969214 -4.487472522289117 -0.21616206219049167 0.0026623958290520238 -0.005552573612007779 0.00016156529937211305 -0.00032841186518497333
0.231 7.923241205750795e-05 0.0024002829877071245 -4.469142758080417 0.21100371901002565 0.0022753061517469153 -0.005629370254176168 -0.00010937190748774419 -0.0003457323740876642
0.232 0.0006889027998892608 0.002632667697994909 -4.431246432139647 0.6301666016999712 0.0017719523040891703 -0.005983508705361873 -0.00014312569080017246 -0.0003125910994399211
0.233 0.0012237436574610312 0.0028933742408903673 -4.355813003900169 1.02315068569485 0.001327547667933203 -0.006150707225713631 -0.00023847483580068636 -0.0003175014299881138
0.234 0.0019364804307668987 0.002914033894305786 -4.2334352547758325 1.449944802370939 0.0010361856740064722 -0.006194595805141518 -0.00038827948923571406 -0.000488407550835633
0.235 0.002510327250792721 0.0028346816906793305 -4.078271890184242 1.8304423342503553 0.0005067165864744197 -0.006328116550431814 -0.0005727689374636108 -0.00042904648636263684
0.236 0.0029161043891737944 0.002741698497224562 -3.883052414627089 2.201820658659078 7.768102635997032e-05 -0.006400829075758477 -0.0006544687313256925 -0.00035016510591639885
0.237 0.00354211412794358 0.0025327646608594196 -3.651075499131117 2.552061593238909 -0.0004327033924178075 -0.006433734487593012 -0.0007626043649292539 -0.0002350858869580328
0.238 0.003994336361294716 0.0022346111767878453 -3.401761343288831 2.8933666941546425 -0.0009069982336069131 -0.0064472489241802 -0.001007015524955791 -7.759612136491473e-05
0.239 0.0043275401519566985 0.001814514734992584 -3.107476376228196 3.1855657096629875 -0.0013659345977120717 -0.006421911165344406 -0.000999891789016151 -8.453225137697707e-06
0.24 0.00469653996388152 0.0014360514278474192 -2.7881069119025885 3.4613222789371467 -0.0018529552865093838 -0.006296435918682984 -0.001065486105290577 7.903321103031158e-05
0.241 0.005003842132518949 0.0009338485993504944 -2.4563636792569823 3.720522537597371 -0.002416471595228405 -0.006187705713868447 -0.001014943041480307 0.00030184448872279564
