!Created with skrf (http://scikit-rf.org).
# GHz S RI R 50.0 
!freq ReS11 ImS11 ReS21 ImS21 ReS12 ImS12 ReS22 ImS22
0.13 3.637973185264674e-05 -2.9353105033250152e-05 -1.0445889221619563e-05 -6.557653232799002e-05 -5.264081636800149e-05 2.7594941608071544e-05 -2.3329463434774483e-05 -3.1490846222682117e-06
0.131 3.24603220024656e-05 -3.609782976117045e-05 -3.456084515574929e-05 -1.524652660131743e-05 2.2632632399325496e-05 2.4131619609524363e-05 2.200924368471826e-05 -0.00010375402655944111
0.132 3.640556605119454e-05 3.354724555483161e-05 -1.1843661616463108e-05 1.5608905812846365e-06 4.3403745406978e-06 -2.005649036753563e-05 -2.00152346538413e-05 -8.086679716396536e-06
0.133 -2.829410885053687e-05 2.7256280351267027e-05 -1.2773811725956279e-05 -2.467364025465744e-05 -3.175369264227468e-05 -3.0664184543318625e-05 -1.1367801667594737e-05 8.665971601987743e-07
0.134 -5.949194037334176e-06 -2.1259109191026407e-06 -9.744543753611753e-06 -8.482473345990426e-06 2.8747662734768795e-05 -2.2747166402736423e-05 2.696641547639242e-05 -2.0970940549892182e-05
0.135 1.5453171364108873e-05 3.6569520548793907e-06 -1.638037732480669e-05 -7.082589075421562e-06 6.0021764323097414e-05 2.184613562174855e-05 2.6611419215275513e-05 1.2328030175933215e-05
0.136 -2.9006708432137714e-05 -3.692928836973194e-05 4.74446518420405e-05 -4.7164070292667965e-05 5.29864548382839e-05 -2.7075160115983645e-06 1.0727302908165878e-05 -3.574887861662614e-05
0.137 1.917250231177975e-05 -3.2583999173238996e-05 2.1165447208134715e-05 -4.318989128222307e-05 4.1349805536149035e-05 -8.140723074498909e-05 -1.5824912697545467e-05 3.222255583999767e-05
0.138 -7.673247190631178e-06 -2.365334295484588e-07 -2.1799510130934663e-08 -3.996863366730355e-05 7.64796664253546e-06 1.3875550890871075e-06 2.634407879293471e-06 -4.5355334111486e-05
0.139 9.49707769776668e-05 -5.80464314833545e-07 1.8885183299082465e-05 1.469881935355608e-05 3.185575427177237e-05 -6.088515385332423e-06 2.1062297696564797e-05 -1.5788437094985083e-05
0.14 3.8690822064818647e-05 -2.1787606058573034e-05 4.6453944623485326e-05 2.3158116706648995e-05 5.967673581731138e-06 6.169597773609977e-06 1.1232826071150505e-05 -2.7537005730648246e-05
0.141 1.3866124671907223e-05 -2.259459745414927e-05 -1.673606631793227e-05 -2.9120529738263233e-05 3.5373045759260315e-05 -4.3457469292542903e-05 -1.3883062488033075e-05 -4.7922368073201366e-05
0.142 1.8268380647316034e-05 -2.4758832704781643e-05 -5.310578602233062e-05 -9.994005570133036e-07 1.7663663541450074e-05 -3.00290689116108e-05 8.737922419500577e-06 -3.6537872681620446e-06
0.143 1.1803922889222016e-05 -2.361852512676418e-05 3.872530378181465e-06 3.459678000744268e-05 -1.4519941840765956e-05 -9.719107038201236e-06 -3.3317219498834152e-06 -2.4099728872349036e-05
0.144 5.824015425913924e-05 -3.162567969575984e-05 -1.0833966834277575e-05 1.1611042293920286e-06 -1.2565400206329886e-05 -6.831332029857453e-06 2.919070537276476e-06 -1.7584946141355957e-06
0.145 3.256156991456445e-05 -1.7997696130240804e-05 1.876071166677572e-05 -1.9141876591950498e-05 2.1755822736828847e-06 -5.135549389807075e-05 2.3009141599488566e-05 -2.8161782739796844e-05
0.146 -8.923132713438862e-06 -1.794296402664589e-05 2.2058078753016516e-05 -4.113505490101334e-06 1.6558354721300787e-06 -1.655734962962893e-05 1.5095090626365897e-05 -3.575820577011742e-05
0.147 1.2640027797510822e-05 -2.568218223998713e-05 1.5059892544875669e-05 2.2620424374584312e-05 -1.2953397996993089e-06 2.614545443075834e-06 -4.2931933571792097e-05 -1.7175622717722603e-05
0.148 2.762919130415263e-06 -1.543534730219955e-05 1.5137845448274922e-05 -2.7565902677010546e-05 -2.263458624400251e-05 8.182437217205847e-06 4.56155242305613e-05 -2.5574525709303336e-05
0.149 4.329904142253162e-05 2.075232141281456e-05 -4.61674862409258e-06 -3.3597461594491224e-05 -6.093220084088901e-05 -2.5248678349221243e-05 -4.6529033156443695e-06 -6.912435521103064e-06
0.15 3.336742210075926e-05 -3.333786165196971e-05 3.341921263242705e-06 3.749168232881682e-05 9.01523745444457e-06 -2.604938505676417e-05 8.284323496612945e-06 -2.962120686183737e-05
0.151 2.028046606454489e-05 4.3252699242829476e-05 -2.1274407303503973e-05 -7.62192277258173e-06 -1.9103881810250426e-05 -1.5901755432668805e-05 -4.0302998362481466e-05 5.512986220386153e-06
0.152 -3.121916095793763e-05 2.0712521258826133e-05 -9.128743379977176e-06 -3.8556241980468976e-05 1.584571517241792e-06 -1.4653218126698732e-05 3.760508510407911e-05 -1.6285654982095434e-05
0.153 1.5063289062699766e-05 -8.66840436279296e-06 -1.3544229086256505e-05 -6.60367593231818e-06 1.786848750842e-05 -2.266289019819231e-05 4.5085415902444604e-05 -5.8636345445744776e-05
0.154 4.100214244576914e-05 -3.249607710424311e-05 -1.4760880457107454e-05 -2.663789858349572e-05 1.98634724373079e-05 -2.760202441609102e-05 5.856401123527927e-06 1.4811220021537874e-06
0.155 -1.2731137326607436e-05 -9.851947591617975e-06 4.146774729012142e-05 -6.593636610314655e-05 -2.98095594240636e-05 -1.3237992780576615e-05 -5.874667977959842e-06 -8.509543053125714e-05
0.156 1.971941559072805e-05 1.157392066129969e-06 -3.0657246140618285e-05 -1.0021257971670216e-05 -3.336290886597844e-06 -3.691618683671371e-05 -5.014271589675148e-05 -3.708250066277039e-05
0.157 1.3086186226355296e-05 2.868909450825892e-05 3.663190130919777e-05 -9.609331875703757e-06 5.977217513533809e-06 -3.0103128218943973e-05 -7.415868482236162e-06 -5.018228399894278e-05
0.158 -1.7550774346597053e-05 -3.810473136231323e-05 -5.958466305301978e-06 -5.333098074764805e-05 -3.767588185983514e-05 -0.0001233826695917419 2.247450453021127e-06 -5.4098568352525385e-05
0.159 5.4943416021187e-05 -2.1162821685302317e-05 3.0500571029467586e-05 4.920402734842809e-07 -1.2212248300591586e-05 -5.297944778534006e-05 3.7396581555448115e-06 -3.304285743276577e-05
0.16 1.2109980649008995e-06 1.6310993993491338e-05 1.4832230988333425e-05 8.07650013238332e-06 3.1919809116272785e-05 -3.8641244375622655e-05 1.3527568459688563e-05 -2.726931311334196e-05
0.161 1.834802973433065e-05 1.6753039648435782e-06 2.140642744014323e-05 -2.4804028981289355e-05 4.209194100955134e-05 -2.806686005518539e-05 1.9593435025263415e-05 1.189126070719949e-06
0.162 2.327609212169417e-05 1.0329451141667044e-05 9.94321359817056e-06 2.2439788933895196e-05 4.091113613687651e-06 1.523500138737734e-05 -4.281898021852797e-05 -2.4838458625744063e-05
0.163 1.2982374244894095e-05 1.6951240918532798e-05 4.403017167353654e-05 9.144979897359646e-06 -6.324675904045481e-05 -5.355713993215601e-05 -1.790254415598596e-05 1.5072004676338388e-05
0.164 6.184504982773386e-05 2.311929646520574e-06 2.2603715270748186e-06 2.3407943977866813e-05 -2.9591470861613705e-05 -4.318819179373176e-05 -1.0382885784808795e-05 1.6760675368133782e-05
0.165 3.53585138037917e-05 -4.037415125584234e-05 4.3426197159965566e-05 1.8224042461152955e-05 -7.95508268496365e-06 -1.4298426481288655e-05 2.256260980205655e-05 -1.3902141798106951e-05
0.166 5.410846374428833e-06 4.690962316671246e-06 2.131258189055607e-05 -4.023853061856187e-05 3.577846154579778e-05 1.7183874534990267e-05 9.856129690268438e-06 -3.0884789738767835e-05
0.167 5.826877955564569e-05 -5.287328110371391e-05 2.4674106079317952e-05 -3.258390267002652e-05 2.2929791602975602e-06 -1.617930982968645e-05 1.963178869022234e-05 1.5876466975265157e-05
0.168 2.3891393312758432e-05 1.5482891051401795e-06 1.79444750030776e-07 -1.87997524278863e-05 2.2306165963699373e-05 -3.747584815139136e-05 1.646589556625663e-05 -1.8648424139789305e-05
0.169 5.390479258287886e-05 -2.628430041553891e-05 -2.2535160577958757e-05 5.7507568598034985e-05 -3.815383229708584e-05 1.2512067027425697e-05 1.3333347853144593e-05 1.594517960826274e-05
0.17 1.2030379413591607e-05 1.4581860082616167e-05 1.604991403621397e-05 -9.44122974158603e-06 5.998103592651297e-06 1.762246406587458e-05 1.4758459341525914e-05 7.08022614242814e-06
0.171 1.5493620522964638e-05 -3.222822067397496e-05 -6.771750438617622e-05 2.9928765361134413e-05 -1.529098744252972e-05 2.5268634036056417e-05 2.9349079235620662e-05 1.7010793938418913e-05
0.172 1.7406802042427507e-05 9.750616078697082e-06 9.173654217794977e-06 -9.204979215455515e-06 5.48702250407638e-05 -2.356967784016093e-05 2.6236958206994085e-05 3.167368341017839e-05
0.173 -3.174619219971914e-05 -3.817064723388477e-05 -1.1806981687840952e-05 -9.33139071323256e-06 9.930918236559541e-07 -1.3425588381195593e-05 -1.3100570200649675e-05 -3.441538119773019e-05
0.174 -9.583321477164131e-06 -6.268117502372239e-07 1.8759194570623367e-05 -5.275704655755481e-05 1.5277559747916694e-05 1.424266080712711e-05 9.15052699816178e-06 -4.816137701111587e-05
0.175 -1.909536539926731e-07 2.500714472659921e-05 5.3566789917397025e-06 -2.9831848077393352e-05 -2.0953213983023518e-05 1.9305466996907415e-05 -4.6364539163465615e-06 -6.556636128206164e-06
0.176 -3.6726199424800673e-06 -1.17232656326022e-05 2.3845418367868848e-05 5.516280069651393e-06 -6.852909082974468e-06 -2.482247371701147e-05 -1.2863447702301884e-05 -3.622319417648885e-05
0.177 -1.852140934374526e-06 -6.67860445116206e-06 1.669452894941017e-05 1.0330494478240419e-05 3.559722438459277e-05 -4.9242044591628174e-05 -5.728935787600898e-06 8.132108211205709e-06
0.178 -1.8842586464894124e-05 -9.828431030243893e-06 7.26883988963389e-06 -5.8638019902009345e-05 8.409976186878825e-05 -5.3331930197459235e-05 -1.3081900811777304e-05 -2.774250086631061e-05
0.179 4.4102094721313765e-05 -1.8175285356914006e-05 -3.4951082373267066e-05 -2.0033131904923693e-05 -7.524625438692573e-06 -5.5716267146240215e-05 4.067584016666591e-05 2.331995402251652e-05
0.18 -5.535137443609397e-06 -3.813855757405547e-05 4.7934121371094916e-05 -4.0249760809116235e-06 3.219779076331962e-05 -3.56222820207923e-05 -3.2046426824262536e-05 -2.8641806385142558e-05
0.181 -8.96815919255085e-06 -1.3204377033604696e-05 6.240211847381392e-06 3.6751098427568085e-05 3.191153000767036e-05 2.2208788509265106e-05 -1.1144601901715942e-05 -1.4947801844509338e-05
0.182 -3.933892994893516e-05 2.2143738712945938e-05 6.238340818442013e-06 1.400383382151886e-05 1.4261542785556359e-05 -3.467085126418161e-05 2.637492747608613e-05 -6.76277889098767e-06
0.183 -1.2471203425966191e-05 3.211501022538458e-05 1.596080223845449e-05 -8.981769284629214e-06 -2.1001272722703732e-05 -3.693139571671333e-05 2.515479654929812e-06 -2.8617232444615514e-05
0.184 4.35063249896941e-06 2.285591255151885e-05 1.0628814167641953e-05 1.0546524594216573e-05 4.2794340495578615e-05 -5.7357498004342754e-05 -3.548829069609282e-05 2.14554527005099e-05
0.185 4.024106141513434e-05 -6.293831894933077e-05 -1.3227669043845494e-05 -2.915477639864767e-06 3.16930664909637e-05 2.222877584299938e-05 -5.888798507346166e-06 -1.1918760465232171e-05
0.186 -3.896165721917748e-05 4.5985210364834995e-05 -3.18028681715616e-05 -2.149805045673596e-06 4.1983081441637676e-05 -1.7624322429996852e-05 1.58723578846385e-05 -4.718679225529888e-06
0.187 -9.192471047547232e-06 4.098821638859945e-05 -2.801346007806974e-05 -1.6443742576830393e-06 1.4363606036615334e-05 -3.172992235110276e-05 4.077729761036251e-05 -4.071484185994876e-06
0.188 1.3108713117190718e-05 1.4805514412995793e-05 -6.675188154026697e-06 -1.6137107889966717e-05 1.706997772922236e-05 1.2429646438261142e-05 1.7831392989514926e-05 -4.069037243587441e-05
0.189 5.286805473466447e-06 -2.3535707882940674e-05 1.6579789059490027e-05 2.9036178000809118e-05 1.1330513655745218e-06 -1.9507200709136314e-05 -9.175421694989116e-06 9.39084369473996e-07
0.19 -2.3406820998113636e-05 -8.740540141377598e-06 3.953894152266482e-05 4.0837776010472056e-05 -2.1570436982945304e-05 5.329453143309858e-05 -1.6310698278572596e-05 -9.48233753161625e-06
0.191 5.760190654491132e-05 -2.7255687790493415e-05 -2.188875679955513e-05 -8.133495788624442e-05 -7.836246569692917e-06 -2.6244334810291472e-05 4.030712795107637e-05 -1.652136750266894e-05
0.192 3.257793412669203e-05 1.737405349378553e-06 4.257399811072227e-05 3.098728861640183e-05 -2.0090333380543585e-05 3.4956909201111685e-05 3.53460893902875e-05 3.771375022109198e-06
0.193 5.891207231837297e-06 -4.173230217491444e-05 1.556602799722637e-05 -1.5713172942103577e-05 1.880316187716323e-06 -1.3465731061046502e-05 1.5227654337027443e-05 -2.4525330825941064e-05
0.194 2.5616137892143836e-05 -1.0408552528763662e-05 -8.32972937177118e-06 -8.169988579057806e-06 -1.7590820292403884e-05 1.3434066353748715e-06 -4.233280280550756e-06 -2.2305628048460166e-05
0.195 -9.99628128602138e-07 -1.0960881729747534e-05 2.1858594148446534e-05 -2.3883874969465985e-05 1.3505710934978453e-05 -2.1142419118305388e-05 -2.8169550184071412e-05 -4.5341671558009504e-05
0.196 -3.354396945235544e-05 1.1301681281570145e-06 -4.459560472018326e-05 7.462744847439156e-06 6.499752896914289e-05 -4.68981513999175e-06 1.6563785504286555e-05 -2.2055879797563278e-05
0.197 1.6226488058330133e-05 1.5606790568654675e-05 2.119530896829811e-05 4.050655817427901e-05 2.7838591340526944e-05 -3.575722750959864e-05 -1.8159278559568258e-05 3.941171983665826e-05
0.198 9.446394037709177e-06 3.0665807954562234e-05 3.0599817714600604e-06 -3.337645949392732e-05 2.5463786581405214e-05 1.4974773684132349e-05 -3.0489701930136163e-05 -1.7542315301082927e-05
0.199 3.358555758775538e-05 -6.5518398630266154e-06 -4.046325930459447e-05 1.331220251796377e-05 4.717642494482856e-06 -1.6181391619890023e-05 1.33335857007e-05 -5.99311843697876e-05
0.2 4.693514500519118e-05 1.50121181168585e-06 -1.581239928634044e-05 -1.626734624355893e-05 4.006412008344007e-05 5.541017336621595e-06 2.411076695752175e-05 -4.1043859685808496e-05
0.201 -1.5662336078508315e-05 2.6649048341582567e-06 4.887977685748248e-06 5.537012614783973e-06 2.4501433531100143e-05 -4.527313124987948e-05 -1.2345794312076894e-05 -4.282340894525251e-05
0.202 -1.9872087985982905e-05 -2.6348719330424753e-05 4.3553044207488854e-05 1.3977457234441168e-05 7.343522123841282e-05 -1.7650094842868428e-05 1.3568851674119764e-05 -2.0124047754162785e-05
0.203 -2.9858268686930723e-06 -1.5934196230863315e-05 5.266369209629511e-06 -6.4037240440449204e-06 -2.9196608117954972e-05 -9.258204431441786e-06 -9.839850272379853e-06 2.6621765884920417e-05
0.204 6.019220744498834e-06 -1.67789852969037e-06 3.429838026167942e-05 2.287687900018218e-05 4.150406335842886e-05 -6.935789401711088e-05 4.634980714898698e-06 -2.2741973844739642e-05
0.205 2.19357320325337e-05 2.798785607906033e-05 4.425833783242343e-05 -9.327797626912356e-06 -2.9361673985212607e-05 6.3247544144143e-06 2.5690949016258996e-05 -5.5025841532420275e-05
0.206 4.137924689502586e-05 4.8535914605490995e-05 2.516616493580202e-05 -7.014545440303258e-06 1.0885198675366852e-05 2.3059546107628083e-05 4.5009275182044105e-05 -3.851325336795187e-05
0.207 1.893617755097037e-05 -2.227730612680359e-05 1.5091502876697408e-05 -9.9120862564569e-06 -2.1137418511374012e-05 2.2617591412664593e-05 4.2873000718683496e-05 -2.0833725631241e-05
0.208 2.4630849176043613e-05 2.4902681829417546e-06 3.986131574599163e-06 -1.534845815483798e-05 -2.3416872714208118e-05 4.000747619356325e-06 4.870331543412457e-05 -4.2474332170044624e-05
0.209 1.226209141262762e-05 3.678081509435536e-05 5.614324395287985e-05 1.4978941247935065e-05 3.959288312391936e-05 -2.942898738053772e-05 1.3022675454738237e-05 2.329792243822993e-06
0.21 -1.333219751375647e-05 -4.4134443432384e-05 4.2174155874146015e-05 -2.2150363587115225e-05 2.0471991984567227e-05 -1.98899557920473e-05 -2.7511215886940298e-06 -1.6921605326457375e-05
0.211 6.007329195805706e-05 2.980542280907949e-07 1.0109586234378767e-05 3.05811530774783e-05 3.8872935139293864e-05 -2.3010500039581964e-05 -2.0516336502586265e-05 2.3005549222860524e-05
0.212 2.8820357648158646e-05 -2.1250020002643965e-05 -2.278355162612375e-06 -2.5110238293114063e-06 2.4538264886616274e-05 -2.776405636573107e-05 1.4501238436531707e-05 -6.273370709746807e-05
0.213 2.4324580862170733e-05 1.9948150440386877e-06 1.5807407928139008e-05 1.2767608760930657e-05 1.809264099965575e-05 -4.075632795984273e-05 1.2883392891138408e-05 -6.147666688776683e-05
0.214 5.0361482551834145e-05 5.229643032145617e-06 -3.9375788436408234e-06 3.535232450627029e-05 -1.918343575722671e-05 -9.96632561775082e-06 -3.555436101625769e-05 2.1113257648369524e-05
0.215 6.063643238902244e-05 -1.760328820582182e-05 -2.2322453953354308e-05 1.2175335665885733e-05 2.6068825071785265e-05 -1.9741972662931246e-05 8.817622601390508e-06 -2.252885174027592e-05
0.216 1.1487387021797499e-05 2.9719572305920317e-05 4.82612854928069e-06 1.5363357848971375e-06 -4.768962234425159e-05 1.9298121359256256e-05 2.3272534838521907e-05 -1.5505497241352678e-05
0.217 2.5207876294216814e-05 -1.9138695732043234e-05 2.4920043892979273e-05 -1.539867909632924e-05 2.5398894964023683e-05 -5.904165122981848e-06 -5.153727987188507e-05 5.128491572895186e-05
0.218 9.219660473424564e-06 -1.24925935745513e-06 -3.519978673471119e-05 8.111346181668148e-06 -2.4154912622384395e-05 -5.0139215954035986e-06 -4.748588144167437e-05 1.5982206350621046e-05
0.219 4.253820196709744e-05 -9.283030856821905e-06 2.7822684610258446e-05 -2.494025189434239e-05 9.112108521328397e-06 -1.7420019859625313e-05 -2.199212857294413e-05 1.2014627587239832e-05
0.22 3.4342233096570214e-05 2.0618169106694205e-05 -2.2953120730119954e-05 -3.961239280361809e-05 6.429082713788676e-06 -1.6353865271129338e-05 -7.764053096235767e-06 3.442118136040613e-05
0.221 9.599502884541869e-06 -2.07521859231341e-05 1.3866446639563918e-06 -1.3584931650514376e-05 -4.5237294645912745e-05 -4.713955013120128e-05 4.210033490813339e-05 -6.713282971286615e-06
0.222 7.843854005226919e-06 3.3184794015387902e-06 4.912154449249709e-05 3.621087382945212e-05 5.311251220225523e-05 2.758077516422504e-05 4.5663344920546246e-05 -2.484459236578275e-05
0.223 4.8377225904071384e-05 3.0826292006941587e-06 -9.9649325016949e-06 1.4492715677693186e-05 5.579147425157626e-06 -1.2147820735055168e-05 3.6758762883505173e-06 -4.0642801615450656e-05
0.224 2.812571587296817e-05 2.429989523703905e-05 5.5413842771059e-06 -3.9644703541441686e-05 3.2606229314704655e-05 -3.594094449056132e-05 -1.222215932679659e-05 1.8043043386394917e-05
0.225 1.563252953049379e-05 -1.563252953049379e-05 8.926812976695233e-06 -4.7424568324662734e-05 5.549115436300919e-05 -4.547081238351869e-05 2.7988080329037944e-05 -1.1049051610523322e-05
0.226 4.173396158022974e-05 -1.4811600481245542e-05 2.733210261392014e-05 -2.6136242480442272e-05 3.4582646686764545e-05 1.1681408881825293e-05 2.1735674031260884e-05 2.1024289176890364e-05
0.227 -8.614539673082507e-06 -3.957123472823819e-06 2.2945925660569677e-05 -1.8277569235991746e-05 2.1833377080450305e-05 -3.1559895574323225e-05 -3.26700223166165e-05 -1.6967323822695765e-05
0.228 -1.8424464988183927e-06 -6.460268438084752e-06 -3.622679177893956e-06 -3.485605432575021e-05 2.167157720772798e-05 -5.768734320738211e-05 -1.605118379023091e-05 2.454046332898417e-05
0.229 5.975980108645551e-05 1.1231295550941754e-05 1.3682655074865424e-05 -7.247298680884217e-05 4.574216909612308e-05 6.768079663833798e-06 4.073186982430694e-05 -1.1055944286755914e-05
0.23 2.5678259916487673e-05 -3.654494136655743e-05 1.7628684716718208e-05 -4.903687334229414e-05 1.4612092433037553e-05 -4.0628359838359804e-05 -1.905695182113763e-05 -4.141195950599714e-05
0.231 3.212132513684962e-06 -4.7663146143538895e-05 1.2942721537076902e-05 -3.4494949312187926e-05 -1.0001693484077812e-05 -3.6743335051790687e-06 -7.666606137854805e-06 -2.7836403087662392e-05
0.232 2.274739274690276e-05 1.8858542951010772e-05 2.936795407942694e-06 -3.0069964341567855e-05 4.024052260131336e-05 -5.41268383616593e-05 5.2311751485604994e-05 -4.4993963704675564e-05
0.233 9.038155388861784e-06 -4.2097610841519985e-05 6.67988818469339e-06 -2.4236760105861394e-06 -3.543437739881628e-05 1.038586742582121e-05 5.274134483937458e-05 -2.6667300858046965e-05
0.234 3.547201322424796e-05 -1.4373838199468727e-05 3.242133571645848e-05 -2.802953539597466e-06 8.671956225424904e-06 9.121506712849642e-06 3.750320928264615e-05 -2.723986420552164e-05
