!Created with skrf (http://scikit-rf.org).
# GHz S RI R 50.0 
!freq ReS11 ImS11 ReS21 ImS21 ReS12 ImS12 ReS22 ImS22
0.13 -0.0003734395204151037 -0.0010131028456144696 6.674523435491042e-06 -5.982221541477569e-06 2.7605454895875756e-05 -2.1744081566190502e-05 -0.00019219649760714906 0.00019510107534800633
0.131 -0.00039519594805909004 -0.0010020610987820058 1.1228432723781051e-05 -1.2090503977228307e-05 2.299331267407461e-05 -2.8085696581792234e-05 -0.00016802827792944386 0.00019793509530877505
0.132 -0.0004979125614161329 -0.0008886604611409796 -1.3473385000405735e-05 -7.387582205158089e-05 2.150918167284865e-06 -2.9995385473719096e-05 -0.0001418047034968471 0.00026386823886115693
0.133 -0.0005352365899899512 -0.0009209567541699613 -1.1151158310524141e-05 1.1601058009694722e-05 2.0349529725123563e-06 -5.07349126755258e-05 -0.0001710142794093732 0.0002478486954955969
0.134 -0.0006236599409978484 -0.0008537342601683758 -2.9358025317391615e-05 -4.807700084400228e-05 4.97883768920468e-05 -4.043317959930947e-05 -8.584198669839112e-05 0.000267667398306872
0.135 -0.0006675020666033395 -0.0008500549747269256 -1.1284963209954522e-05 1.0897244776383214e-06 -2.6807944298967046e-05 -3.725465125913188e-05 -7.697026447070731e-05 0.0002616805989072738
0.136 -0.0007329281798862394 -0.0007587622743972827 1.1032863436383339e-05 -4.9478603983266114e-05 5.478481918170241e-06 -4.25773681875029e-05 -7.834163438826584e-05 0.00022037012633992293
0.137 -0.0007978257452185898 -0.0006941125199723607 2.547481637825135e-05 -4.153933089773134e-05 2.41526114678933e-05 3.1625591819558817e-05 -3.517233107748575e-05 0.00027860097164786936
0.138 -0.0008334677569464981 -0.0006685549756614755 -4.340776972023757e-06 4.8473222268906935e-05 1.8408607589212365e-05 -2.108215465232668e-05 3.467676737050498e-05 0.0003043540811113061
0.139 -0.0008976294718804508 -0.000602436077845498 3.357551020593335e-05 -8.2974999229413e-06 -6.217824013824328e-06 -3.6648626097731705e-06 5.071900342152309e-05 0.00027261785108670573
0.14 -0.0009063832199291917 -0.0005041950912227986 2.542453990175354e-05 -9.00183875544531e-06 1.1155394674537513e-05 -1.7051542921150657e-05 5.173516244869421e-05 0.00028279477060735587
0.141 -0.0010170578043727807 -0.00043171542458568025 1.5916687004384674e-05 -2.313488385216915e-06 -1.6022971109207032e-05 -1.3168004203882129e-05 9.986685843673686e-05 0.00026457360250747717
0.142 -0.001088259788448129 -0.00031768184457909204 3.399494674511099e-05 -4.799058130773743e-05 3.772910940734521e-05 3.914166749964693e-05 0.00010134714036936108 0.0002587839817710865
0.143 -0.0010170296884732788 -0.0002340695825502081 -2.9071359680835124e-05 -4.2503634167890276e-05 4.505481323611793e-06 9.753898380302534e-06 0.0001248263322658491 0.0002690786186501621
0.144 -0.0010474578381175215 -0.0001869048606131686 -4.187073950529643e-06 -5.629195584641295e-05 2.9708694932629502e-05 -3.6633531258058954e-05 0.00018221224837875618 0.0002523279193931646
0.145 -0.0011124102365801395 -9.56422375368799e-05 -1.3688106409482818e-05 -2.7110939030646606e-06 2.5214199121342295e-05 -1.1866581266476576e-05 0.00016875023374109566 0.00022108765710765935
0.146 -0.0010711448611833256 -2.3080217222665263e-05 1.871889701543178e-05 6.918092394095089e-06 1.105603747531807e-05 -3.394821432729063e-05 0.000252342722250785 0.0002231926488004651
0.147 -0.001110680788875402 5.6234294724226785e-05 1.963114077001837e-05 -2.8397272867655462e-05 -8.715474051761271e-07 -3.641359728713798e-05 0.00025142858260767444 0.00022911790830631868
0.148 -0.0011120784574654911 0.00014054980320175772 4.957814190528317e-07 -1.8175450034811996e-05 -1.1363111138946947e-05 -4.5720994046635156e-05 0.00022963393536149486 0.00017624162941705596
0.149 -0.0011255657128756984 0.0002796571550015579 7.834785551465114e-06 -2.7542709530923244e-05 4.13385030337283e-05 9.127571846572769e-06 0.0003207599150510652 0.00023694398941286976
0.15 -0.001095931293795019 0.0003445603222711187 -3.4873177810708536e-05 -4.45854866316582e-05 1.7160897543525222e-05 -2.6653635395880544e-05 0.000262247532553166 0.0001620488958580069
0.151 -0.0011081553146782988 0.0003839362583350685 2.9678038123602453e-05 -5.02422183443091e-05 1.7326770672751462e-05 9.069350372608394e-06 0.0003209601692494287 0.0001157431384307444
0.152 -0.0010739394247047428 0.0004927864934687287 7.373676317441616e-05 -1.8808744603626567e-06 -7.884907035038489e-06 1.4091751907445724e-06 0.0002990009307349031 0.00013029421214248339
0.153 -0.001036711435842022 0.0005737349138671538 2.3336465003852404e-05 3.061529920429568e-05 3.129763019443275e-05 -2.3669876385275863e-05 0.00036491390339764203 5.1539029976801744e-05
0.154 -0.0009741530391116173 0.0006673677539283637 6.492971776303465e-06 -6.546757101834203e-06 2.7485984839240438e-05 -1.685503459674032e-05 0.0003400690753752167 8.125112517109266e-05
0.155 -0.0009194695376307727 0.0007537502686320715 2.7036833719939203e-05 4.01723108548851e-05 -3.033893803711292e-06 -4.101514928492545e-05 0.00038625693543803484 1.6878358533265312e-05
0.156 -0.0008735972345050052 0.0007980971726847107 -1.745288690543512e-05 3.8624367472546744e-05 -1.016229497153283e-05 -3.427300823127004e-05 0.0003351693381521363 6.451510109469171e-06
0.157 -0.0007858265189869742 0.0008665509196352489 -1.9716077336119888e-05 -3.624175812044722e-05 4.8343985256437526e-05 -7.432666958744493e-05 0.00039561275166793134 -5.5702891536644304e-05
0.158 -0.0007193532368552683 0.0009150588208713761 5.309072557585954e-06 -1.9922348462836375e-05 5.871949572157917e-05 -3.1030684335087566e-05 0.00037411127319163966 -8.868732708022533e-05
0.159 -0.0006404787726480528 0.0009768924762192004 1.146737651109954e-05 -3.068364548653751e-05 -1.8517292903387436e-05 1.5850228447077443e-05 0.0003570590429392571 -0.00010805354226820231
0.16 -0.0005934057836661325 0.0010385734718286288 3.5539136120459996e-05 -1.444124970376605e-05 -1.4760345768568646e-05 -1.7092484859176343e-05 0.00034590611062078596 -0.00013452231697466324
0.161 -0.0005792811916133422 0.0010934227525617147 7.410467074617671e-06 -2.0291193985365077e-05 4.061868956123503e-05 -5.538502408695249e-05 0.00030503030646663297 -0.0002057304112421099
0.162 -0.00047711562715932254 0.0011804391761834642 -2.4305246573512285e-05 2.6142690112263096e-05 1.0629254604228792e-05 1.1918066354211654e-05 0.000276957562634017 -0.00019829356435954469
0.163 -0.0003599585442106592 0.0011722243703393552 2.8366957047088327e-05 -4.5878928951864335e-05 -1.8089479205095177e-05 -1.0254080655245261e-05 0.0002782932370554074 -0.000216648421333941
0.164 -0.0002629397637292151 0.0012019343326998074 5.404904640096792e-05 2.423105690719227e-05 2.6907522704396044e-05 -4.486820627371311e-05 0.00025931435282089556 -0.0002505878465715674
0.165 -0.00017179782439562873 0.0012187873301898224 2.016097061628885e-05 -1.3754813997602826e-06 1.9249104578091668e-05 1.2634344102963849e-05 0.00027599224652982474 -0.00028418483225091645
0.166 -0.00012938325359592576 0.0012884309188648214 3.772274272526789e-05 3.800670911532749e-05 -3.9355797303072744e-05 -4.304730199962589e-06 0.00027548524680350505 -0.0003138500442561855
0.167 -1.651262807687896e-05 0.0012419914272893493 -1.2568047572721938e-05 -5.676405220580613e-05 4.556793986469148e-06 -4.103890869467707e-05 0.00019947403400266605 -0.0002954281945144341
0.168 0.00010812276657689569 0.0012790240621404043 -5.256337323558045e-06 5.5021627668247666e-05 3.669360981773459e-05 8.330204195895239e-06 0.0001977505818514961 -0.00035475247835843875
0.169 0.00020122798788152526 0.0012522624624725558 4.898729185944475e-06 3.7427688140212086e-06 2.36737170726728e-05 -2.3392938509815705e-05 0.00014957406498249858 -0.00035614884798111483
0.17 0.000309337978877223 0.0012649070054167695 -7.632997473196843e-06 -4.042973546874721e-05 2.3254142436597562e-05 -2.1522384199157367e-05 0.00013091748264385604 -0.0003412603096868385
0.171 0.0003915334272916833 0.0012512977541822299 2.744208472768031e-05 2.0994698273217306e-05 3.2716602800325514e-05 -1.4753856722144227e-05 6.053524143908031e-05 -0.0003866389505643039
0.172 0.00047285820783972573 0.0012184113229500668 1.9227732725940046e-05 -3.4601464569148975e-05 4.6737134738152056e-05 -2.003457898957024e-05 3.763353808787712e-05 -0.00035759015665474036
0.173 0.0005969152034737263 0.0011737862208237163 3.623593876758783e-06 -5.9179023300988015e-05 3.2134812523849995e-05 -9.69298850067264e-06 1.6690574266366805e-05 -0.0003624293596523045
0.174 0.0006772933386440272 0.0011684106801641834 2.5026907469677247e-05 -2.5806747133984458e-05 -4.976729202171094e-06 -3.2319673446610225e-05 -3.06065863164668e-05 -0.0004268206799126869
0.175 0.0007171009622810111 0.0010576153506284215 4.450652395131564e-05 -2.4517875036383632e-05 -1.0878095101581803e-05 -9.60035281653339e-06 -3.1946617850717395e-05 -0.0004371518976539851
0.176 0.0008881061237779538 0.0010819347997148064 2.918245746045347e-05 1.1150764486896139e-05 -1.2586100554973922e-05 -7.4137798080753195e-06 -7.065584186065917e-05 -0.0003779166317548331
0.177 0.0009309718879573728 0.000983789743069979 1.0758967496304867e-05 4.93129765375357e-06 5.165800710625714e-06 -2.8172195889921177e-05 -0.0001153679288863021 -0.0003627930844443055
0.178 0.001029897231662011 0.0009403739013761743 9.815202291950276e-06 2.8335865809172403e-05 -1.6604409356103565e-05 -3.521260767636838e-05 -0.0001729777268828958 -0.0003333962600212445
0.179 0.0010833490970882421 0.0008791147131553644 3.101290848513594e-05 -6.429741573639994e-06 -3.1802598299839653e-06 -1.758022228047242e-05 -0.00016074081676286902 -0.00034711646170233876
0.18 0.0011431649069868933 0.0007874554167470396 4.3668455188106576e-08 -2.135052536533008e-05 2.38565601449875e-05 -1.656434402098856e-05 -0.00020885661643228024 -0.00026962811667322707
0.181 0.0012372877258735545 0.0006535287276421876 -7.174830721635592e-06 1.4571650532019488e-05 8.862922076175055e-06 -4.239085001364482e-06 -0.00022819288698650172 -0.00029190945528809274
0.182 0.001268649488576187 0.0005779479820674956 -1.431383698646054e-05 8.121583928669575e-06 -7.948011945331654e-06 -7.130952026486124e-06 -0.00021009256081297366 -0.0002944964357262062
0.183 0.001350364224272769 0.0004421722055656479 9.040990472836991e-06 8.728400923392198e-06 4.96425592118118e-05 -5.940804020473461e-05 -0.00031250002474852447 -0.0003056722435593712
0.184 0.001339596742108476 0.0003768319241521161 -2.0636104360514534e-05 -2.5935879011710575e-05 5.676931508375784e-06 2.3016112258074484e-05 -0.0003463586176790992 -0.0002690114104701627
0.185 0.001388576043866655 0.0002870469223237209 5.4135226150081845e-05 -1.4274324055680379e-05 1.5799030654843378e-05 1.009085456724963e-05 -0.00033009082605444843 -0.00023059588028687638
0.186 0.001390124758394042 0.00017283881078665486 2.9921077394055713e-05 -5.1845231558013116e-05 1.1281575913655714e-05 -1.5991958918848782e-05 -0.0003478145404994548 -0.0002160220102861601
0.187 0.001474184179411247 9.773349892216733e-05 -9.605998300511301e-06 -1.4344614219791013e-05 2.8445718182688402e-05 -1.699242400909151e-05 -0.0003846533817893443 -0.00016619290997708838
0.188 0.0014627235827085298 -1.654865632684834e-05 -2.0759772444924748e-05 2.5451161538900628e-05 -4.0251661112398385e-05 -3.558231862511287e-05 -0.00035686707867332396 -0.00014730636364175477
0.189 0.0014876009108776547 -0.00016014175408456685 -2.0999567357592897e-05 -9.254675562804608e-07 6.070986255982492e-06 2.0276829144934108e-05 -0.00039553870065270916 -8.548462209272248e-05
0.19 0.0014602919716249477 -0.0002080360172447933 -9.250871861908213e-06 -2.8313536525684864e-05 2.304872101636826e-05 -4.418053272118551e-05 -0.0003775022314236338 -2.1023036745729444e-05
0.191 0.0014358751876670398 -0.0003773540538255172 -1.2881621075580745e-06 -3.823331176050147e-05 3.9596001867501445e-05 -1.7441994414394556e-05 -0.000415049794453747 -2.0049721169411028e-05
0.192 0.0014093595808049168 -0.00046692204277281056 9.373160050781944e-06 2.0474969961735945e-05 3.122968160753594e-05 1.5634398956727575e-05 -0.0003924302996470151 -5.351269782259804e-06
0.193 0.001359542965202944 -0.0005625711089197264 -3.6566584811965085e-05 -9.483363892182045e-06 -2.6841077274238165e-05 -1.7692128862939517e-05 -0.00037686159733323527 4.507353521494276e-05
0.194 0.0012978988664102361 -0.0006924051998947136 -4.375373194080437e-06 1.2664917082294438e-05 1.8525991046649676e-05 3.2825466486628634e-05 -0.0003785599787849247 1.549407603338993e-05
0.195 0.0012155791394184731 -0.0007707442710875974 4.675534380808453e-06 -9.100200136198217e-06 -7.280622040808489e-06 -2.5943729304403404e-05 -0.00037997624783371164 0.00015654217689027857
0.196 0.001204619183491712 -0.000874078256758618 -1.2490972691999168e-05 -3.823913129258115e-05 -1.7255767335272633e-05 -3.40210231549203e-05 -0.0003559478303786238 0.00014726786136624122
0.197 0.0011907039380645733 -0.0009594507580353428 1.0740077500915305e-05 9.49353634951396e-06 6.374284773226776e-06 1.3727341246244862e-06 -0.0003683618334081235 0.00019297160959780803
0.198 0.0010821660208062416 -0.0010595329390307182 2.1575196681611392e-05 -8.402414451195395e-06 -1.5738425802922754e-05 -2.661470937895496e-05 -0.0003556142462552974 0.0002788528473030068
0.199 0.0010022145321000513 -0.0011586471087157873 -1.088892057915995e-05 -4.76998852387649e-06 3.7426363674883444e-06 -3.061938131668431e-05 -0.00032026662702224043 0.0002673247527600692
0.2 0.0009257753831868818 -0.0012693913198859547 2.282035099361885e-05 -6.429076925612539e-06 3.748149347041486e-05 2.2820442151418514e-05 -0.0002796338626070827 0.0002759972137883757
0.201 0.0008074868914397969 -0.0012844414509990707 -2.4882270921853026e-05 -1.243975059308397e-05 -3.14753247580702e-05 -9.50577068398868e-06 -0.0002300281038010818 0.00028541125517069345
0.202 0.0007242578888527261 -0.0013761324188831959 -9.366122774513942e-06 -1.5048220214974212e-05 4.065209942662446e-05 -1.2848034896843976e-05 -0.00022417616997420667 0.0003342685867639426
0.203 0.0006072566902832434 -0.0014049690165334676 7.712149101846538e-06 -7.316557923863169e-06 -3.234058553200615e-05 -3.614517924170543e-05 -0.0001622510181139807 0.0004146314361458325
0.204 0.0005460561352430586 -0.0014002230688896094 2.1917755644828557e-05 -3.355222360314601e-05 2.5825887315462036e-05 4.052023166646905e-05 -0.0001646346661147207 0.000414877328716108
0.205 0.00042458274234379755 -0.0015023199400857191 8.999889577683505e-06 -1.23819588708691e-05 7.348261207311222e-05 -8.66485694804951e-06 -0.00013329056423263047 0.0003949600598860012
0.206 0.0002956784914283124 -0.001566707644988132 6.286662961852049e-05 1.1933937368186485e-05 6.860766912600044e-06 8.887869793979935e-07 -0.00014428283884723402 0.0003754105719373549
0.207 0.00019511911605186232 -0.0015472414399376052 6.33461704413968e-05 1.2552641344976922e-05 1.8802499848408738e-05 -1.3536836163611016e-05 -6.90308912925611e-05 0.00041010731004610803
0.208 5.7014624590600845e-05 -0.001545092910650786 8.11110298090579e-05 -2.2201800584327588e-05 4.3709120556811907e-05 -3.3011999968330206e-05 -1.3131488351697028e-05 0.00044469522976592953
0.209 -6.352257080965339e-05 -0.0015756801700944865 -1.187426858194142e-06 -7.222773805003685e-06 1.401752159604843e-05 -3.6621330500727094e-05 -1.442982242039725e-05 0.00039249964795432234
0.21 -0.00016073623931848574 -0.0015789923557653148 1.5075145516984859e-05 -2.268522020678956e-05 -7.191024166414042e-06 -6.29240948012737e-05 2.856613916626589e-05 0.0003897972293629456
0.211 -0.0002768131031813874 -0.0015513243137163762 -5.540025176242412e-06 -1.3924784483422803e-05 -2.2071702033628685e-05 5.106581449920786e-05 8.259284749420882e-05 0.00042661123100985504
0.212 -0.0004054068474681091 -0.0015441180210500115 1.7974128440596552e-05 -3.919957494125207e-05 2.5160561125848243e-05 -8.296361569670676e-05 0.00011365581612528203 0.00043026501758387965
0.213 -0.0005406878567419651 -0.0015072326890383202 2.0496816105602513e-06 -4.609579445313065e-06 1.6195732501172846e-05 -2.3176954859554126e-05 0.00015225203158044767 0.00040976957528600675
0.214 -0.0006908922072328821 -0.0015067590589028614 8.630141591333463e-06 -1.8804457207986967e-05 2.730020359047048e-05 -3.2629268674398895e-06 0.00018753036059296948 0.00036736770702442415
0.215 -0.0007514209418810514 -0.0014519145838495918 1.9732824785500246e-05 -2.921213599692116e-05 -2.0789229298247524e-05 -2.031837360219337e-05 0.00025367763474256824 0.0003733410020679821
0.216 -0.0008320670728304469 -0.0013538703641639757 -1.733077062948877e-05 -8.150623883595439e-06 2.831283170835889e-05 -4.231067300225545e-05 0.00025568636622842566 0.0003669121565816547
0.217 -0.0009696791520534488 -0.0012954233749164262 2.7803640653604326e-05 4.969256887847292e-06 1.7672583702231853e-05 7.363314343228959e-06 0.0003164262223278915 0.00034104634760320594
0.218 -0.0010759203007141129 -0.001218113325427159 1.2249092893402921e-06 -1.463251741038393e-05 -1.0766741226391334e-05 -2.0106870618672214e-05 0.00034679296875448295 0.0002969259683080577
0.219 -0.0011303881872622564 -0.0011702318664457104 -6.344423851180144e-06 -2.6190326811552977e-05 1.5250707297213572e-05 -4.3471260488981714e-05 0.00037565941333225186 0.0003080172187318111
0.22 -0.0012669901662341254 -0.0010177195156688887 1.4116135594753895e-05 -3.4277493857760897e-05 1.8970526118293615e-05 -1.3765139903689555e-06 0.0004038014488492392 0.00020976854457030857
0.221 -0.0013091253543177513 -0.0010028266465580537 4.158957972884986e-06 1.7628637122685816e-06 -2.1461639544348137e-05 1.1456439919387683e-05 0.00043985784506639505 0.0001988273060996879
0.222 -0.0014183377355089285 -0.0008622569079305093 -2.3994329855985384e-06 -1.2519780260087326e-06 1.1881875122785389e-06 -1.5270374396613228e-05 0.0004914024916093519 0.00017221647352637059
0.223 -0.0014516086341201555 -0.0007634755444443699 1.3826569539634346e-05 1.3463737176220716e-05 3.143146950471738e-05 -3.5178200266739227e-06 0.0004492912896947125 0.00014123174220476988
0.224 -0.0015315099004752754 -0.0006491017974919032 6.396733123127023e-05 1.0270061966817496e-05 1.572976408349041e-05 -1.3156862490528213e-05 0.00048010545610153077 5.551360954555312e-05
0.225 -0.001588486364053129 -0.0005046605159108588 4.782246754589222e-05 -8.638451921390903e-06 3.5636455378436893e-06 -1.8721501022405342e-05 0.00045799142840582377 4.848018266816417e-05
0.226 -0.0015901851948164672 -0.0003735236271624751 1.2578278115128441e-05 -6.3792761280305845e-06 1.7975615284897237e-05 -1.251283531537356e-05 0.000471453573882903 3.0302554028917994e-05
0.227 -0.0016351806429232133 -0.00021777121451608115 1.5795575906721235e-05 3.6368013088721054e-05 1.6967464858857373e-05 -1.034880936879755e-05 0.0005409746506138877 -2.1925657189850832e-05
0.228 -0.0016219219656000857 -0.00012497806693958412 5.381575530514232e-05 -6.8171028559211706e-06 2.9700222488428217e-07 2.0743084199942308e-05 0.0004897906085174908 -9.563456490382135e-05
0.229 -0.0016678414758816847 2.5472639807861327e-05 2.3625359711932717e-06 -1.0788911249635347e-05 -3.577041475138823e-06 -2.7905062954650856e-05 0.0005064385907676746 -0.00010505124123831763
0.23 -0.001623742128470805 0.00013581433555138653 -5.539570073759238e-06 -6.977866311240775e-05 -1.290015799403319e-05 2.463725734167383e-05 0.0004175178823432898 -0.00016325744734465019
0.231 -0.0016855784275891152 0.00022448312541296716 -1.6882418433398514e-05 -5.303940214835108e-05 3.749965832022479e-05 2.7362603964400064e-06 0.00046670380204312506 -0.0002167179135001533
0.232 -0.0016921365063700862 0.00041332960788864853 4.442965096960106e-06 -1.7549370799927547e-05 2.487637081815186e-06 -5.541562761265114e-05 0.0003900095811634654 -0.0002541266068307497
0.233 -0.0016441980494994277 0.0004826472797727126 4.372676642124907e-05 5.354787524811282e-06 -2.6103119395330564e-05 -4.035772511296388e-05 0.00041768147674386063 -0.00030302849314394034
0.234 -0.001578135977929298 0.000640614045867058 5.854503724411687e-05 4.629898203272943e-05 -1.3126057269750102e-05 -7.483176016688455e-06 0.00039333627797081904 -0.0003381966209306784
