!Created with skrf (http://scikit-rf.org).
# GHz S RI R 50.0 
!freq ReS11 ImS11 ReS21 ImS21 ReS12 ImS12 ReS22 ImS22
0.13 0.0003425694191224688 0.0009305282274698551 4.360855259918257e-05 -1.96898375366727e-05 6.7415463397973555e-06 -2.9146444773090454e-05 0.0001973709027061684 -0.0002633928468511581
0.131 0.0004267709340738486 0.0009427582854438782 5.232777805821831e-05 2.0144078280573815e-05 6.121304424928533e-05 -4.9842886872927346e-05 0.00020685111346078393 -0.00024304587887390207
0.132 0.0004609290862035915 0.0009231406431981156 3.9054637513366014e-05 -5.019895008093481e-05 -1.4433015810952488e-05 6.944687188719027e-06 0.00018911811555593245 -0.00026538250235643904
0.133 0.0005514573852940382 0.0008611382337177072 2.722328239645849e-05 -2.2636655652634007e-05 1.4023537031376233e-05 -3.5703040877540635e-06 0.00014772844655030627 -0.000304308645290864
0.134 0.0006459159196402457 0.0008652323826321424 -7.40373548150804e-05 3.841318837685507e-05 2.706110075629561e-05 -2.4508275596420105e-05 0.00014617694901054347 -0.00030507347735929776
0.135 0.0007070600672232186 0.0008161850013215857 4.555877058072247e-05 -4.1357171125349504e-05 4.467379145751859e-06 -1.9221786457761508e-07 6.702551490360069e-05 -0.0002678907885191386
0.136 0.0007640813624831939 0.0007572358801103337 1.2705323701884393e-05 -3.983166616990703e-05 -1.9013431612229568e-05 -6.701413299786457e-05 7.116176419679954e-05 -0.000325822313652661
0.137 0.0007831966552266441 0.0007085361708644136 1.98743891000654e-05 1.5032799506749578e-05 8.00425452335593e-06 -2.5094900641581553e-06 -2.6398492318302008e-05 -0.0003380766370613124
0.138 0.0008558437037902297 0.0006353702776306313 -2.1692425929869677e-05 2.70206540683206e-05 -3.180457597326095e-06 -6.947468414721977e-05 2.5576717155493973e-05 -0.0003116680663855913
0.139 0.0009278935421511823 0.0005112429816424202 -6.097417620073725e-05 -2.7077746868522254e-05 3.0094103864446127e-05 -1.4985798597147815e-05 -2.2740040270553147e-05 -0.0003111707099465966
0.14 0.0009772414698392567 0.0005129825044132591 -2.2500615074320812e-05 -7.584685719148674e-05 2.4083631337804843e-05 1.0679468934824688e-05 3.752375239156588e-06 -0.00028664397945804516
0.141 0.0010150286255354325 0.0004322227288539679 2.2608812221087894e-05 -4.852793662028556e-05 6.982308752571897e-05 4.2695177648541125e-06 -7.00450729130567e-05 -0.00034308509870885714
0.142 0.0010819397833844737 0.0003385814919015786 1.756159536357096e-05 1.0639035179414978e-05 -1.2290169983390762e-05 1.0161723969649458e-06 -7.272650773829158e-05 -0.000289335985373428
0.143 0.0011118154111544253 0.00031316549508864875 1.239295054862405e-06 -3.958975675684282e-05 -3.5326593209584326e-05 -2.639462718838166e-05 -0.00013091534546656118 -0.0003773618990676728
0.144 0.0011072742925499729 0.00022511044827233155 4.6102145064664484e-05 -1.748900806837738e-05 3.30332273754223e-05 -5.259944667930534e-06 -0.00013662549853025655 -0.00025985430894976666
0.145 0.0010873495193853963 0.00018611585070707828 1.9535961418864488e-05 -9.619014436681181e-05 9.194673415974307e-06 -5.485330331252326e-05 -0.00016506738871601188 -0.0002631240243649128
0.146 0.0011823587416800588 6.631467175611002e-06 9.41872391107797e-06 -4.308243788225796e-05 5.128861904488049e-05 -1.039291760497939e-05 -0.00017749607696856533 -0.0002965926885303439
0.147 0.0011900233705615328 -5.423122448665557e-05 -3.962586560792644e-05 -5.117030739598451e-05 5.189219761675577e-05 1.7265576595433666e-05 -0.00018153709376139742 -0.00021815359218311047
0.148 0.0011232110811475809 -0.00015060593016280144 1.7538703654123806e-05 -1.114399074476191e-05 1.729154083522619e-05 -2.261447928468436e-05 -0.0002434275414145366 -0.00019482612505393164
0.149 0.0011672388343213597 -0.00027599289026578017 -4.85507473184662e-06 -8.68324064011857e-06 -2.5116478857839525e-05 -3.43281187047418e-05 -0.00027200747545672846 -0.00019519861085965179
0.15 0.001126499396885763 -0.0003603624692900386 -7.2313820660596e-05 8.024659667338327e-05 4.5431608364288795e-05 -1.4658105897603286e-05 -0.000322981651415887 -0.00013611113791768388
0.151 0.0010959894288359105 -0.0004070718041471893 -1.1765558131863494e-05 -1.3697761500062713e-06 7.296366287351053e-06 -5.377731021575577e-05 -0.000308563634149241 -0.000174188322883412
0.152 0.0010669413813909046 -0.0004873097492665703 2.5425765993937616e-05 3.0069445793984805e-05 -1.3684978432234355e-05 -5.405750809753154e-06 -0.0002900502655035998 -0.00012227974776521643
0.153 0.0010279123000771439 -0.0005592910239921686 8.1489207638791e-06 -3.2385384275599974e-06 5.2152793751196144e-05 -2.7693656155248974e-05 -0.0003229222805950501 -7.34865435021205e-05
0.154 0.0010466892632647554 -0.000633219887799817 2.6027248107115443e-05 -3.702819837606641e-05 -1.033593117773497e-05 3.183141935593507e-06 -0.0003429682595791873 -0.00010332374049478657
0.155 0.0009494992068956424 -0.0007642379838285738 1.5957604844376136e-05 -1.1898325018346076e-05 -1.9227633755771167e-05 -4.262167176789541e-05 -0.0002912860158656399 -2.2285391690581758e-05
0.156 0.0009056665001632399 -0.0008126749505083126 5.72610001722641e-05 -2.2371169583616934e-07 -7.828235053834344e-06 -4.061564173008364e-06 -0.00034949484969218244 3.307545517773271e-05
0.157 0.0008566890292115509 -0.000918309874765752 -5.542554384832043e-06 -2.7424312875377184e-05 3.396695140190885e-05 -8.785686254144412e-06 -0.0003134574271005828 5.021651279522657e-05
0.158 0.0008343107646248886 -0.0009220349287196369 -3.874997456491119e-05 -4.4712014806646504e-05 1.6548994189623555e-05 -5.829778191493242e-05 -0.00034087658636490595 5.427545932370245e-05
0.159 0.0007235609963884706 -0.0010213016236325823 -3.4987830790559944e-06 -1.831954843070963e-05 -3.906562811720952e-06 -4.167279179461322e-05 -0.00034783081617588993 0.0001217873220917002
0.16 0.0006496056043469035 -0.0010507112458396591 3.171641284470205e-05 -2.0331968497025645e-05 1.635692581472807e-05 -1.8116468278004908e-05 -0.00027268692565066296 8.901260861092502e-05
0.161 0.0005638543956451583 -0.001169806305129294 7.727940155496425e-06 2.6226917971402816e-05 3.1140510352179665e-06 -5.338915047542058e-06 -0.0002766135790199262 0.00012501389622899333
0.162 0.0004726068798774624 -0.0011704322474618326 8.247799036874598e-08 -7.560725300544841e-06 2.779798734963282e-05 -3.531354512260981e-05 -0.0002250014064512045 0.00018506499500158403
0.163 0.0004013647267160671 -0.0011850360545141143 2.1723341780017813e-05 -1.4479752239052154e-05 3.0131384938811112e-05 -2.104927700438962e-05 -0.0002684041741183517 0.00016177201719785186
0.164 0.00024738616761861603 -0.001271303213851709 2.709678551090975e-05 2.443394129034146e-06 -1.8473797312019065e-05 -1.5852320133764048e-05 -0.0002679014372733211 0.00021864110609250628
0.165 0.00021792924022111796 -0.0012276163574768196 6.28052557717434e-07 -5.485743475812557e-06 1.6872973041109449e-06 -2.8578157671886774e-05 -0.0002037059774692189 0.00024870013111985654
0.166 0.00011443767413914688 -0.0012808682221023865 -6.811010925020195e-06 8.710349796684075e-06 -2.0557705293507e-05 -2.490031058939241e-06 -0.0001896572270198122 0.00022384641989572562
0.167 5.107331097446998e-05 -0.001264733418227909 1.6081725313215783e-05 2.600930109352757e-06 4.932093351379982e-05 1.1362172811643828e-06 -0.000217027653725598 0.0002965815931362842
0.168 -1.771738558501613e-05 -0.001305817577458744 -2.05582685483462e-05 -3.19518316349095e-05 -1.6425815117747553e-05 -2.065007975319642e-05 -0.0001635608190668284 0.0003056999111008368
0.169 -0.000193156179141295 -0.0012464763632331348 5.449378758718521e-06 3.189445431182646e-06 4.7573337329206655e-05 1.370200439998453e-05 -0.00015241220905060435 0.00036193866612989524
0.17 -0.00026939013753844254 -0.001298250314628308 4.8444411167860995e-05 -4.0162449336965225e-05 1.261336628598345e-06 -3.43090973854905e-05 -4.093309512663283e-05 0.0003524275005919566
0.171 -0.0003600639503400583 -0.0012750266193686153 4.582576037700303e-06 -3.517871915143749e-05 -1.5972754430530016e-05 -2.8677128575379974e-05 -0.00010354343591730697 0.00036838678715359963
0.172 -0.00042175423763276957 -0.0012636391026149137 2.7025891073741903e-05 -4.007637122419437e-05 2.5649540569239878e-05 -1.4526243218202793e-05 -5.959021529277721e-05 0.0004000332968262606
0.173 -0.0005460733499334027 -0.001215555894767576 9.598106822319862e-06 -1.3139883682691392e-05 4.353411955842208e-05 6.936206601689589e-06 -8.3595030595906e-07 0.0003715595139916081
0.174 -0.0006435351723433596 -0.0011414358070260767 4.7539557132759503e-07 1.9862216080964323e-05 2.479689994721111e-05 1.2251605175044058e-05 4.679161781229083e-05 0.0003296773007708076
0.175 -0.0007687847020577135 -0.0011524376285785664 -5.632946441046424e-06 -3.027744337328438e-05 -6.91210076955663e-08 -9.564433079956817e-06 3.0290968032654727e-05 0.00035372556470676284
0.176 -0.0008328298911998977 -0.001061491399363736 -3.465270059196114e-05 7.3508446558949656e-06 4.1076301148748885e-06 -2.046083376723638e-05 8.56865860975806e-05 0.00032745447892913504
0.177 -0.0008961749849204986 -0.0009644518839844893 -2.1975250716478823e-05 1.778032816436634e-05 1.1863959550303362e-05 -2.166555684975434e-06 0.00010609523458830684 0.0003025503980427974
0.178 -0.0009645731446870884 -0.0009145961340733682 -3.202274152164679e-05 1.2322447164495758e-05 1.3343817270106268e-05 -2.505278862275469e-05 0.00019242570102174716 0.0003916468949069052
0.179 -0.0010612459123811636 -0.0008443894031962 -4.64504139887582e-06 -2.2233044609270903e-05 2.2750787985048918e-06 5.0913027656115555e-05 0.00017109892249308792 0.0003356025470192761
0.18 -0.0011195047902553875 -0.0007777592003587299 -4.978232152469388e-06 5.360439619638108e-06 4.412766427844637e-05 -2.9496043016973593e-05 0.00019572541020562744 0.00034169100746754034
0.181 -0.0012105105453312011 -0.0007063913438683027 3.2439962478191106e-05 -2.6123208002467068e-05 -1.2495791887506931e-05 4.768675260894578e-05 0.00031525705857604304 0.00029275873785726086
0.182 -0.0012420042701471125 -0.0005766838692875022 8.247370038170642e-06 -8.320639734150098e-07 1.8523607671294816e-05 1.8014158513955496e-05 0.00024021295969471135 0.00031155363265486323
0.183 -0.0012780725840254984 -0.0004972158807352437 6.090967128515162e-05 -7.4756058338312344e-06 1.4557174608579829e-06 2.7216702318778677e-06 0.00028023760185009094 0.00027989390941616935
0.184 -0.0012566372308319008 -0.00042332485208951336 -1.1745540269759783e-06 -2.3875382776798194e-05 2.9164048458153947e-05 -4.683549578504429e-05 0.0003403061158611845 0.00020270439116359812
0.185 -0.0013415396114179533 -0.0002664685172883288 -1.1760944073994376e-05 -7.141674433841356e-05 -7.044448753469858e-06 -4.4476898987270984e-05 0.00036823885885510727 0.00018154069318568935
0.186 -0.0013475513944350866 -0.00020007815748848668 2.8488153233266823e-05 -1.841631580289605e-05 -6.329840009042779e-06 -4.044677009660934e-05 0.00040941911685808734 0.0001701922551665753
0.187 -0.0013780443699698995 -0.00010750916703355495 3.5567897630924716e-05 -2.890063583219419e-07 1.7873186439506043e-06 -2.338249209280194e-05 0.00040677055394663415 0.00011973716549805337
0.188 -0.0014037997719148502 -4.9767718620240525e-06 3.621845581081784e-06 -1.641652124702028e-05 -1.141512423359556e-06 -5.135161666965313e-05 0.0003719861378037159 0.00012817730104702053
0.189 -0.001361747011849069 0.00012344193704471343 1.7885337232541041e-06 -4.880798164905282e-06 1.7138646587754873e-05 -3.5950841178277634e-05 0.00041207083343522936 4.2311171624848815e-05
0.19 -0.0014033004727513993 0.0002583055093505721 -8.232424904051055e-06 -7.893749765617959e-06 -2.5437973025023243e-06 -2.1568017628440233e-05 0.0004056914301864812 6.761226815582953e-05
0.191 -0.001370155347517859 0.0003194754190840332 1.3863284126331831e-05 -2.495776952913599e-07 2.2621130914960434e-05 1.3108252486677715e-06 0.00042092553326971815 -2.159937893705427e-05
0.192 -0.001337229096869779 0.00042503708423283974 1.6712258285290052e-05 3.6515607642311666e-06 -6.914613226333502e-06 2.7628657328970762e-05 0.000444919923846846 -3.9582691460350594e-05
0.193 -0.0012674084051655296 0.0005168972635505705 -5.209260831556012e-06 -4.96931625848058e-05 -1.2761305118048134e-05 8.791113208218507e-06 0.0004644233279262501 -9.88444702424535e-05
0.194 -0.0012517382457856501 0.0006334986392309777 3.5277452832134855e-05 -1.1783020582274816e-06 1.6825154149458134e-05 4.105425703369405e-05 0.0004001456492195123 -0.00012514642751609514
0.195 -0.0012325973077024711 0.0007585769666899626 5.684003480135803e-05 -1.8230959465170847e-05 5.598184909657625e-06 -2.9965607975720822e-05 0.0003855452366827688 -0.00017025612282333603
0.196 -0.0011979528297778334 0.0008505543131938064 3.0448373260998025e-05 -4.965682756225374e-05 -2.8820942672222588e-05 2.4970987094906376e-05 0.00039335951262909865 -0.0001847669304817584
0.197 -0.001150876230938421 0.0009667699764994225 -2.6099973735166306e-05 -4.64932648605069e-05 2.6690741919232515e-05 -1.5818405467248776e-05 0.0003420551097632283 -0.0002179295308401217
0.198 -0.0010371710105591954 0.0010318108394771655 3.3330820383853096e-05 2.321172363717266e-05 -1.0296657902525228e-05 4.908333647477769e-05 0.0003453494661238275 -0.00026027640546236246
0.199 -0.000968731387911328 0.0011021987421580936 -2.634433592647387e-05 -2.8924447110053644e-06 -1.1964564156078042e-05 -1.5988812400252507e-07 0.00039990226596964024 -0.00033059378537512557
0.2 -0.00089572873474531 0.001175446253585381 3.1222674881597235e-05 -2.2991752827609283e-05 3.534630164959967e-05 -3.9151246796252866e-05 0.0003327163526058724 -0.0002897440323725537
0.201 -0.0007652626669486846 0.0012383481382890172 3.8488330432994566e-05 2.476626828204867e-06 -3.7016819098393368e-06 -1.6169483847976733e-05 0.00031765365203503294 -0.00034530870185932636
0.202 -0.000726661129039486 0.0012940265414386474 1.8276112582399267e-05 -3.154579078911873e-05 1.3962682979096914e-05 -9.768266373702057e-06 0.00026171714340612754 -0.00039061994228690083
0.203 -0.0005840639932461834 0.0013944337238999173 1.4937082720834888e-05 -2.7042789111694973e-05 -3.055626718953584e-05 -3.8684437758928036e-05 0.00023420794775856155 -0.00036896370412215927
0.204 -0.00048021972334713386 0.001461335267735957 2.3925877514468684e-05 -1.3088542642802699e-05 -6.841612016203849e-06 3.825147851319618e-05 0.0001536697344440282 -0.0004381223232388643
0.205 -0.0003836396007180765 0.001424766372106126 5.4596597835018974e-05 2.008045263616604e-05 6.592343272268019e-06 -3.536114487178e-06 0.00013666268613694206 -0.00043812101810835165
0.206 -0.0002909244513914241 0.0014977668765370133 -1.7454375523985127e-05 -3.1944117707238546e-05 -4.140634877689768e-06 2.6039520147576326e-05 0.00011550418319951326 -0.00043236421940334957
0.207 -0.00017189334104349136 0.0015328410188881721 -1.0928824271197472e-06 -3.1384686298883624e-06 2.3775552240526927e-05 -5.6557644982461477e-05 4.632498155978125e-05 -0.0004638604661421534
0.208 -4.7066972592123097e-05 0.0015976053811598836 -1.98965628380966e-05 -3.491114039150284e-05 -1.2871214623870155e-05 1.3943060213448953e-05 4.118168247783101e-05 -0.0004412429351720951
0.209 5.877084958961147e-05 0.0014829319180741654 7.79542166068008e-06 1.5331662918267294e-05 9.670964356777175e-06 -3.529247281738641e-05 -3.6794547735059634e-05 -0.00048704238184708225
0.21 0.00011595372819727172 0.0015734084718973585 -7.758839957216646e-06 -2.7793431452875237e-05 4.705182524605764e-05 -4.793255148213793e-05 3.9130677497645434e-06 -0.0004251419233434891
0.211 0.00029222076551581 0.0015374550485156757 -1.0096210449499401e-05 -1.7853510709633834e-05 4.341202465919295e-05 -7.357173098592399e-07 -9.363503564532069e-05 -0.0004535790011378845
0.212 0.0004035349328471063 0.0014640106565110493 3.1917543520528544e-05 2.317117192410588e-05 4.6786681568081476e-05 1.4136870427092482e-05 -0.00015376215840545062 -0.0004387689080439856
0.213 0.0005088825616861008 0.0014681406732429598 -3.817800601608765e-05 -7.027425331539633e-06 7.392505084707914e-06 2.416605710050824e-06 -0.00016964040685679525 -0.0004531586909853236
0.214 0.0006504072428611051 0.001437303668314747 -7.17075716304339e-06 -1.645784892318103e-05 2.7698972257695263e-05 -6.710882311322889e-06 -0.00021029301430169553 -0.0004367432299506421
0.215 0.0007453168685044733 0.0013897143163089107 -2.094136873198902e-05 -6.783395058211046e-05 3.616111872971946e-05 2.858516064453506e-05 -0.00021456075605182106 -0.0004009545518043672
0.216 0.0008574881684687129 0.0013485214953649126 -5.715404953968611e-05 -2.734722918570782e-05 1.3399933322331397e-05 2.5005914334062604e-05 -0.00024874008746562427 -0.000440416941837228
0.217 0.0009857049251016101 0.0013072399864322642 -1.794511444857296e-05 -5.117384904616334e-05 4.6406952014183445e-05 -4.18021972336609e-05 -0.00031286209099692274 -0.0003676320253653797
0.218 0.0011158703761046287 0.0011855571488835345 -5.801254965723577e-05 1.668620681563301e-05 3.903287129033228e-06 2.2216346030140063e-05 -0.0003398949678430433 -0.0003360240309602149
0.219 0.0011409011940423052 0.0011339221016826953 1.6968034687158308e-05 -1.6344531685515454e-05 -1.5313834456794442e-05 -2.7796477810827264e-05 -0.0003413507544219044 -0.0003025829642519206
0.22 0.0012690084477157185 0.001079354606831921 -4.622200723533854e-06 4.63988163296374e-06 -1.8587403198039676e-06 -8.709641868219307e-06 -0.000378720198074585 -0.00026703399116818883
0.221 0.0012822963314460172 0.000983940581704943 -3.116852989381418e-05 3.5555105991713494e-06 2.016407231397448e-05 -1.762634476779327e-05 -0.00036109843078195114 -0.0002152311739681011
0.222 0.0014271186472778377 0.0008740710818885708 -1.3672502716133167e-05 -2.6493534077059665e-05 1.0388505518257718e-06 -1.987429971195986e-05 -0.00043157372094101135 -0.00020715185664295976
0.223 0.0014810731343555513 0.0007551850908173306 -1.2112431887576391e-06 -2.979261166970963e-05 -7.505544665488412e-07 8.413684961548407e-06 -0.0004231126431451022 -0.00016980878808764814
0.224 0.0016143215181869794 0.0006402247701239688 3.340184758083918e-05 -3.9265475314645096e-05 2.9655267212963023e-05 -5.489221217571862e-06 -0.00046552079150638726 -9.941399697272288e-05
0.225 0.0015970123065804094 0.0005381995717482299 -2.0090396778925283e-05 7.0005169055338315e-06 3.6602275038746084e-05 1.1193167228943666e-05 -0.0004885265439839336 -0.00011791910048099132
0.226 0.0016244286699997833 0.0004243621358502113 7.046849913964404e-05 -3.0132061477436784e-05 -2.054322212737526e-05 8.941299780017143e-07 -0.0005021250881540886 -1.0202940348696147e-05
0.227 0.0016431632101138343 0.0003021819741988049 1.262645258963725e-05 -3.846720331045737e-05 2.431455100851834e-05 -1.8813082878857925e-05 -0.0004767163490856862 -1.23504282488277e-06
0.228 0.00169239134924731 0.0001851353616674566 2.979266523197506e-06 1.7459527910328946e-05 1.7556943814404976e-05 -2.907354691968897e-05 -0.00047799937097067996 5.34474111197362e-06
0.229 0.0017396890061945943 6.578759778662327e-05 -4.7023672325053215e-05 -5.811799306514193e-05 -1.3388333408173912e-05 -9.35286377005464e-06 -0.0004536648610966597 7.470974922087546e-05
0.23 0.0017480160778180483 -9.264037466668913e-05 -7.535508042965538e-06 -4.530587397433145e-06 6.1397041328419465e-06 -3.401923180067773e-05 -0.0004862604736542097 0.00012951171218655432
0.231 0.0016667841556611929 -0.00020708533755839798 -1.318087840211105e-06 1.232501211613003e-06 1.228559307806021e-05 -2.255934730112339e-05 -0.00042633509111197904 0.00019281969137424298
0.232 0.0016823683691444935 -0.0003423712989159562 -3.6633983742312525e-06 -9.180377037005391e-05 -8.834032939873796e-06 -3.275478700270619e-06 -0.0004571561904238951 0.00020204702581124495
0.233 0.0016883245928185123 -0.00044011672101954436 9.025789705677052e-06 1.3932785338941954e-05 1.964996416744174e-05 -3.417449164040448e-05 -0.00038636266766556304 0.000245252328273772
0.234 0.0016068944743234097 -0.0006157922289406205 -3.614964870416145e-05 2.7032631098223578e-05 6.579735456837792e-05 2.2860449326185942e-06 -0.00040631031738739475 0.00029082258314702046
