!Created with skrf (http://scikit-rf.org).
# GHz S RI R 50.0 
!freq ReS11 ImS11 ReS21 ImS21 ReS12 ImS12 ReS22 ImS22
0.13 2.1106822121850995e-05 -4.185031880570075e-05 0.02596414507145232 0.0013098075262322345 5.691454273612476e-05 2.7808327939354334e-05 -2.1605295257020212e-05 -2.8484889073814563e-05
0.131 4.4130676392227566e-05 -2.2585275862428842e-05 0.02595903947050289 -0.0012185767329688253 9.290286936006084e-06 2.5936735518561256e-05 3.997191396440545e-05 -2.6549027880858097e-05
0.132 -1.3096872901929151e-05 1.0742350002440323e-05 0.025703202408211234 -0.0036353597009948268 -2.2158303120126134e-05 -8.388120680318093e-06 -4.3884475167984666e-05 -3.6326574508003003e-05
0.133 1.73240518142893e-05 -5.476864416091084e-06 0.025228137983792396 -0.006084033459718069 2.0960957941739756e-05 -1.3348580869926455e-05 8.57474687238724e-06 -7.508482365331342e-06
0.134 -2.8719783951372535e-05 -2.923579743453255e-06 0.024523077987374072 -0.008432286303150635 7.701333786082112e-05 1.9884245310510808e-06 -5.492374877016315e-06 -5.134706169824687e-05
0.135 4.3227324053244014e-05 -1.79364265366309e-05 0.023660535772097705 -0.010723365816649686 1.755266352926107e-05 -4.407047906498177e-06 1.952270642391788e-05 -3.514075107250793e-05
0.136 2.440678354472901e-05 2.6264468068016398e-05 0.022500587360630403 -0.012840310152218152 6.48937548560324e-05 -2.0729983925496374e-05 6.550369878843438e-05 -1.4617313476043511e-05
0.137 2.1206934773889482e-05 -3.8396912822736494e-06 0.02117628131139377 -0.015027698604709403 -1.7844723480387596e-05 -3.96715834429609e-05 -6.211959827731798e-06 -4.174037643084811e-05
0.138 3.946747388614622e-05 -1.2349447016539119e-05 0.019634266196664068 -0.01690397635555982 -5.822383940285001e-06 -3.540079818270283e-05 -3.0258757034550577e-05 3.1257006053388946e-05
0.139 -7.118277210612818e-06 -3.713372682490451e-05 0.01792659701855605 -0.01872636755053552 3.1705516057584194e-05 -6.771527338754962e-05 -2.881479980906662e-06 -3.4506472629002156e-05
0.14 6.418793194472337e-06 -3.810182515032813e-05 0.016079453943696108 -0.020329611786064607 4.6366523773449715e-06 -3.9661279596760294e-05 7.418814226712936e-06 -2.5690797269633022e-06
0.141 -3.7110530500503405e-05 3.3793636858454906e-06 0.014112626864858566 -0.021755885852945748 2.0725183320390303e-05 -3.264979040926875e-05 1.7615166060585892e-05 -2.6012143142173927e-05
0.142 -6.408449799052393e-05 8.855054950983634e-06 0.011958141268418378 -0.0229331881208917 2.473330722697224e-05 -2.3120993411412493e-05 -1.0310173315030379e-05 -1.8392487197496057e-05
0.143 -3.3228040523308065e-05 -1.9646116367285075e-05 0.009780156534449453 -0.02395247066062315 2.42966591661648e-07 1.2680889068783074e-05 1.2696716100535266e-05 9.187723936152939e-06
0.144 6.88638234494409e-06 -4.895072506191476e-05 0.007427519084852342 -0.024709462728322473 1.2356662899282783e-06 -0.00010724026371186735 1.6214191750344485e-05 -3.6965715642466005e-05
0.145 -4.054977579423685e-05 -2.3863305994716678e-05 0.005071069899656052 -0.025331484822440246 1.180370368379615e-05 -4.119620551519313e-05 5.034173073205347e-06 4.5015025390177725e-06
0.146 -3.6317916806932934e-05 -1.0408636011466333e-05 0.002666247293065598 -0.025704757219502838 1.4875517332614123e-05 -5.1970689472077466e-05 1.862792136410587e-05 -1.242184279157412e-06
0.147 1.8451690802284395e-06 -3.5532370779790136e-05 0.00017393495765102547 -0.025769600387357844 3.785900395755424e-05 -7.800001984616987e-05 1.1882186909291613e-05 -1.2517348801496685e-06
0.148 -1.8458477710806769e-06 -3.215779056787532e-05 -0.0022620287308872714 -0.0256936951982991 -1.0716557968991901e-05 -3.181203669884214e-05 1.606269434257247e-05 2.3813923681448356e-05
0.149 -9.97410009839674e-06 3.372264756536202e-05 -0.004650815127779236 -0.0253247397703369 -3.31390389524778e-05 -3.881154427140634e-05 1.801034586494738e-05 -2.486211268387496e-05
0.15 1.8798169085916037e-05 -3.223122809653607e-05 -0.006975600069249908 -0.02478534908896674 2.5568985560279888e-05 -4.464455398445811e-05 -2.972560930761575e-05 -2.549340028382925e-05
0.151 1.586899519113532e-05 -2.764236486760717e-05 -0.009344349851855348 -0.023980543193650884 -2.545658488631984e-05 -4.655163773844653e-05 -1.838556665174433e-05 -3.077906336278064e-05
0.152 -3.315514612485714e-05 -3.2750747550874525e-05 -0.011508858263894035 -0.02298500725920372 -6.1957106320836516e-06 -3.4024222583489995e-05 2.062309004224289e-05 -3.8400272182734086e-05
0.153 -3.999760085421529e-05 3.4645099534878316e-05 -0.013599607029633342 -0.02172435149434293 8.339149173334588e-06 -1.9308185887542672e-05 -1.665360091177287e-05 6.728491522948514e-06
0.154 -1.7413687601550517e-05 -5.132352066250963e-06 -0.01560053378665014 -0.020371241580562548 1.2541879208860092e-05 1.0476617976731886e-05 1.4293283221740899e-06 -3.248290193511836e-05
0.155 3.4623466189814315e-05 4.941157639693681e-05 -0.01743005277632138 -0.018747741027583146 2.789769964572888e-05 -5.3814730480750605e-05 2.804015450061246e-05 -3.890825832652064e-05
0.156 -5.048384890753298e-06 3.524097425199659e-05 -0.019160325134560903 -0.017073101680328807 -3.563438643508954e-05 6.544151884852347e-06 -5.774348146461259e-06 -1.5678384092115614e-05
0.157 7.523881727007624e-06 1.283898223167473e-05 -0.020657431615302636 -0.015129338195770446 7.114598414687693e-06 -2.890419931119716e-05 -1.8816733577196445e-05 -4.703403010481489e-05
0.158 1.0315073083122567e-05 -3.383807215425113e-05 -0.021917854898716307 -0.013206210958305225 -4.563595635148683e-06 -6.955435438928284e-05 2.3077565335901186e-05 2.464640056426908e-05
0.159 -3.223138659178528e-06 6.001361849682787e-05 -0.02302183684567595 -0.01106574683547696 2.7264418232790785e-05 -3.464786755064256e-05 1.0157826390063057e-05 -2.4344581104469952e-05
0.16 4.0562204137559506e-05 1.2496674571876914e-06 -0.023953800462898498 -0.008781404528439816 -4.076912534860692e-05 -3.743991627074762e-05 6.698141868140346e-06 2.4437146674645896e-05
0.161 -1.7096137940011688e-05 7.394269234173172e-07 -0.02464907254878308 -0.006507532274272279 4.035287945657689e-05 -6.576936815933157e-05 -1.770126248371535e-05 -2.7326840476550138e-05
0.162 3.53727506119195e-05 -1.280707549273241e-05 -0.025165318121857117 -0.004101954789177277 -1.0683691180373383e-07 -9.272097725235395e-06 -1.170372053271587e-07 2.4879075974106092e-05
0.163 -4.616210602427271e-05 3.5190576999126804e-06 -0.025491002763374408 -0.0017615489979450859 -6.828942419344556e-06 -0.00010216161961643799 -3.7281605884122846e-05 2.9489489091514418e-05
0.164 4.111125865108058e-05 1.600988524571815e-05 -0.025460810868176153 0.000638923098755501 -1.1508030411869143e-05 -8.741216933032114e-05 -1.071515195533205e-05 -3.2663673926863513e-06
0.165 8.164496778743506e-06 -1.4925317746520966e-05 -0.02526834515075226 0.00312005102900353 -4.855673708410533e-06 -5.3162118972117365e-05 3.546881759445006e-05 3.131555338265843e-05
0.166 1.866024482757029e-05 6.190274285890598e-06 -0.024833110445979766 0.005445006258599804 1.3725574152339856e-05 -3.306969166896927e-07 1.3501102816849317e-05 -7.331096645426226e-06
0.167 -1.0639634789181106e-06 4.31015172687376e-05 -0.0242644165884639 0.007748867168246178 -1.0515255396492563e-05 -5.469330077678398e-05 1.8464473515556248e-05 4.714010083306169e-06
0.168 3.253457533157986e-05 2.8520286831300578e-05 -0.02342354232871082 0.01004841778512195 -2.0696281082270242e-05 -5.0875236410513924e-05 -2.4150518244152054e-05 -2.311909168630085e-05
0.169 3.902267335108696e-05 -3.903065550490783e-05 -0.022319945500319727 0.012205576750689895 7.107712502312908e-06 -3.91233450685065e-05 -5.264116821023294e-06 -7.413110296026119e-06
0.17 -2.102174012986671e-06 1.0701739070731049e-05 -0.021050538742805814 0.014299218759847796 -3.1516206437800543e-06 2.7297339306219162e-05 -3.868702090981634e-05 -2.4609286202299332e-05
0.171 4.627173314635504e-05 -8.524576329229878e-06 -0.019607442891075938 0.016230597093108493 3.66483917754644e-05 -2.1332549399966427e-05 -1.2610633899794536e-05 -3.582854658969376e-05
0.172 4.041921062462779e-06 6.4959867249784466e-06 -0.017925469583479126 0.018018590899922984 -1.8068825618317996e-05 8.624437055248e-06 1.570109053945361e-05 -5.1696113344276084e-05
0.173 1.014186155531587e-05 -7.828365112712704e-06 -0.016209313057954554 0.019581730620518135 1.8617559841954335e-05 1.1682134185210792e-05 3.0290717311358948e-05 6.9768510415301975e-06
0.174 -2.307365227472237e-06 -2.4014385780130874e-05 -0.01424918870081896 0.021069471296291102 1.3828893418878556e-05 -2.619548829850151e-05 2.496136510987764e-05 1.1756425550776455e-05
0.175 4.3752249276824406e-05 -5.224670547463105e-05 -0.012200801746183746 0.022282335060227112 -4.303725025644063e-05 -2.8258430334444866e-05 5.1699029396761664e-05 -1.439816031980233e-05
0.176 3.870299219810551e-05 -2.6044116824272732e-05 -0.010049367143956482 0.023320363470659827 -1.1748355938759835e-05 -4.310553297085291e-06 -7.021345470457063e-07 -3.563107229196739e-05
0.177 -1.0567334782569617e-06 1.4406107759648166e-05 -0.007820131238242978 0.024174395502543692 -7.439453006855287e-07 -5.0749765184286415e-05 -3.4707909354183086e-06 -3.355364144592788e-06
0.178 1.7977876373536573e-05 -3.103833248078251e-05 -0.005559112913582168 0.02477165362603961 -1.645222100800174e-05 -3.363887081255361e-05 1.9103244308423087e-06 -8.04887981542384e-06
0.179 3.337552609896855e-05 -9.899895758561955e-06 -0.003156350296114956 0.02508410313863471 4.273951397252461e-06 3.153310529397621e-05 4.808555013532188e-06 -1.4055270465807147e-05
0.18 8.280493315389413e-06 -1.3786436123450637e-06 -0.000774634718279709 0.02535399861247529 -3.3922635550604506e-05 -4.076491833349208e-05 2.4674703435564797e-05 -4.176877639320093e-05
0.181 2.7680764327771294e-05 -6.702974571178095e-06 0.0016119846270864185 0.025307868032577382 -6.129776331026429e-05 6.071061607692136e-06 -6.898901890461959e-06 -4.801281950273502e-06
0.182 -2.1444739126101456e-05 -3.381901587279743e-05 0.004044359560703088 0.02502684444283554 1.0742362369438835e-06 -5.749913506797858e-05 -4.542426100084618e-05 -3.4939603104519375e-06
0.183 2.0448992490033712e-05 -3.315876887174556e-05 0.006328650488566991 0.02451934262376333 -1.7591304919103616e-05 4.739293927811208e-06 -1.4373913430999934e-05 1.2867994038872283e-05
0.184 6.121993890804806e-06 -4.196073729608291e-05 0.008635634823733343 0.0238069820386437 -3.083189001261583e-05 -7.215589190395678e-06 -7.535386505954135e-06 -2.5426306721807197e-05
0.185 2.690718627520382e-05 8.112650509629996e-06 0.01081031065715045 0.022908992415721776 1.997391679772587e-05 2.1349260406828067e-05 4.879818199035935e-05 6.9934700770397375e-06
0.186 8.054018996970265e-06 1.959509533187719e-05 0.012915098568025068 0.021735299141217915 1.1824908381746485e-05 -6.450182590339697e-06 1.5634365141121467e-05 -6.329395610347267e-05
0.187 6.114371263492168e-05 -5.8400699096051045e-05 0.014917917119277492 0.02045639883116062 1.7870708112332314e-05 -3.9911041504357905e-05 3.589517951869292e-05 2.0494687437109885e-05
0.188 -8.563458289062547e-06 -4.651856377097017e-07 0.016754548142087274 0.018901188513501397 -2.2774438362184203e-06 4.010705865716625e-05 3.1137247921633666e-05 -4.909329975635523e-05
0.189 2.5491613817458904e-05 -2.39548652296453e-06 0.018441969743892103 0.01720564414483643 1.8467028188491483e-05 3.013545110564474e-05 6.636866482673097e-06 -5.3539865343982055e-05
0.19 -1.0672157976841981e-05 -1.611193591128789e-05 0.020004442578364975 0.01539550277445764 -2.2122393513793863e-05 7.39311048140742e-07 4.179480815424035e-05 -4.930309058952827e-06
0.191 -1.467235001806155e-05 2.134216691445452e-05 0.02138453917417645 0.013453942585066311 -9.271339665113987e-07 1.4957671091159649e-05 2.1937169209506663e-05 -2.9277385050879786e-05
0.192 2.6754895513787146e-05 1.9321761237591083e-05 0.022430044841509175 0.01138729583845137 -3.817783475250418e-06 1.4643153422884559e-06 8.646308564631616e-06 7.02950333478311e-06
0.193 1.552732029293713e-05 -1.5327476908229292e-05 0.02352361120050226 0.009208813443944275 9.842589749930142e-06 -3.935743163809816e-06 -1.4172937564331341e-05 -1.9924267821502634e-05
0.194 9.636946502040807e-06 2.008772151684713e-06 0.024184254727454328 0.006986499831543963 1.5322900257364644e-05 1.4152723686435267e-05 -1.754647704760751e-05 -7.589045891914536e-07
0.195 -1.1852163047404272e-05 -4.227825057271277e-05 0.024804341708464385 0.004622361946033225 -2.7133575922659432e-05 1.1776024842450346e-05 1.5687110944220042e-05 -1.1385918863186777e-05
0.196 2.451752508469876e-05 4.1567396006430024e-05 0.024982681129067565 0.002299772681610355 -2.9826526679974578e-05 -1.4151713052423602e-05 -3.813881036424958e-05 -2.755778617573351e-06
0.197 -2.3979596588352957e-05 2.8800365165163832e-05 0.02514259156393885 -6.267353998766888e-05 -1.613665868418821e-05 3.0978477928674858e-06 2.30951669902218e-05 -1.4428725472851838e-05
0.198 2.3620389672501746e-05 -3.4737235180505177e-06 0.025024856936158236 -0.002489606717956937 -1.678531835773885e-05 -1.205245373961875e-05 7.211511586941575e-06 -2.513659334014423e-05
0.199 2.9405483729071888e-05 -8.866651373723565e-05 0.02467218002701243 -0.004796440594618854 3.034282668896385e-05 3.837117593631036e-05 2.7742930158713748e-05 -1.4956150898758064e-06
0.2 5.717468104088061e-05 -5.2386289380005115e-06 0.024041057506357513 -0.007078963023276285 2.0359498538175304e-05 1.6036634735077632e-05 1.2434017521590965e-06 -4.87537848490467e-05
0.201 4.087355405530445e-05 -4.229117010080978e-05 0.02325830357146244 -0.009309004093387847 1.3653952794497063e-06 -1.8057087212825622e-05 2.1876456900287717e-05 -2.307817138240874e-05
0.202 2.0361701907317764e-05 -1.6784891759371537e-05 0.02231952865823035 -0.011479914416217263 -7.796695258234236e-06 -2.289138669997504e-05 -2.4068050324331983e-05 -3.445266499642199e-05
0.203 9.79775656369064e-06 -3.388095985086548e-05 0.021101577395244688 -0.013510026659781058 2.273769320032289e-05 -1.1006670157747556e-06 3.5520816862781835e-05 -9.605104039327467e-06
0.204 4.205066287320683e-06 -2.1057749581814217e-05 0.01974122535071531 -0.015437628860940269 6.349690105436318e-05 -2.153015701320555e-05 -1.3029232792935645e-05 -1.0908626895732323e-05
0.205 -4.287632119238576e-07 -2.994547064500762e-05 0.018197416527334066 -0.0171652507128118 5.916492887585251e-05 4.3155548642131146e-05 -2.676694920839678e-05 3.45164885608571e-05
0.206 -3.8390972617161144e-05 -5.7261570596924574e-05 0.0165037215227022 -0.01879690272411823 4.09581614826506e-05 1.1571746805582886e-05 -4.264607093157658e-05 -1.2803308638084675e-05
0.207 2.9152599973532493e-05 -3.833490286905138e-05 0.01463985755126914 -0.020331659617818326 4.440049636839199e-05 2.492316357114258e-05 7.114984838108222e-06 6.089658929650361e-05
0.208 4.8799127910230007e-05 -2.9908720570997045e-05 0.012718294442923175 -0.021539298098637676 6.0041001787157936e-05 -2.101663966124571e-05 1.2923101864430248e-05 1.1651177898961698e-05
0.209 1.7858742037503367e-05 -2.427979801859634e-05 0.010574533975151935 -0.022564600688939784 -3.6710815983345194e-06 1.5930930138223077e-05 1.1522155388745556e-05 2.263829848358112e-05
0.21 2.7682135171563955e-05 -3.956001217317857e-05 0.008429313945371207 -0.023437382546850856 3.800961729798644e-05 1.5006073163863487e-05 3.396781232584789e-05 -2.1568325614054766e-05
0.211 -8.714321421031604e-06 -5.291653978567098e-05 0.006142909415715272 -0.024215441178259568 4.4282396106731454e-05 -1.5237053562106915e-06 4.201202333710849e-06 -2.8482734619037872e-05
0.212 2.675865199520012e-05 -5.6897246972283886e-05 0.003883251387434106 -0.024593842880929542 3.026373446945238e-05 -3.012991701555264e-05 4.635861586694248e-05 1.085681091413437e-05
0.213 1.997499583068186e-05 -5.623700343792215e-05 0.0015119924230709294 -0.024887928991552274 3.2423726652585233e-07 -3.3490652925602697e-05 -2.6779459069543575e-05 -6.3558477798685865e-06
0.214 2.5115861147426086e-05 4.607587642025004e-06 -0.0008400467755704147 -0.024933018969694933 2.3809626532563862e-05 6.85541714022842e-06 -6.8539274846754705e-06 -2.0982211667487747e-05
0.215 8.278943461911593e-06 -2.88717915892098e-06 -0.0032133929477455875 -0.024747039036010193 5.103895993799856e-05 4.565413736366501e-05 -1.4638095343632408e-05 1.1633893443161554e-05
0.216 -1.861590769860516e-05 -4.2733959594476016e-05 -0.005496009816722736 -0.024327391014685274 2.8654067976693217e-05 -6.903763606052084e-07 2.2851465392839008e-05 6.165665885812468e-05
0.217 -2.959507097013717e-05 -6.0689388772454206e-05 -0.007714347612145586 -0.023627165854872074 4.4025253931747326e-05 -4.627274540250156e-05 9.724431345992384e-06 -3.501880693643514e-05
0.218 1.8158645682539022e-06 -1.7471564809130827e-05 -0.009954841632304843 -0.022805224556900712 3.986504997155125e-05 -8.409464702361247e-05 -3.192798925984716e-05 7.444562959797688e-06
0.219 -1.4160922597152441e-05 -1.1964921657340648e-05 -0.012070613581083139 -0.021807509594623888 4.051511141102366e-05 -1.3285653857373492e-05 1.7575765220130071e-06 -3.054715123238484e-05
0.22 -1.4971072927706069e-05 -2.626871952927594e-05 -0.014030407061064006 -0.02055516177396244 4.668249217287703e-05 -5.9717290234735806e-05 1.4204658968347398e-05 -3.369376516107962e-05
0.221 -5.71269897001536e-05 1.5426928409462768e-06 -0.01587835971502985 -0.01915000388615296 7.27199793800657e-05 -2.3003490708548407e-05 -2.1345235033286185e-05 -1.4872476364103123e-05
0.222 -5.127207983710675e-06 -2.0298604373919615e-05 -0.017599213250265647 -0.01754649842750028 4.663244462516952e-05 -4.6731608948521865e-06 -3.723303465545151e-05 -4.7296166328758535e-05
0.223 -2.2862889656041655e-05 -2.0846979169316978e-05 -0.01925856149903339 -0.015800698844099653 3.320025502784811e-05 -3.883764012340401e-05 -3.66215474154925e-06 -5.4898663982394324e-05
0.224 -2.6822705844980753e-05 8.557799502291383e-06 -0.02065382667477522 -0.013898426045014073 -5.147620121368923e-07 -2.6676494359091152e-05 -9.703039174604506e-06 3.5256253645676e-06
0.225 3.341936357602286e-05 6.4402219467492425e-06 -0.021794474993320635 -0.011918225215565875 -2.575460816440991e-05 -3.384028968775356e-05 2.926345880472478e-06 4.452818512374773e-06
0.226 1.6040683306786532e-05 2.9314088354870567e-05 -0.022834075640931376 -0.00980660509980124 5.7384850510682435e-05 -3.227982868081964e-05 1.843234306705536e-05 -4.9156457883315595e-05
0.227 5.831843141725583e-05 5.803286180631766e-05 -0.023651911519111016 -0.007610165705117504 4.8221561214501207e-05 -4.737427313860109e-05 1.4075960769845134e-06 1.0863402972608757e-05
0.228 3.317158676130888e-05 2.5583049993692907e-05 -0.024294472338135083 -0.005323430529405415 2.9684800372982563e-05 -5.5709817989130584e-05 -8.720664958023353e-06 2.5521662668700935e-06
0.229 4.9501436842413635e-05 5.484894063453084e-05 -0.024627783275488743 -0.0030000533058176224 1.66795240166196e-05 -7.272181656308639e-05 -3.0229047543065667e-05 -4.7629050357693825e-05
0.23 -1.1799169417645974e-05 3.59137826535883e-05 -0.0248254908559906 -0.0006737905627123544 3.9875492776817344e-05 -6.317496884230254e-05 1.3405041733011779e-05 -5.579336963594109e-06
0.231 3.617937447855315e-05 4.358552217632154e-05 -0.024754592843811447 0.0016258916503327295 -1.1240506163887231e-05 -2.2895714832120393e-05 -2.86713995300881e-05 -5.6680964226354515e-05
0.232 -1.1296178082149289e-05 4.9717175654178084e-05 -0.02448449472647293 0.004004690611209513 2.138157618006938e-05 -4.458020881571566e-06 1.9369676231568602e-05 -2.6096527731711804e-05
0.233 5.0290378510377285e-05 -1.731540722243372e-05 -0.02400519034478448 0.00622562802928744 -1.573713083781527e-05 -1.5176449678911383e-05 -1.269751301465615e-05 1.2583754708553107e-05
0.234 6.869324979749896e-05 -1.1424908136898254e-05 -0.023315556691930348 0.008471770193119314 2.4013937513372346e-05 -1.5363090646302024e-05 2.8555075075883536e-05 -2.132308591663543e-05
0.235 4.654461166826498e-05 2.7120631595299852e-05 -0.022366959433627626 0.010653521593800008 1.4224769028740333e-05 -7.319183347392116e-06 6.879935238873456e-06 -1.71969847910534e-05
