!Created with skrf (http://scikit-rf.org).
# GHz S RI R 50.0 
!freq ReS11 ImS11 ReS21 ImS21 ReS12 ImS12 ReS22 ImS22
0.13 -0.9010936188229095 -0.6068425351151778 0.002595391140859131 -4.902125834155838e-05 -0.09415900314016175 0.13282458543762907 -1.3396137755388284 0.071116634629669
0.131 -0.9291034513931984 -0.5174409192163515 0.008147884188788077 -0.00022709261054524495 0.4966892396468987 1.8166362572265748 -1.0937159910845704 -0.563626758700124
0.132 -0.8185052299299739 -0.5804104138218361 0.00923852811603894 0.002626107734884092 1.2049970645685646 1.1232842058164783 -0.38320555765606606 -0.8495592348314576
0.133 -0.7657214951017906 -0.4311876135934905 -0.009086382815040197 0.0003957900088687391 1.5894444659257716 0.26525683129270494 -1.4061403129882162 -0.29401954188930385
0.134 -0.8054662539681491 -0.4086396990358371 0.006043606030221351 0.005066416008980926 -0.20126198997440647 -0.15905332340204023 -0.7908600760595111 0.2339818437285372
0.135 -0.8240983344556521 -0.46282272598065777 -0.003302107633453528 0.008889382264921033 0.11762494050894351 -0.5793769372706937 -0.3273561015049482 -0.3406530428236811
0.136 -0.8842213323997336 -0.3415689345751304 0.0038485320970500993 -0.0022768115201545515 0.0479928198929643 -0.831559920855263 -0.8495387999494509 -0.44372791645225124
0.137 -0.9437767734082453 -0.4085798138434465 0.006953965597044312 0.0041098936357113446 -0.09174637078379559 -0.2654202321921097 -1.2277627499899642 0.6163015107505954
0.138 -0.844012638716066 -0.3404722818612248 -0.0031550365684407684 3.1628286011046934e-05 1.4332306183497552 -0.9513177722967552 -1.2629281519862157 1.1504657481960197
0.139 -0.884683623269688 -0.5646598729198504 0.00293935339615471 0.004622097031248497 -0.19006804001404787 -0.1626679192124304 -0.5479200340153267 -0.35245122660491235
0.14 -0.9020605834378734 -0.35484004647469797 0.0038399448011563137 0.009498195847474513 0.2270117019952725 0.4098639948851867 -1.1020502373077634 0.0750848565483779
0.141 -0.9578278400693527 -0.3388063210983269 0.010358203882909662 -0.005210455569870675 0.6211172770390223 -0.2041070873698065 -0.9911628082371389 0.23518808045071676
0.142 -0.9289835386292479 -0.3434416544351886 0.006243847341984972 0.00447322365843453 -0.309175834876503 -0.5579896709359659 -0.3280425122616107 0.30201939209704515
0.143 -1.0087068710280596 -0.2972196245047776 0.00028764024481776266 0.0014830312494624309 0.30345187752337577 2.325016487711798 0.4688162354591814 0.708106543920021
0.144 -0.9843848994337968 -0.34119921492843935 0.003965022575612393 -0.006653041757183891 0.3472312054758674 0.33045947577976337 -1.0266055544243677 0.5038316544807343
0.145 -1.0285419006281102 -0.30004750986098155 0.00229974798181455 -0.004149241517728487 0.5006148673768073 -0.5507419314396994 -1.018871173954031 0.0685468644320265
0.146 -0.9561189116870761 -0.17397974778790973 0.0004827238536659919 -0.0020024791664131777 -0.6392620668450627 -0.7546701650073471 -1.5487802422823413 0.47088461625273653
0.147 -0.9487835181304235 -0.22496311542633676 0.008042093034628743 -0.0029529727259524066 0.051809236551837404 0.04116147285032828 -0.2739486777506891 0.3039307828428684
0.148 -0.9670979472316531 -0.25394352639191287 -0.004314119016204737 -0.00041980061701740783 -0.21782599060437266 1.0701652145934604 -0.7715852436010159 0.5784325264103092
0.149 -0.8418131655440834 -0.24125571541868104 -0.003182790435859981 0.001526016838611774 0.38816833583065224 -0.326891173972338 -0.3199558582840635 0.6650046728049168
0.15 -0.961420692869602 -0.25487231684988054 0.0007917692251200716 0.0014566668037625788 0.2974504365838044 -0.2600820955263969 -0.9310617417592709 0.526992044937736
0.151 -0.8897496809657629 -0.14199208318062218 0.004892019660538205 -0.005432904962909164 -0.3372168638747191 0.1168858232437044 -0.6658964178557806 0.5589773028656604
0.152 -0.9264790051818218 -0.038485958651590574 -0.005157996312030706 -0.00590976771268803 0.43113595901635465 0.8351629903684713 -1.3483713530050074 0.4043148660719228
0.153 -0.9945687122421883 -0.11872745200914675 -0.0016963432103466328 -0.0058591407579769396 -0.835289097047744 -3.575778875782511 0.14207934996997584 0.24828390494384314
0.154 -0.9903628873843062 -0.12027969015046477 -0.005051458325245306 0.0056843532831142365 0.15545921287362166 0.9183368894056461 -0.9992523521002441 0.8832655407188245
0.155 -1.000847006124542 -0.10630429477993619 0.012120138603023863 -0.0035408175242417636 0.49506888631951934 -0.7459018907849241 -0.9895915819416763 -0.45613889627792226
0.156 -0.9471750535164267 -0.026080792106553903 -0.006056725051427606 0.0050345067111989454 -0.9527624054426288 0.34483257010317997 -0.2010019254428876 0.5222249349565429
0.157 -0.9481067163719559 -0.026661494346944193 -0.003191025710803462 0.004754922683303092 0.0069091444015566715 -0.610025557770166 -0.40502441924243215 0.4407084623950615
0.158 -1.1014135015996356 -0.0007793777340873135 0.006997466204375581 0.00608984964610203 0.011119551099202119 -0.07763767925242246 -1.025186897744101 1.2598401133728607
0.159 -0.9191716393347192 -0.06844136186343636 0.006354688245256618 0.008653862405010176 0.0019007609638542408 -0.6340575179635404 -0.4964026138135259 0.08291852670614291
0.16 -0.9571607342772751 0.09769450115487824 -0.005139948918197274 0.009008734247515379 0.6832774147145835 0.3644843290569006 -0.738633866793488 0.5994315034077466
0.161 -0.9083142761995967 0.04694093424996877 0.002849042149655145 0.005563192600851797 -0.572690808855777 0.5084694486569448 -1.5730992817467486 1.2047565403984888
0.162 -0.9229180291537927 0.07833212881880183 -0.0008167891739943884 0.00312495441016209 2.129240365901356 -0.1030930534836993 -1.310639213135632 -0.3897023951235292
0.163 -0.9763167587142577 0.10431252038194634 -3.5796577689378267e-06 0.0011747285538646719 0.19541564992690577 -0.40159287974593316 -0.6968569182412423 1.0309935845709772
0.164 -0.8762266156934058 0.06564715352237996 0.0018615060114000115 0.007299214928541531 0.054275530586584124 -0.8725861618129385 -0.7514951450226515 0.6199225325210665
0.165 -0.9916884797619725 0.04714513857358043 0.0021617226968631566 0.004556333136327518 0.16646455065161572 -0.42680692316519914 0.1523144420231182 1.2351254382607182
0.166 -0.9142003248116308 0.14127414184813883 0.004746233749830491 -0.007700224419442996 -3.9393723667652463 -2.0407162312064013 -0.8415278673717241 0.7005375832958576
0.167 -0.9364252887974659 0.10936640158452038 -0.010790322932024197 -0.002852331767713661 0.9407355748124 -0.6502932508422095 -0.4473844987339986 0.9897926558202722
0.168 -0.9215197284029932 0.1976144492537227 0.004759001842593896 0.004038253897641713 -0.14474909923256307 -0.6799768158853848 -0.2008143685739183 -0.06133401467548823
0.169 -0.9299181122364333 0.17467469603939026 0.007252473068765967 -0.003846218837282211 2.153961862369031 -0.8842658510719152 -0.5402512379819917 0.1414061840186658
0.17 -0.9565661948110173 0.2496021943401145 0.003645693252439424 -0.002342782979408973 -0.39606460842803676 1.938069776010015 -0.2708060239705453 0.05630528215725068
0.171 -0.9173136308055122 0.18928186739456032 0.003618179271032791 0.005557013311888432 -0.7261619931757222 -0.8705301649959292 -1.175926734427048 1.2680918605433504
0.172 -0.9171823473022331 0.34154160301781933 -0.0018017345202457164 -0.0022156833197952744 0.5621719116370427 -0.39547976735480206 -0.6340086241980776 0.6092804721507893
0.173 -0.9857909108226889 0.2402992418386166 -0.0031375980751336134 0.004720686964313249 -0.9041300620948726 -1.1627932594953814 -0.1633085853966399 0.6976490709216523
0.174 -0.9386190569266339 0.281369617337352 0.0016864986069494953 0.014891173497497544 -0.33828665009450054 -1.1541916243006165 -0.9323440401422719 0.7092108330324015
0.175 -0.9069572143897038 0.3622618491344718 -0.004856829537293221 -0.0007641601599696933 -0.09128439546213107 -0.017359444156665942 -0.7675699772477432 0.7866193104439351
0.176 -0.8877885826358738 0.2831809196851803 -0.0033826875162814365 0.008160090388957235 3.917303539354081 -1.2106891120404748 -0.3230648155671565 0.6832612583085476
0.177 -0.9454993318857647 0.31223883113112794 0.005967818474658954 0.00890696981823399 0.5140697349800845 0.19553119634566782 -0.752782074390607 1.4072239241063016
0.178 -0.9235181520913566 0.3360498916560322 -0.005200983985906077 -0.00670293572779554 -0.15878228782881704 -0.8080479340390164 -0.9418516900622055 0.5859624740569569
0.179 -0.8627595628939015 0.3515962609074106 -0.0008463319715273411 -0.0013692064387744937 -2.2964308959167306 0.6329684894066937 -0.47770124416654786 1.115170538064997
0.18 -0.8791031425195365 0.3739549236957711 0.007316498409847559 -0.009098851272310669 -0.21422295340525524 -0.1499725803059336 -0.24070578219461303 0.9823382525084196
0.181 -0.8865739879047767 0.3974366076227026 -0.004233404347350235 -0.00304141519004251 0.6190021948966193 0.23137368496441338 -0.5653280801849401 0.841566906886534
0.182 -0.8922341384477385 0.41818338464129895 0.0017379528115620143 -0.006709813495025793 -0.06652904738439425 -0.2005687088939463 -0.7145478136092299 0.7259854040096447
0.183 -0.9079712305591157 0.48078212403934156 0.0026580521974189216 -0.012078702254086795 -3.2503678742610598 2.9069790284762265 0.006722698595014524 0.5256909431301393
0.184 -0.9216630699932781 0.5114821704615606 0.004773995821796611 0.0002778383492754789 1.4584850211230624 -0.08763118541114115 0.04827857119251877 0.3212074870611844
0.185 -0.8121519311196553 0.44337101696641484 -0.010409250346298898 -0.002275816128019474 -1.417143975540216 -1.6317348671047058 0.12277059885021517 0.6292302082181603
0.186 -0.9484923764087788 0.5003156698062546 -0.013272370858114805 -0.005806404688521028 1.0710862701433537 1.9946853957581712 -0.6675570150412921 0.41043398163661077
0.187 -0.8235867447844315 0.5216338504686879 -0.0030787440636845403 -0.0068486382003811255 0.5649456908706857 0.24756943143412397 -0.7056012408959894 0.6821276962785295
0.188 -0.8093282194377981 0.5655143335033951 -0.01109501583930203 0.003680638606971096 0.5886762359702101 0.7087442587641042 -0.3345928088575645 1.468791529120402
0.189 -0.8255334640400026 0.514249460277563 -0.004261775800993381 -0.004163638559670602 -0.6614165765228781 -0.5367620427895907 -0.40259190287263924 0.5832803944447101
0.19 -0.7744338518059041 0.48486741554072854 -0.0016185226428880155 -0.0004064827190858627 1.7835062985814951 -1.8959497529466474 -0.2877155988136671 0.9008381375130748
0.191 -0.7590849372734471 0.6106127329245911 -0.002447905848983849 -0.004506753576133126 -1.6418446725222595 2.246405254583205 -0.8664066156600853 1.8134549379456828
0.192 -0.7622252295405795 0.6244246500324758 0.012138502145096656 0.007375883128354067 -3.0523405219846675 9.31971770840425 -0.9063647292337388 1.1787891579851446
0.193 -0.7596938614473367 0.5914958666502336 0.002618773692119205 0.0021653516965148643 -1.3959062908658721 -0.3973151517028049 -0.23485159575095024 0.9024964242365365
0.194 -0.7304037586797731 0.651013143791412 0.0008296343715661877 0.005685696483086608 -0.5229888084205772 2.270742108829218 -0.5248368474657388 0.5746112554258613
0.195 -0.7156463004130666 0.6321724318957458 0.003790995578672103 -0.00035956895551599944 0.8581439420353097 0.8363110447321536 -0.74652893472662 0.49431607767124147
0.196 -0.6775214590368456 0.5883890747809727 -0.002942032781737648 -0.0008802111803528527 0.17796731425916423 0.0692239733578495 -0.6278884319886809 1.058292042045485
0.197 -0.6639453312471985 0.6423162897978549 0.00013431898810183836 0.00503673372547474 0.5197523432801684 -0.4962345587270415 -0.30071965505297704 0.599165479933638
0.198 -0.7633991483447832 0.643631538598626 -0.006480808032761546 0.004146851658591947 -0.8901756794157009 0.6034499512251363 0.12281364839227545 0.6963885309182857
0.199 -0.7051923614236268 0.7008083312598055 -0.007760903978230728 0.006724480249429326 -1.1939357011894265 0.9735716295579688 -0.24141538524537975 0.6733794425334262
0.2 -0.6699647357572515 0.7407162245998025 0.009914123362371826 -0.00499542099496647 -0.0619338493089892 0.8258232367561854 0.08986203771665964 0.43418591933996603
0.201 -0.6542333750151225 0.6895227373033554 0.0061192436430704995 0.0036962311331357536 1.3626128892305926 -1.006342003220969 -0.07998188842095348 0.8388961879001143
0.202 -0.6040579804909506 0.7414659527153152 0.0020839285767847624 0.0014938627166685107 0.7489025102935878 0.5969648962640969 0.11576310346346044 1.1320709437192547
0.203 -0.5825796499169581 0.7183779269427747 0.0029712411035883986 0.001602313598625912 -1.282137472891795 -2.0964044706324505 0.336984200280407 0.8865392159440609
0.204 -0.5688428920907657 0.7110740964588855 -0.0027631079171216585 0.004942820155318567 -0.7491595868605042 0.10919033725201206 -0.47815481341718175 1.1822277769802796
0.205 -0.6447271388947644 0.7457754312786764 -0.00344364846727323 0.0014359101707498011 -0.11206417519600226 -0.3716835223274588 -0.21378495158573624 0.48731822457164387
0.206 -0.6017187676121328 0.7663987245181243 0.0069087630602441665 0.00022807411722649456 0.0715818223530728 -0.5243701458214428 -0.5563658445780988 0.702155044777962
0.207 -0.5395280650233306 0.7687627941136498 -0.001019384397558528 -0.007095217570510273 -0.23592322442157257 -0.19181425912292427 -0.08663123450539123 0.9747061256790335
0.208 -0.5237902955234482 0.7810350048348048 0.0061243894079290595 -0.005280467578554033 0.41679533350414577 -0.4553382707056523 0.764281985270923 0.8506912034578358
0.209 -0.578306345009769 0.8050866165415549 -0.00018153703140336313 -0.003447478810802466 -2.249699699363624 2.0476866540010206 -0.07501153431434461 0.5315190323015824
0.21 -0.4721242878653701 0.8707968545681327 -0.00026898826035856127 -0.00507608174421545 0.5456163097536856 0.18591825794265335 0.43291965077521166 0.9010145352397829
0.211 -0.5010552754899323 0.8626114741237664 0.002166415369059178 -0.0042664066764100195 -1.0202709295617682 0.5416325409999406 0.10517263891598214 0.6343305888542239
0.212 -0.47092116646482146 0.8836888450388474 0.010791750890294168 -0.003964318947894123 0.26026302769436055 0.4087000190874462 -0.21812904754172924 1.0579574601966775
0.213 -0.4774040152786056 0.8566176320121239 -0.00857652046094384 -0.005560494958657601 0.631417621114056 -0.3127412480885335 0.02705676924522359 1.0791510448618171
0.214 -0.4757141119931255 0.8156524005615479 0.002122979272394972 -0.009135898446971978 -1.8851143170694031 0.6197361207200216 0.06075211049247842 0.8147294100284957
0.215 -0.4530403433688996 0.862507165487981 0.005378174772986308 0.01689985848887776 0.09014869828244994 0.10023069217130869 0.062025093035151004 1.4759069150936799
0.216 -0.42888306004443527 0.8660830386081798 -0.0071315155183155005 0.004082044834838483 -1.2486522566796652 -0.26091015856044514 -0.10667813198339597 0.6493825585463695
0.217 -0.3765224686701147 0.8821356226732632 0.007793623176639934 -0.0011318924685589894 0.2052652522906537 -0.11412159304106163 0.15551788921503792 0.5545096696088185
0.218 -0.3672568788119464 0.8551710340352304 -0.003949929988842275 0.006375160750477489 -0.17032183748751353 -0.3654002804796274 -0.07305259857045424 0.935403245374241
0.219 -0.3327263735019485 0.9088225349995613 -0.0005804570551160552 -0.001972734531622802 0.20009160198851672 -0.8021863175747943 0.4169631447607935 0.7010845236595511
0.22 -0.33011286004760493 0.8852018235137165 0.00037517354409152695 0.0017886367207162902 0.1400756547447652 -0.2582152547395139 0.058233235298845436 0.5249305064107709
0.221 -0.2935887159712595 0.948722364952629 -0.002360008944754446 -0.005532465895440598 -0.2030151374094884 0.17554729804829663 0.3865483432411298 0.9709783869934452
0.222 -0.3022292348431591 0.9067418547569397 0.008473657977200904 -0.002128260856472457 -1.2947530226255872 -0.1307574034381271 0.5300252899971238 1.295046875188066
0.223 -0.2845247620789587 0.9424348979504751 -0.00666055855342821 0.005628192628384659 -0.05369997269384321 0.03391641936581551 0.9956867505493883 0.6818208846155144
0.224 -0.26012471752025534 0.839068583658655 0.003265249732959362 -0.004348304500323267 -0.2245786939205376 -0.3346028311918478 -0.18332080827956818 1.11656873249869
0.225 -0.2505307030216133 0.9404785340690452 -0.008306607591654318 0.0006082678457208095 0.22660973005895502 -0.13885228654604226 0.32736826574915245 0.9047963750731296
0.226 -0.22330875064432723 0.9441765241891728 0.00939728465223665 0.0022459387592757445 -0.20214053697294948 -0.12460519889812093 -0.12052835443846788 0.5972158743552891
0.227 -0.19938929115318216 0.9806739139132794 0.001352762810667715 -0.004717112407326639 -0.8553472215179192 -0.19966516556830013 0.5219298992759167 0.5004279875975058
0.228 -0.16852101297089114 0.9492433731653711 0.005600104689883567 -0.0010785491270986951 -0.08545050044196577 0.8107404597187545 0.4004146119842695 0.7857678583954844
0.229 -0.1602435494764821 0.9397352289776482 -0.009499036486604108 -0.0031644675147607746 0.186928418174308 -0.11511454819590636 0.3462930542853866 1.1295906354061824
0.23 -0.11676050163459667 0.9416190833663376 0.003201408668291219 -0.001840320612365151 0.1221942518248201 -0.13156286352810004 0.9067155425389358 0.39204016694609956
0.231 -0.11739116795908126 0.9779964510847469 -0.0005990599228728987 -0.0006910686195149645 -0.18338340394893785 0.35488087424088943 0.2980670756214999 0.6818832624809069
0.232 -0.08581707929738813 0.9364933086046882 0.00012448508485815755 -0.005069998287718045 -1.6884984552668207 -1.0613636263430064 0.4909446465472973 0.6749133019326086
0.233 -0.07467346517576484 0.9524784515937763 0.0008976531414100569 0.009439737444269722 -0.3046717719352359 -0.731662172727158 0.6348096455215648 0.5960431267714539
0.234 -0.08729374091268177 0.9511081963894732 -0.0007653933036025358 0.002853946410271051 -0.22040282032522532 0.4230887142537448 0.5603507743268137 1.1077941984582438
0.235 -0.04147799598362819 0.959543663878479 -0.004155504624839224 0.007931004411379282 3.2563666105603706 -0.6092673306834948 0.7809259946207977 0.5434801298145409
0.236 -0.044967777313007926 0.9713198840651491 0.002354309845143345 0.0008003358862135946 -0.7813794391497274 -0.85502596633284 0.6658589999309852 0.8499770383075891
0.237 0.010792404169387572 0.9361144410035774 0.0009133183883262923 -0.002854945054990403 0.6877676615742679 -0.42551890708429935 0.7305136843271622 0.8507201780302374
0.238 -0.013455333480128695 0.9727195133307469 0.0005129858283670734 -0.002332759805995359 -0.3611677260001518 -0.12594384791703503 0.6332743035537988 1.0872604389647789
0.239 0.011507898766172637 0.9441015337036444 -0.004109035711504971 -0.0044723951212419545 0.6635366057413108 -0.5032373527799707 0.3764239501778568 0.12329579988591939
0.24 0.025840488362330313 0.9579884561107032 -0.003760446683856809 0.0023880106073980514 0.6102927000592336 -0.16038528799366553 0.5918496805788964 0.3931990742188234
0.241 0.04459125236411977 0.9769704524977187 -0.0023847677040698956 0.006059368507621182 -0.25222201626035373 -0.045160597830013485 0.885039362745046 0.8679723545488781
0.242 0.02883126238523474 0.9325947332199713 0.005094083794845311 0.005396083733394997 0.24762363406488913 -0.702470969174186 0.5182686932465747 0.635090311758938
0.243 0.11728751318615735 0.9422646481703539 -3.882860047018505e-05 0.002871680138751475 -0.01943306318966334 -0.19941248889090335 0.8861501593299069 0.906082241502758
0.244 0.11427611859657434 0.9741294815139985 -0.015912366351041443 -0.00016234069275363296 1.6256399996299344 -1.611392285449716 1.0249052523309017 0.5058334051957074
0.245 0.17027924760578367 0.989729527491856 0.005441060160444938 -0.0028803690386443328 0.7061663923630443 -0.04533449438284556 0.4265061284832659 0.9338182700517255
0.246 0.16469212140908437 0.9367265844429251 0.003424677707959854 0.0017590974384518062 0.4184067104457971 -1.3441204622900325 0.6233370134874029 0.6993798464164949
0.247 0.1294405963921739 0.9554407133177337 -0.007786791540303569 -0.001305290826287509 0.24474680469107227 0.21874204462363372 0.5634759480807829 0.9136153572098612
