!Created with skrf (http://scikit-rf.org).
# GHz S RI R 50.0 
!freq ReS11 ImS11 ReS21 ImS21 ReS12 ImS12 ReS22 ImS22
0.13 -0.07336304594478311 -0.04493787579697568 -0.00018962586709994378 -0.0018463596264748558 2.167119360947352 -33.98892836496608 0.2653710783949169 0.06621936636933672
0.131 -0.14689770115418205 -0.061200424871809524 -0.002647942876660884 -2.1097422283700037e-05 -52.19929916722089 -51.89195766554011 0.20880597762797265 -0.3120912806337413
0.132 -0.07125502667356982 -0.09659876698219012 -0.0013080278693334035 -0.0015779962784898641 4.8248288834780375 90.73022156603263 0.22750178908154195 0.021463372292162372
0.133 0.04788803737222894 -0.013194288340389267 0.0018170266185332377 -0.000273140528371815 66.10811775906951 -66.31215013176767 0.268123031174856 0.09097959724322292
0.134 -0.01422064942479269 -0.023707349654868586 0.00029283459106938046 0.00015664300992157694 1.5660974452799883 -29.637656444254443 0.43026600452055885 -0.027737485688585372
0.135 -0.05171512412151824 -0.0552165025907252 0.0004933436608008176 0.00011763544701630183 22.992374494468265 -128.43265061538762 0.2440697099227664 0.012476729493461009
0.136 -0.07098040791005389 -0.005093296445282363 -0.0023112932250935105 0.0013749547475996016 8.225734886918772 -35.370765248951976 0.441467975097511 -0.17810482742662548
0.137 -0.07479677028652465 -0.05423399898054844 4.932616477762701e-05 0.0006103859889390575 59.09526138239698 12.026495937920549 0.13873845130379314 0.03781709249371963
0.138 -0.07494057125695883 -0.06228973538313798 0.0012687293039599678 -0.0005114206398214101 60.5947942449374 -11.752329516332644 0.4214037362874087 -0.03629251150275333
0.139 -0.027850781386195282 -0.11261855146974956 0.0011382344851757276 0.002630475861077641 21.304092153328725 -25.98158079786309 0.4538295387675164 0.19670982785006477
0.14 -0.1322701517339668 -0.06967798183355944 -0.0020212453080862432 -0.000922457243191915 46.90561546498427 -36.05681279563497 0.4556244557070115 -0.08884452125613
0.141 -0.05772604933994287 -0.0480275658806109 -0.0012013430095828663 0.0005470546063682286 22.689277330085588 -59.395530573969175 0.31594187486440867 -0.08236065893628493
0.142 -0.09870498751786463 -0.015327357669823682 -0.00038439179374279907 6.879901272095041e-05 0.7464739125346267 -74.56018837672882 0.3138153781994965 -0.11376627159851388
0.143 -0.11414759340808354 -0.057004136129187595 0.0012016637336252837 0.0006948689966601602 -143.53041990317038 140.3941976661272 0.3538767229457088 -0.0695429675671405
0.144 -0.05297330341596738 -0.12458254060029154 -0.0017054816115323233 0.00027606804820586966 13.899332365557742 -19.643496179781273 0.20434252958370586 -0.06333574999894619
0.145 -0.06744133223346703 -0.08434565444816593 -0.0010621327580092725 -0.0011686283863098707 16.40975661994249 -58.948934845637055 0.3072331394819229 0.13328735537207262
0.146 -0.07888282095581939 0.03508706605952733 -0.00040169893588468055 -0.0004403938762623275 6.443838640429233 -48.56204547330668 0.3392485616121017 -0.03998516816525207
0.147 -0.0456175088748844 0.0045906645221816846 -0.00016047824095179674 -0.0015243627059221866 -4.77130474254844 -28.62836416762558 0.314310672617423 -0.2509807487952129
0.148 -0.04731676517330732 -0.007786358216653276 0.00026616001687491535 -0.0024972852327947302 43.203642981048695 -73.16249582983139 0.504942789282919 -0.01835432259280214
0.149 -0.031558858445426136 -0.02809574379652909 -0.0007551532420419678 -0.0009737198706716492 35.79785979832527 -37.533651093518586 0.24528047161414906 -0.2109016817777563
0.15 -0.09983959677224968 -0.056818098354729715 0.0006261849713480484 -0.00012483858354174653 -33.079663636000404 -47.76709693092338 0.519421655900469 -0.0848877018985609
0.151 -0.0045490158793572814 0.04620443148008436 -0.0008755908710184157 -0.0005508690946801965 20.219950627863913 -46.095159509042325 0.2342715745691789 -0.2189815261027868
0.152 -0.05123422010538982 -0.014045474778270058 0.002184500330492348 0.0025403680393266312 -4.03056269580045 -87.52371048771226 0.311532154937716 -0.0317979334597061
0.153 -0.015401617949053634 -0.03529399616539882 -0.00022271016162162774 0.0002719093749082341 -100.67390560317871 -101.78646728335194 0.511284187965213 0.0489144359616018
0.154 -0.0623442283871633 -0.04088040362004657 0.001244899826525263 8.881713991977893e-05 -79.22995945913264 160.02611006653763 0.16031553243663216 -0.2752156523097678
0.155 -0.12176254534706919 0.016703436649358392 0.00046327089965541077 0.0010865696398875946 -48.14443753405289 -23.925430801007487 0.6860303239490443 0.06515467573642943
0.156 -0.07935556098948651 -0.018155642073758374 -0.001589810940814301 -0.0006911961443758533 70.27864258350924 -39.482107888182604 0.32765194280824295 -0.30670327378862816
0.157 -0.06230033320587229 0.06008188619424523 -0.00021808887576287543 0.0002579714402736727 -92.40320409144267 -50.5233819581288 0.48307842611124885 -0.06788474013847516
0.158 -0.10395496823683123 -0.06836386853736535 0.0017646860778037328 -8.48567769920265e-05 -30.82841803902075 -30.447045672827254 0.2003694565347849 -0.06692000547111089
0.159 -0.09020373893721785 -0.02402574141122812 0.0008493112737459899 0.0003222577008436001 -71.52193675109432 3.153474343522761 0.40184609574404473 -0.07425779381783817
0.16 -0.0856579019551573 -0.019319192649928495 0.0006692463992676464 0.0017154868599297407 -12.410905162323516 -53.020775294407244 0.34520937125163276 -0.10751143400182724
0.161 -0.08023348847614388 0.07103188520644109 0.00022866674576645562 0.0004915152311696254 -39.72661269894588 5.904248549387943 0.1710361244169487 -0.1416646049090698
0.162 -0.055915327843688224 0.01314334278479247 -0.0010759101500104403 0.001882248492849567 -313.9352594446939 -81.0888746972458 0.4202653364666822 -0.34084417457791955
0.163 -0.07917084475573144 0.04481197172655745 0.0005813564507490881 -0.0001901816189460692 -28.42223938223076 -7.883378315689224 0.40304051272972274 -0.201483389882446
0.164 -0.0062445533946617945 0.012205508889709603 0.000495027315878399 0.0018780972910771012 -34.95968137737619 -8.92741926829414 0.12498429427513143 -0.2746269053194281
0.165 -0.037676454373958036 0.02556148881989002 0.0005058164672984905 0.001819560602617748 -60.95960490941817 -3.7571790518422685 0.2748396187293603 -0.14567061144937282
0.166 -0.09965364255140226 0.02573120098834799 -0.0005536138789489417 -0.000487239633860958 26.671169887185048 239.16543595118026 0.12925335421425724 0.00822419683363882
0.167 0.02239825490246058 0.02261131990485751 -0.0009034679234301582 0.0016345271608659015 -59.30033442213466 0.7775488600903575 0.36379666302250935 -0.09566784578991035
0.168 -0.04569874230750263 0.02782990602449353 -9.162216491786098e-05 -0.00020451551243722376 -62.09085096811472 -3.4324519859616136 0.32743700390995645 -0.169427463337403
0.169 -0.04074641171430322 0.016987841839663956 0.0005719090811639836 0.0009332886894118784 -70.23084417578735 49.47893594305231 0.2666142921903222 -0.22957582099279714
0.17 -0.06611456866670792 -0.005688005691412485 -0.000680910229957938 -0.000638593293309523 101.50559548312657 -83.78999630447751 0.28339816641187326 -0.26694633661608014
0.171 -0.018106820111532897 0.003465171728175252 -0.0005785945187383315 -0.00015681565954674782 8.245531531167899 79.49693950807588 0.2705683607021768 -0.2669382072119838
0.172 -0.05635144926178368 0.05138290546896357 0.00036849111566078534 0.0023103072239122244 -49.12238490191069 -171.11447475834157 0.1077629529420704 -0.43151194029459333
0.173 -0.1312891587782998 0.02298890654936355 -0.0005872021704462125 0.0005808138245553053 164.74568416968546 21.240130268332518 0.2752832285031121 -0.12467218624958397
0.174 -0.05953596175783255 0.019330713849657802 -0.0004483055798993359 0.002805679871313759 -13.5810310974896 121.57845907466844 0.13169115254527944 -0.18194530987547156
0.175 -0.11676137629943235 0.0469415478951923 0.00010899377248730476 -0.0003681790353513387 -67.62635801804934 4.638916009496097 0.21777002514228222 -0.23245582864550143
0.176 -0.06651151849109184 0.028593780523293092 -0.0016265615729455381 0.0017932077357641957 -299.2691004798997 -13.990375693813318 0.2581765732509628 -0.2011307912834802
0.177 -0.1069117824749076 0.02411135718125199 -0.0007340601071182086 0.00025353114762583255 -20.428399137515417 69.15334631904277 0.3074210503925554 -0.21539598043145908
0.178 -0.05565925583104511 0.035108365495953975 -0.0019811702399826388 0.0005555341429645125 -64.24145677851283 83.198443177089 0.20227755600375316 -0.14347792744725826
0.179 -0.04223064277729419 0.05357889800130474 0.0009168991004030148 0.0008667938461479527 28.003513385315834 -115.35845841480496 0.1692189678890482 -0.3703509560551422
0.18 -0.06210275819106426 0.0045955950832863085 -0.0005325098174911976 0.0020530119453533065 -48.17005315151915 58.63996934332284 0.2553926307522276 -0.1351702420349651
0.181 -0.028353556196484473 0.04592443663434872 -0.0004713793659749132 0.001624809759001993 -68.27860796772596 2.531600409094058 0.2741792422240826 -0.27247235066486675
0.182 -0.09105143986045908 0.030015672325683543 -0.0012251506633789947 0.0015769081543715755 15.433302755460947 68.52236889130978 0.11575463543794597 -0.2377768741367222
0.183 -0.0760579631230688 0.02887058588546235 0.0003949180739068832 -0.000890933194897367 -220.55782575958366 13.496360321285954 0.05473042040022408 -0.23101199932097247
0.184 -0.08064505574798028 0.06726459539025058 0.0004791639095473478 0.0012754947319758149 -95.90603295201284 81.06797122208285 0.23819429653476604 -0.1993884956029993
0.185 0.019115856746914583 0.08793976647047427 -0.0015399653797004867 0.0009536383978433943 26.663198152687144 -137.58238102689762 0.10314786602975558 -0.14861633696985208
0.186 -0.11248964732127896 -0.0013445324851749114 -0.0012814350338440604 0.000730118977551765 292.93516109512893 -51.3974058044629 0.040037978022121855 -0.308973937510775
0.187 -0.08190776702007203 0.024698726211969904 -0.0009950916323059444 -0.00021890455307983935 85.89530905900698 33.896776673979495 0.09416568082253356 -0.3835578089120365
0.188 -0.08958341420512214 0.0631699831929902 -0.002052730014794004 -0.0005585558917476711 -83.7735634029145 -65.16607413609259 -0.0971792114886157 -0.2570303376534379
0.189 -0.016161784275711646 0.06013677596336939 8.969086195955404e-05 0.0015375450193295657 -50.03309152620186 -109.70474877954709 0.21906038685815568 -0.22908796596413988
0.19 -0.031637384622562006 0.030313847995254304 -0.0005112901111975711 -2.8528922719519917e-05 -107.84891888135526 166.93291064675157 0.12910376199176732 -0.255915921466835
0.191 -0.05948480832355453 0.15890165044578028 -0.0034665154777309905 0.0016873257169249816 -268.94697507532527 -92.25946364998268 0.23021494121971395 -0.2931693212240372
0.192 -0.06915157107765296 0.07405950712410629 0.0006768629644997924 0.0009238636904026578 -653.2760940681941 863.2695639000121 0.158967843902234 -0.22081498292947646
0.193 -0.032542208811139645 0.05014541487963747 -0.0004148398814219173 -0.0012856069193309361 234.78981471629126 -360.47525349050676 0.1651789432166395 -0.24694215867521352
0.194 -0.0390351193233802 0.10293403843234374 -0.0017106777185210314 0.0013485316799876816 -140.78365058039552 -168.6028856016448 -0.0803292892739701 -0.29801725140347896
0.195 -0.028692500665993718 0.06547561416143341 -0.000994153332134597 0.000607414041996444 -62.25985058417842 140.9396016669225 -0.0371747932459322 -0.2369969591460116
0.196 -0.021648278560171375 0.030766124127609987 0.00046890439423044226 0.0007716886207318152 72.28476416261826 116.70853488518027 0.09080499066624757 -0.17987681842388856
0.197 -0.04836612397563667 0.1199166676745018 -0.0010745103077485784 -0.0007486062059495553 25.95351004965414 279.1529076962027 0.09588884094160265 -0.15052707257010417
0.198 -0.01948210822537419 0.06829652879093225 -0.000467213525799369 0.0006031401447676849 184.15508697563223 132.87397441392915 -0.0523202879958413 -0.13691024665865945
0.199 -0.052496478951573666 0.10125621488302922 -6.75590737693701e-05 -0.00040481090509433766 -94.27731839759056 -23.382086141332707 -0.015308923208025418 -0.4031608268914424
0.2 -0.02697031354591518 0.07914703274143894 -0.0004597023509643196 0.001202550347036134 -169.00787244233913 -69.52211760512488 0.00941904852732557 -0.3469023992783407
0.201 0.01197806243486288 0.0719928637468202 -9.430691963426849e-05 0.002038491572578598 206.39938966982922 -175.76545340564402 -0.13729045337477397 -0.3745132257278301
0.202 0.006088399557323711 0.08755225257919463 0.0007315892568785524 0.0006126402329261273 184.30106895529258 -81.410742960589 0.13716729745202688 -0.261470116463245
0.203 -0.011902352566635657 0.08059114923367831 -0.00045792752418389026 0.0015229292451870017 -152.32420320979466 -150.82598249995652 0.05043631243651024 -0.16150912108268964
0.204 -0.037373320560954 0.05395142255437162 -0.00014122523799251684 0.00010923751384830022 -43.08760031799193 -58.86326233060674 0.008382436607031371 -0.28228611597419573
0.205 -0.011823581361842812 0.08168442132090015 -0.0003138920332490444 0.0003762083323196323 -66.56073965375819 7.869943695917477 0.09651794877240755 -0.4190976389354716
0.206 -0.022033122707761015 0.030711002777253252 4.020931913310245e-06 -0.0004330024884137701 -111.82943676683595 -12.761247124557517 0.009122501431456756 -0.33139869918046544
0.207 -0.00444789442006946 0.14580708007162005 0.0016923642384546584 -0.0016006532897772814 -99.18795626928954 20.870372066892585 0.06620191298842425 -0.25409237928545714
0.208 -0.00917210908887975 0.08291708863544803 0.001798020629524958 0.0011812919932591558 -68.6662271512035 -40.14688169229425 0.09923374386702391 -0.36878941805681176
0.209 0.020643373437447026 0.06255968604550786 0.0012899275296193486 -0.00044319488228603335 50.353378156197685 322.8912516651882 0.0776692761835165 -0.2887508404042116
0.21 -0.0021409694502402994 0.12159788931391086 0.001440528965772618 -0.00047887776845983445 -118.8748299335443 48.65458465117891 0.0011223719319772563 -0.21924219791531685
0.211 -0.026262415760940336 0.09164571263582284 0.0002608332854922761 -0.0008364500344785173 -122.1432561451652 11.59394718633919 -0.09718955001525316 -0.38445388327608593
0.212 -0.011740862896677197 0.10670170044253514 0.0012296597683494 -0.0004461236559104047 -105.66973662540613 -65.02635824292314 -0.02626902259816381 -0.3244084548182316
0.213 0.03201711236859911 0.07161139565148728 0.000492821510239778 0.00043553451290362203 -53.12564967791091 -147.7713905632009 0.027453140703555538 -0.2977341945811489
0.214 -0.002615556749682472 0.08465582661710401 -0.0007879411137590369 -0.0010615075410088674 -171.1925619806629 147.88595611102357 -0.19588784111344754 -0.2495042338394877
0.215 -0.008922409405424417 0.05127046801342777 0.00010856836873111209 0.0012681979935518595 -23.86238438168245 75.07801251992315 -0.14398248812159237 -0.27037562064771764
0.216 0.019839644437844618 0.10687922421489363 0.00100950191841858 0.0014637974908505292 -159.50401901447017 113.98204719946301 -0.06111090261968789 -0.2824349466124071
0.217 0.028078786777669347 0.07484614085958786 0.0013100349291204575 -0.0019070175754748835 -86.60978187306206 -6.0748441211559285 -0.1630630989392242 -0.244117782813949
0.218 0.036050403841004476 0.09516162716083523 0.0012893099717473527 -0.0005552204913716433 -57.51191163687402 -18.2238928601981 -0.1808276047561492 -0.4149355918110268
0.219 0.014061300619767191 0.0737637822282004 -0.0007059220989534473 -0.0014984649438620759 -104.8770911025117 78.95323763715237 -0.15232951846763376 -0.2605485371808413
0.22 0.050479134113084745 0.08117682745727427 0.00012262380907180948 -3.3592068863889464e-05 -75.51430224267561 11.240920564091963 -0.24290717679403376 -0.20414860060841983
0.221 0.049909786897843166 0.11025598069421873 0.0033376995471344102 0.0013040253263398853 -47.69738945870877 56.74754260370925 -0.08551857343363693 -0.2782370026354127
0.222 0.032272075498659986 0.11105001916224612 0.0024702068336205523 0.0009297030806784143 -43.48683129795587 112.89906522150652 -0.06862639045220205 -0.3248307683709204
0.223 0.0528252586848321 0.07776996711004294 5.8557964395071764e-06 0.0010062641632502792 -94.78659132860342 58.23006764499524 -0.00510807192250193 -0.3306463501967257
0.224 0.07145579674128186 0.08718465017591487 -0.0010662029774098792 -0.0007139712133398212 -218.1216962065369 -28.525705181432528 -0.1262166612658604 -0.35469904918681144
0.225 0.059317016650682806 0.09222322768300573 0.001157505263803157 -0.000990691066994534 -114.5552663883438 -82.19741115335066 -0.019779416343321535 -0.14900086391272252
0.226 0.037852798966141785 0.05753979493098414 0.0009614592497294505 -0.001021653840927797 -33.38776937859309 85.78059356339922 -0.1406997206888293 -0.2059215270143464
0.227 0.04825304217957914 0.09683306059587538 0.00120034496836464 -0.0007706736416440106 -46.080365827167604 72.60745514963068 -0.1491907987694698 -0.2714224095168485
0.228 0.04214682411253578 0.10460100520930185 0.0001575890591352082 -0.0003368344978410646 -66.9016714528859 67.52448187043227 -0.15663985956142676 -0.30193211501795575
0.229 0.07959968155487102 0.06738977811196846 -1.2406609872215744e-05 -0.0006006938236208739 -62.368870824799835 50.25051625157299 -0.1075794766674238 -0.12020369391357577
0.23 0.02958216319406691 0.07904183987453053 0.00023768776668347426 0.0009488036149525554 -34.74947913961123 74.58967098598545 -0.15546352642764405 -0.33012114351567257
0.231 0.056792162905099905 0.09712637047438195 0.0008215630799191977 0.0008553240628090639 -232.53881240496156 52.60370856049828 -0.1307572299244082 -0.1714980813998291
0.232 0.050149346324565885 0.07977836753045461 0.000496524206630833 -0.0004389479156561719 156.03516689636498 243.47754249224218 -0.09141304197946384 -0.08418334849140816
0.233 0.03245307006842913 0.08327793639090428 0.0001386400843838593 0.0011251102806490321 -289.88483830854 20.360086733440244 -0.14815070306006828 -0.14174054791785465
0.234 0.0548534152257583 0.0742895327073737 0.001518436093286662 0.000600507751203974 89.69083602790684 205.79391276409126 -0.20656859243508727 -0.07382352645437937
0.235 0.09625922512559432 0.07865391300803691 0.0006254925088171399 0.0005625899007201954 222.45060389691224 331.2167431420327 -0.16606717217622405 -0.22851387547393845
0.236 0.12268393803701608 0.0991248216855563 0.0019648394773259764 0.0006218510088784043 -59.812127005695444 112.57583048010528 -0.07156796755423382 -0.0587122923923932
0.237 0.06719721091263094 0.08191980209996053 0.0009390271524784105 0.00038752045617754504 -22.331180216264688 165.95923511662917 -0.241743877539351 -0.23671763443820001
0.238 0.07921227877677091 0.09953883894656074 0.0010072525662274952 -0.0008833885318257711 -2.122143646982591 117.87438070980433 -0.11646243858763708 -0.18788149025497758
0.239 0.07595258453946571 0.06302780194100939 0.0009749696963231941 -0.00033060918674652145 3.7781366270091334 136.54487841105345 -0.32845075553817643 -0.10457869347172152
0.24 0.07811505562288469 0.06960543829467049 0.0017073181436402561 1.410931808856464e-05 -44.66662378367191 69.56510433095514 -0.08894233580590094 -0.26084391392364314
0.241 0.11907936821763716 0.043808314140302854 0.0018112156650137157 0.0015135641338979967 35.885694898283795 90.97371168222159 -0.20254036156549823 -0.06928896391046795
0.242 0.08192710755515353 0.07308571720545856 0.002576677931933765 0.0001019364753198687 31.673500689718097 125.82873892241467 -0.1700481541599354 -0.10569951403927821
0.243 0.08869473667333966 0.03380033802251322 0.001168944292583641 0.00022629661640921253 7.283341353536161 130.7873356775583 -0.16641538951869955 -0.13859237477367128
0.244 0.08210905121571824 0.036776666481153596 0.00019261915795055898 0.0001917113592407869 -145.37371056760455 333.3555982184559 -0.23948513242447106 -0.21492702524024634
0.245 0.09381883289944572 0.054691471675226005 0.000799544890681896 0.0011261480017034063 43.75716490973975 82.12260744242973 -0.1763393235949091 -0.08257756699339784
