!Created with skrf (http://scikit-rf.org).
# GHz S RI R 50.0 
!freq ReS11 ImS11 ReS21 ImS21 ReS12 ImS12 ReS22 ImS22
0.13 -0.5249346853378186 0.5206603000219192 -0.00036003210005704217 -0.0005591957158927089 1.7107456101234717 2.0025661851509144 -0.617588614506327 0.39242451269036877
0.131 -0.4841604858217866 0.565515881886281 0.0016028738911532752 -0.001979546071263083 -1.987726524759415 2.702900177087342 -0.6477900753089023 -0.12543415497553131
0.132 -0.5497314488798122 0.5813121064926535 0.0007695280227561248 -0.0001758882933097256 -0.30348413639208577 -5.46394498802645 -0.6398024584103262 -0.03883420006870417
0.133 -0.5313097953156224 0.7360038787298055 -0.0006148670249437318 -0.002870663813802186 -1.4864244666079864 -7.797835347200116 -0.4885450832187313 0.33859802426985797
0.134 -0.6270754292887709 0.6389850038846147 0.0015116051840933927 -0.00011279878983099466 0.8551700612635823 -0.7503743634650134 -0.37537448907628823 0.2120065312176545
0.135 -0.49137745822645074 0.9054822481743602 0.0007118508208330969 0.0013364716534289263 -1.743152908910512 -5.176119335549174 -0.5380375707178338 0.4944107855357009
0.136 -0.4128174656865954 0.5382496920958934 0.0007910504333944022 -0.00030567261225530244 -0.2757089565405542 -0.8156610333867147 -0.428034453590958 0.08226433704453616
0.137 -0.5581954415606675 0.5679244484681429 0.0011269295653534735 -0.0032728844946716467 -0.12249905634786537 -0.4422643512774808 -0.5754790022105224 0.21821480332617096
0.138 -0.5080789728480487 0.8202458604735895 -0.0002351745150690376 -0.000901215998455836 -2.121138589012761 2.386128072768127 -0.5321096132846106 0.22586255853726492
0.139 -0.5377848239258017 0.7065676073015825 0.0007219034164130692 -0.002283098123979221 0.08019653398672452 -0.7454581518874505 -0.36360086191981994 0.2699572196203728
0.14 -0.29170550610021007 0.7330803936310025 -0.0011922360615306679 0.0003260707171379048 -0.9186825627781822 -1.6436524036377773 -0.43162978089047943 0.5744836950438283
0.141 -0.3511077993287178 0.661944765282049 0.00014832964211494704 -0.0011336819356542178 -2.5886494402137235 -3.2244287624104104 -0.4479395597356734 0.11668453612379256
0.142 -0.37858670247808307 0.7605976352879946 -2.4292512753702823e-05 -0.0015262670879159037 -2.6491120117711975 4.356527537829802 -0.5314206083620581 0.2697587112228477
0.143 -0.37228285801906064 0.7919880384849792 0.0007405081438275724 -0.0015938812083138348 -12.146861990447926 -0.6829441539676062 -0.3318219981600048 0.19215050271171014
0.144 -0.27401634440714406 0.5117088119160726 0.0004620056720599138 0.001133921755957073 0.7111719359076651 -0.6557717997763776 -0.4650503690858773 0.13595667544654957
0.145 -0.23119025250638583 0.8057995585151361 0.0001899327969764872 0.0004736973426858944 2.00516488053263 2.73694527347688 -0.38352781643585204 0.2834712219667154
0.146 -0.26928547507026845 0.7908220435334982 0.0007403021298923518 -0.0016533445590608028 0.5230973382061461 0.6481320929079698 -0.2593423527509922 0.3438239259371412
0.147 -0.2040325097886742 0.7347146058526285 0.0008553171885073402 -0.0002261399593451257 -1.1508341993747833 -0.49184267138929705 -0.39983166013928545 0.22448920962805344
0.148 -0.21593514332986322 0.7816386659865759 0.000312466135812254 0.00025762928161129526 3.753099924609743 -7.242994087223673 -0.40251660152042834 0.43124281837965683
0.149 -0.184580520045775 0.7428323768771854 0.0006132026184422492 0.0009080447275019814 -0.16309889678877046 3.3595971196582615 -0.45286331165839605 0.21928378165258092
0.15 -0.16266674111883148 0.811195886613784 0.0005871740277149559 0.0002980980896419627 -1.6596281022381585 -0.21803658775249826 -0.27217154273256056 0.25704388238961284
0.151 -0.20907583363476478 1.0489371022667462 -5.708381981859577e-06 0.002624393768398244 2.4797881724923485 -3.1447553227919407 -0.6331243161686871 0.25087528105322143
0.152 -0.10687734083717644 0.7262099510916864 0.0005324354495806548 0.0004489710188138405 -1.8589503927016926 -0.057258876619819855 -0.3092137161324182 0.4570092097040338
0.153 -0.008197443928842542 0.7644287533076682 -0.00033596515732489186 0.0016525107369929266 -3.7768238157135605 -0.8255918629099105 -0.23873040266835716 0.34020882536224006
0.154 -0.07759106819042426 0.952332908075102 0.00033099962152558795 -0.0023392857239604376 1.5247296670741324 -1.5257744316233597 -0.30005720033264605 0.3179795478335855
0.155 -0.09663095753079703 0.7779674124879945 0.00045811804923515993 -0.0006553443857773252 -3.7032826872253093 -2.412036581624095 -0.250815215006466 0.5021607571172106
0.156 0.05600582656418668 0.9037278861411413 0.00011556335489851946 0.000139303539843097 6.614027184200915 1.122532303675007 -0.2695900743498573 0.2368711149540503
0.157 -0.0374869317296412 0.7446768103685689 0.0007224049127145725 -0.0011321820053776176 -2.202684515885201 -1.1805626597754109 -0.41544874933157944 0.29392583981722503
0.158 0.0038505663139402355 0.8470914978557088 0.001435991929028996 0.000978145396732379 -0.493610174547909 0.20868324629468243 -0.25972637177157143 0.4255454563422101
0.159 -0.064654329860337 0.8020355697367513 0.0002926980085519974 0.00034371683897977984 0.14365265758810228 -2.2381830758123282 -0.2712828581226111 0.37161636641098594
0.16 0.04996292943649347 0.7621768199441732 0.002527368468224135 0.0005921671951716783 -0.814971452148108 -0.5967594084500659 -0.33986474066261735 0.4450056775532704
0.161 0.005340932026068365 0.789071993319421 0.00030358349153778087 -0.0003423503886500682 1.6285585333921662 -1.0077194241615581 -0.415555419363935 0.29535582900029067
0.162 0.10069993100027982 0.8317433263286022 -0.0015106893631873695 -0.0003215091787501358 9.802595191567253 -14.02732306955454 -0.22914807242515525 0.22193503763309852
0.163 0.08599331182606088 0.8274406681617762 -0.0007076408613448404 -0.0001989024286617303 1.6830853334556586 -0.490617800710404 -0.33723695312703655 0.2637619237432844
0.164 0.04360664599588609 0.9593677154087514 0.001590303654456212 0.0017636794240794777 -1.7623705846759132 0.24547535872593101 -0.2090090996108528 0.3342148725648688
0.165 0.18238327572298335 0.7538247596855638 -0.0013049660112049316 0.0007163203973191291 -0.15950545209625464 -0.10449279004279018 -0.14127149742680767 0.30452813510610627
0.166 0.14818778930989304 0.7024289062025842 -0.0011323402424579666 0.0008678290202102268 17.952914251581742 1.1962917298299225 -0.32628751430154895 0.5702135913865566
0.167 0.20523868736144876 0.803294855182682 -0.0012548361775677381 -0.0006882516847975033 -0.9965691961950428 -1.663210395209482 -0.1783366393227249 0.45228342307407937
0.168 0.3019209409003287 0.8977621273887323 -0.00012542336521106725 0.00165385379154603 -2.4471439111025415 0.3680461205176074 -0.2820622535151946 0.3249608533986943
0.169 0.30764643002997727 0.9377412165985017 -7.755874545992982e-05 0.00011131199074962953 -0.11212285754743 -2.3572711379308995 -0.18311491857771595 0.30641652221517784
0.17 0.2432358485134209 0.7502204052484294 -0.000571256723628443 0.0011909559158098696 -1.0664780514235226 -3.6220972073469504 -0.37645106326426997 0.2875030122406616
0.171 0.3212663667852673 0.7613579973790431 0.0005977483932350678 0.0017822671739751233 -1.982937639691228 0.6496206991574199 -0.20172345055879648 0.35154440262394154
0.172 0.3755051213640398 0.760344754910793 -0.0008951653333568542 0.0009824072398000015 12.039100475017253 0.26561105926083267 -0.23818076778340166 0.17931839226999619
0.173 0.31781420937112304 0.7172801313790478 -0.0009742896093998696 0.00019759879599547448 6.151864256884093 -2.514183756698793 -0.15238281545208543 0.5296442525074084
0.174 0.332296493707588 0.8376928358161664 0.00041540989189225877 0.0006150082293786415 -1.9166850616454238 -4.352524594173938 -0.2375923764903533 0.431655017087154
0.175 0.28257209130234123 0.740900473132432 0.0009515677494950457 -7.527055187698129e-05 -0.1985139920423841 3.5800201284536204 -0.13936657100024866 0.30587229338970245
0.176 0.34724976774897204 0.8047334794512455 -0.0007401451787371063 -5.1167590656993334e-05 2.324432625644333 3.5798363039438135 -0.23717926146472323 0.4593893634274412
0.177 0.3999829374104547 0.7272619738885072 -0.000975148787234746 0.0016366564692896633 -1.5834200449975704 1.2062957550780753 -0.16934551826575298 0.5346687379027398
0.178 0.42396531649031266 0.6765658855588609 0.0011886139805264775 -0.00093206135731165 -2.688074522552075 4.164199847386568 -0.16686683156174423 0.38471217509798383
0.179 0.37430718566576787 0.6927560045531033 -0.00018955984840035285 0.0009658315220668535 -0.2069145769129758 0.04158222452313941 -0.06847935117323525 0.46093522479152127
0.18 0.4668628596157629 0.7168586928005432 0.0016279654355016919 0.0005502181768810639 -2.7323765785124263 -3.336739664792201 -0.09907377818680477 0.44256164253654473
0.181 0.4585742955063064 0.5984907603582391 -0.0008594007918780105 0.00029637059835534467 1.22038885554495 -2.0917708974047833 -0.1429054803321349 0.409388675354573
0.182 0.39226783635222195 0.6001096269851295 -0.0006677498157376471 0.003732589830803108 1.3312402540027088 -0.3848336698194959 0.04256158116487831 0.3027853513399182
0.183 0.45425660292983033 0.6761547121141808 -6.047038493601618e-05 0.0009419498571657253 4.644858194788791 0.581129696954913 -0.1499142140097958 0.4056359494482829
0.184 0.532229228552845 0.5602397199135665 -2.8422901373855723e-05 0.001297880974865191 2.872843593427843 -2.891778039003409 -0.005756704557137214 0.40485448705323895
0.185 0.6270255541436108 0.7450823711567888 -0.001141041047970173 0.0003189794149284938 4.063466451584732 -2.4789134628132787 -0.1875504513827868 0.45942852299445375
0.186 0.5561624748900962 0.5869725653809127 0.0008992754852733456 0.001222384453266605 3.3234717499057145 1.3362238162963787 0.042102055133121805 0.34175011470565375
0.187 0.6281336663532812 0.5406158334803225 0.00017535730651828496 1.735007303984732e-05 0.5483230310635331 1.250875949241499 -0.07416238870907463 0.2613370818226393
0.188 0.5501179945047416 0.6104686661369559 -0.0022106382373420774 -0.00010947411953104396 -4.390125320074373 -0.03820775012705494 -0.09110198728469858 0.4035957402790868
0.189 0.6412412738691678 0.5173452719736484 -0.0013386203834478726 -0.0007664780556784985 0.928358514479888 -2.908205649769698 -0.05647817268635734 0.4883878905410706
0.19 0.6929004209198192 0.5524089133570531 0.001035911263179806 0.0017622949915277295 1.0113478250230372 2.9169360186541717 -0.08339318803953678 0.5436366794802358
0.191 0.6988749842265526 0.6413353520348538 0.0003097835214073862 0.0010654011232778848 -1.8250471058555187 -13.547449736392174 0.013834782915882832 0.34448146210611463
0.192 0.5846999396668596 0.4922012235610067 -0.0016931238764879967 -6.023481964927441e-06 20.52430495259837 6.968318609762044 0.007602185421220454 0.40593771465771716
0.193 0.8910182774110132 0.5109915500298288 0.0006963644649130554 -0.0005226465961415657 2.663442404801183 -3.826983617497272 0.009422272784170562 0.2794218499184142
0.194 0.7390605757935272 0.5892358472576005 -0.0009892318086707362 -0.0014509537000408483 4.056153180029604 3.0121549837822514 0.04974849820550676 0.36318839484567667
0.195 0.8070711055525256 0.42013033091273183 -0.0005170494455567924 0.0016663356277382272 0.15132132552266236 -2.057505975857907 -0.026024249058383606 0.3650014438284993
0.196 0.8087699453434243 0.5211756316983548 0.0010553756693356224 -1.9149961574177124e-05 2.051683079365125 -6.350097728854654 0.08664341050371749 0.2526789057917101
0.197 0.7668700501064767 0.4523030321101929 -0.00039615223398038925 0.0011344851081307816 -0.9769560666962197 0.01737694233796749 0.009704168734875758 0.5328244209453675
0.198 0.7910131330306477 0.39009839904613636 -0.0014271850176586064 0.0011235976999734863 7.705416878205646 -1.5805971668945091 0.010496723753536965 0.3445701690477674
0.199 0.7853068119708538 0.47355504010287497 0.000104698850308428 0.0016027787431043183 -0.5917576196734456 -3.203202598556022 0.03417750889879873 0.21009818665019608
0.2 0.7673487304713565 0.3672578899751033 -0.001180351585893858 -0.0005562014664110146 -9.087117458978259 1.3984152912688161 0.1290969475100355 0.24303306211208275
0.201 0.8182742635323015 0.3079111975087123 0.0003129419635559288 0.0015237443516418934 1.1203176910658683 -1.1771559644697414 -0.040965747188840475 0.35622177181502584
0.202 0.9631843811912763 0.3402480376193268 -0.0006543616302042525 -0.000296065172288951 0.809814123353586 -8.185878338816822 0.04696204418581811 0.2965180880471972
0.203 0.910207510804553 0.2738506592524955 -0.0016471505072803434 0.00019209931808205312 0.36145836926993635 5.480558431803713 0.02157122867399746 0.36713474664690776
0.204 0.8480131780841765 0.37222494169668446 0.0005508987954207688 -0.001056212451552475 -0.924212648233495 -1.3971472102394022 0.11615905298083888 0.45638207707174433
0.205 0.7710400284490818 0.3204124159642266 0.0006960114791421229 -0.00011448380390290262 2.5857512989796465 0.8527219656263073 0.09811417841849616 0.27159159828245755
0.206 0.7431180343934048 0.12998614389651766 0.0004226520575923249 -0.001749677117494047 -0.09025903843309621 0.19844334099879565 0.315305059231368 0.27193410539088037
0.207 0.8342118853394024 0.2661260400699049 -0.000678557881574748 -0.0010351021587695285 2.6347678104761805 -1.1555368346107688 0.21314809079741204 0.4005809545089947
0.208 0.8545368071468639 0.18271504378241038 -0.0012368726810843365 0.00023184449854825898 -0.23404549958267834 -0.21040040568388035 0.24793748413131117 0.43132415174655336
0.209 0.9683313648457731 0.16361345005213324 -0.0003573844994825879 -0.002250949894749313 1.6120960523172592 3.45885960755876 0.14331618013520037 0.3893021989163805
0.21 0.891514345327314 0.18707830679819637 0.000872687143251473 -0.0011484594804748213 -0.04448912911016445 -2.250695701223934 0.08818528958208213 0.2653356480437464
0.211 0.8027903784268273 0.06293808044715728 0.00026862432222534354 -0.0007087600820210287 0.18501167408583144 -3.1788276388038827 -0.02549797624320161 0.3492415582354619
0.212 0.9571423699193939 0.16311146200244772 0.0005863483857087991 -3.7853380898055506e-05 -0.08824759658247538 0.7506916069345354 0.20270214491077485 0.2103247252906606
0.213 0.9329677949338959 0.14702243710087856 0.0004241230262436055 -0.001856678748533903 1.0390737049996868 -0.02863747424458893 0.2893245333017632 0.24760108121643343
0.214 0.8459632293886268 0.000382359716727601 5.757574030332088e-06 6.144876753369684e-05 -1.5299539848292572 -0.3759762782608749 0.08346962334226589 0.37207924234858514
0.215 0.8877056291125915 -0.061600931867733834 -0.00010768611788612527 -4.3434738059032786e-05 -0.46445557791684844 -2.240603322353339 0.20402764540283044 0.37045941711921515
0.216 0.9459688468692014 -0.027020574917292067 3.5965207022490654e-05 -0.0015827877363526087 -2.5740915883249915 6.834320769588914 0.2787922786079305 0.28140706734474574
0.217 0.8358239484574368 0.003074504027815197 0.0005649904709182368 0.00036430074896465827 -0.6214968712699097 0.1264270275821312 0.04428902687224014 0.2743748573551273
0.218 1.0177735752180523 0.00632133501207583 0.000358428051765257 0.00020426222448264225 -0.6024360288094207 -0.8777444608328611 0.05036368770280892 0.29092584717730086
0.219 0.895666042484021 -0.15023797702285951 2.0935953300620604e-05 -0.0007062587993226437 -1.9085860696544719 -2.212294324841419 0.11966633656050442 0.2964423841476844
0.22 0.9174033440340681 -0.08734785416583608 0.0012222183326786589 -0.00012425730838723568 -1.4127957432594385 1.0824324734522204 0.10135338039142064 0.2806786896444803
0.221 0.8553155216998093 -0.10877097244756903 0.00035353863350791483 -0.000866363415078838 -0.12636422016420484 -0.9393013857224771 0.18485953106940917 0.3448039878623984
0.222 0.9114736824651888 -0.17700872589382272 0.0008858297510121339 -0.0003929617054963177 1.6335939232429484 1.919350019813219 0.19304841950083515 0.3531586632957498
0.223 0.9218401347876549 -0.1837517881415628 0.0007473809759537082 -0.0004504994725423393 -3.424705504657599 -0.4043904123812548 0.24525117260961216 0.2913012655306193
0.224 1.008063042758449 -0.19963747044751992 -0.0007394410382810062 0.0012970289068112823 -0.8344844329620227 -0.37154252283699524 0.16925152543490973 0.273752564741216
0.225 0.9126011531690738 -0.11931755981439272 0.0013993607064985967 0.001698249993465456 -2.3093275055558435 0.5368084660131521 0.19601058073712757 0.24622278103832965
0.226 0.7822569618707251 -0.23574545579704795 0.0010216956523007054 -0.00027035506361219663 -2.6085102891898497 -0.6373921236751845 0.10277562539775253 0.31617072373101285
0.227 0.8221511369328193 -0.14367817092392168 0.0007598026437200139 0.002418749005245212 0.1499539285364077 1.3220971424219485 0.27054022562520763 0.2885204277643379
0.228 0.9083533729786114 -0.19073021824279396 0.0023551646922671445 -0.0003626517342085841 0.4954415187470601 0.4050129162116393 0.12213401974276593 0.11601296800809617
0.229 0.8980152615054328 -0.22725195947119478 -0.0003352701169550005 0.0012846576767015915 0.0309058865369609 -1.5208496067466706 0.25583334530103585 0.29915553151070384
0.23 0.8094265383787715 -0.378619926445468 -0.00018772273822839874 -0.0015342021471804932 -1.5950878383987444 -2.0214556240480697 0.34164160023260487 0.23102429243567016
0.231 0.7607133075429297 -0.284438509377882 -0.00045992369952212246 0.001862723343110665 -4.277640810513251 7.069493423092015 0.20587819692383805 0.25865829592942113
0.232 0.8150954168764378 -0.3700686312288409 0.0008096196073387915 0.00029533488546508257 4.46713073859461 -2.6106142058370794 0.23492127081036548 0.34980669642981205
0.233 0.805078898869572 -0.37746161745299334 0.0011661963986853469 0.0007553387748810834 2.61360896496811 0.0756610593410292 0.22315623608336815 0.31968255928764505
0.234 0.781489163395214 -0.5090589513162526 0.0007226259757893742 0.0015668086971920643 -0.7515261498157456 1.1383653173491641 0.1958178375025846 0.30414927452266244
0.235 0.7017109650341677 -0.5427647130583088 0.0018723160373292037 0.001484169805519482 0.6565598949207255 1.9767984630805473 0.1724156812727443 0.15499373854567036
0.236 0.8566267932763982 -0.4121878300997488 0.0005133109342699501 0.000548987478144186 -0.8185638826078376 0.20538301553915642 0.16685423210525296 0.17060647829612327
0.237 0.7635735557579074 -0.3818559394852703 0.00048597014591672923 0.00015316641745076289 -1.661458743757019 1.5716649568192191 0.1971160661475156 0.20625936027735609
0.238 0.7781024987387973 -0.47103681622834764 0.0005697357327633308 -4.4355328455338636e-05 -1.3612545324804184 -1.232443833135994 0.2519189705929562 0.24848680750222954
0.239 0.8364631406088617 -0.5277368849845495 0.0007060196630814692 0.002093335865996416 -0.6603838755816194 -1.0979207830205857 0.13425044334284228 0.22742512893894576
0.24 0.6862187902993991 -0.5067632163396458 -0.00036932136147974483 -0.0007268290857732213 -2.2377388744466717 -0.11991853417218033 0.2803279716306224 0.2483824276602078
0.241 0.8053581721923663 -0.6156867867787299 -0.00011191314231332283 0.0011716956387974522 2.066693134641509 0.9732144613725839 0.1987662419469644 0.15022175585995162
0.242 0.6237145803010361 -0.5405282433288331 0.00021775373942727475 -0.00044633149216646487 -0.8146282520090393 0.287603432089179 0.2339438504411157 0.11691159883229221
0.243 0.7962299474566307 -0.539612493253012 0.00014412926470008244 -0.0008922495779905856 0.6074308641826912 -0.6383880018782606 0.21426691948773802 0.07237642451440189
0.244 0.6895294697832675 -0.6383841273993376 0.0013050491399216717 -0.0008689923769590039 3.3252686007807903 5.3849726262639095 0.2632335473263287 0.14281384809308809
0.245 0.6723081462048616 -0.6666194232851526 -0.0013811071170511185 -0.0008238147966016424 -0.9419386606765652 -1.0268764011810574 0.3293259928758807 0.2987854847745554
0.246 0.6062576120980572 -0.7076184246225097 -0.0005245929288584653 0.0006213575665605948 -0.20241091458544178 -2.1880644571665555 0.31872040532905577 0.2238752874466623
0.247 0.5973475763823778 -0.5550492790878288 -0.0003279593540973814 0.00010370446846756506 -1.1618869235768257 -1.0159884577483609 0.22292545705569722 0.1741040251893471
