!Created with skrf (http://scikit-rf.org).
# GHz S RI R 50.0 
!freq ReS11 ImS11 ReS21 ImS21 ReS12 ImS12 ReS22 ImS22
0.13 -0.19505485202471626 -0.09248564506777644 0.00034878081152341333 -0.0017349980398368974 -10.57452401977813 -5.5769351272988406 -0.23499221491411892 -0.1682988072331726
0.131 -0.28455512160659363 -0.09095248446812558 -0.0014559840714181563 0.0005451496937716806 -26.65039561723232 5.345434864727239 -0.1695782377055875 -0.5701955119028097
0.132 -0.17373853664128494 -0.2500437634844195 0.0012035464986958067 -0.0005244003157145264 25.938937403956484 11.082225736765077 -0.2815138826406468 -0.09393532046232383
0.133 -0.19347821716753583 -0.020569925830799033 0.00029083524063979284 0.00043955577600732735 -5.768767528473489 -26.328695252655248 -0.2420648932316239 -0.02541294600387347
0.134 -0.25304217240052296 -0.12357761149545689 -0.0005880831031578852 0.0003647533244825659 -7.291737411925003 -5.845611428646155 -0.09181809279167014 -0.2687279007401646
0.135 -0.24603378049348595 -0.1144660489693512 -0.0007957971131379182 0.0003477623573655719 -26.814466802354342 -23.93345499835019 -0.1510889072376613 -0.05357466122114038
0.136 -0.2871989847682513 -0.08078635371673236 0.0018682053077458583 -4.034023585420847e-05 -9.046115603067244 -7.8122278760825825 -0.09290183872452656 -0.24309789507487087
0.137 -0.2807532123906952 -0.0849202499841091 -0.0012642951308734333 -0.0005979313863974221 10.405220018786146 -15.402145976679142 -0.2686777151648976 -0.20938654867412534
0.138 -0.23648075290150478 -0.07527482905495182 -0.0004840475805740145 -0.00011317582135586958 8.947493958948094 -18.81368349908361 -0.12654765796253542 -0.3265873191281927
0.139 -0.20403590613441908 -0.1531573820103191 0.0013129389162979015 -0.0019034858140915573 -2.7605540212972564 -10.597465030860592 0.17465528507422784 -0.2581033408827346
0.14 -0.22105177088848765 -0.0721236508873885 0.0011310074254913024 2.982771966771926e-05 0.9641506051993592 -20.09452450690441 -0.12091307348235993 -0.27788726319378676
0.141 -0.20882753162711212 -0.06356668317496521 -7.400740971906128e-05 -0.0005479711964706649 -11.333361770095033 -21.73499809631141 -0.2350851230683556 -0.44420883464257466
0.142 -0.22070276222784643 -0.09494900944615438 -0.0006428306004087706 -0.001061500809335667 -19.63058487756997 -14.3477603895432 -0.07381748717753878 -0.30620943418575275
0.143 -0.32743593104901136 -0.1283081127737883 -0.0006690765301005007 -0.0009382827130915568 15.755851537202934 62.32692580447067 -0.13868805777622015 -0.18378934724894833
0.144 -0.2502505980606381 -0.11481014293671 0.0010808899169220288 0.0003244975259757875 -3.2667906255068972 -7.428827015325929 -0.2398000570963091 -0.026526657468091012
0.145 -0.1961305013243346 -0.03939783562851844 0.0013678373765671232 -0.0006221555363462284 -12.707031527908923 -15.447843872604313 0.06404459326349618 -0.11703439624001172
0.146 -0.16604203233501277 -0.04799733840125537 -0.0022416508616687585 -0.0019226729236576734 -12.436056067638638 -9.439947974531192 -0.05228442270889346 -0.16170750695484332
0.147 -0.18415422412912763 -0.061795261331689624 0.0014476348452526506 -0.000503131648129501 -8.892877197540379 -4.987547353773346 -0.15753918326330632 -0.32534027695881973
0.148 -0.24239631595337763 0.03914626100056279 -0.00017298900611279183 -0.0002596319796712802 -8.371062564279754 -20.90710517497985 0.00602841706146868 0.052645889192076495
0.149 -0.2400998822716334 -0.007821660804824068 0.00020061634664522474 -0.00030177892593929865 -3.8270569198582165 -17.966894499833334 -0.21829125076754777 -0.19823745413758084
0.15 -0.20275531652809314 -0.0005254943891284718 0.002020786758035382 -0.00034949779768889854 -17.143717172337205 -2.5345786879502152 -0.25083283303336346 -0.15364052820278
0.151 -0.23802240876070768 0.015379953084459663 0.00030614820516292827 -0.0008364974226100697 -8.643363111518829 -16.393010993611597 -0.2512519400960863 -0.3996912374967717
0.152 -0.22469594115223654 0.05757415070083423 -0.0012693012435181041 0.0019173704787996424 -21.64085516325861 -16.925227048183448 -0.17489310145303114 0.0261056387970751
0.153 -0.19585943745393086 0.016643008857409745 0.0001304644514011826 -0.0019736107760093117 -39.08289582650634 3.638954261886041 -0.06419845454043654 0.007978049468373244
0.154 -0.17344581796544864 -0.05158741368599751 0.0005464393701076575 0.0006037224884460477 22.952420836689136 53.78870651241238 -0.1734218680562049 -0.020699286862526464
0.155 -0.27595232520801755 0.011523719473205053 0.00034705607542839757 -4.779931471256167e-05 -14.533950719871152 3.574699942544328 -0.023387025720177226 0.02779683875300868
0.156 -0.17355524085821064 0.01833017211081786 0.0009472911210121912 -0.00018021336822920473 8.81138819301081 -22.818171413856355 -0.08146725225125047 -0.30853917051709917
0.157 -0.22641591098233 0.13586422419197203 0.001569998364280714 -0.0010192498681839755 -30.124904817357997 9.371219067419414 -0.09566159611569981 -0.06315299110067411
0.158 -0.28350880383283533 0.03266584610087063 0.00020943198626670814 -0.00014922154875595927 -12.987841536174342 -0.38347822746337035 -0.020085680235726135 -0.04720199623643658
0.159 -0.205169865115157 -0.005288156824597417 0.0008245611528025518 0.00012112172024093873 -12.450049373874807 15.433338741535904 -0.11807704813939209 -0.22328339830627467
0.16 -0.21960144317105665 0.016787674118948354 0.0007102017032952726 0.0001935553464935009 -14.437844361104545 -8.19260126587346 -0.30521593243103584 -0.027566830328300117
0.161 -0.2513703589633212 0.0313501360099262 -0.001172908125041226 0.0004555937209951248 -6.511834459861422 10.689094376315358 -0.1480633489117306 -0.13518913958967715
0.162 -0.21453442643533055 0.072603766153907 -0.0011556334822767009 0.0016189231945981327 -90.64088983359478 36.88177133666493 -0.0919076555735753 -0.19334804781843454
0.163 -0.21189884128679104 0.11620710218641223 0.0005592628230109779 0.001635507700902606 -8.879999935228193 4.667315968802067 -0.031220825440709237 -0.1649081501896711
0.164 -0.23077707502048858 0.005784064934542756 -0.0005616548975308734 0.0015702067424634965 -10.70276277805907 5.408473076642175 -0.22718673107342607 -0.21847830718609212
0.165 -0.22985867664358955 0.044800982371322844 0.0013551414403223678 -0.0012131672121821625 -15.944313706673677 10.686629402404327 -0.14556773780338494 0.03272890109791981
0.166 -0.22546697310983493 0.10454028558795476 -0.0002869583045239581 -0.0012810370234936429 52.63154594200907 54.37967252322132 -0.2999373659369248 -0.03125366661013442
0.167 -0.1988445359647384 0.06532611761031284 0.0008418779836164795 -0.00031502767897782086 -15.006273313848917 13.657652168134629 -0.2084035257246731 -0.2955381729395049
0.168 -0.18694747118719035 0.04119852037642705 4.35869663426788e-05 0.00015269704357659592 -15.813217709499675 12.931599296116046 -0.24931176726304285 0.009705561260479225
0.169 -0.22772647212910402 0.07229319762729339 -0.0014318356918524408 0.000838492565817243 -5.757793805150763 26.5015772789386 -0.1933273858115479 -0.11650687069431798
0.17 -0.18849410804293834 0.06789582290964512 -0.002123090588733843 0.0005593184243959466 12.010645116840866 -41.096499582455095 -0.2149635011217148 -0.1583380061296046
0.171 -0.2283906540288685 0.12116995905326018 -0.0007680068070566291 -0.00048442471082771186 20.984789253483886 20.997352012822105 -0.3117328584002617 -0.17969835105962856
0.172 -0.22343937565255426 0.06701219135801433 0.0011556816179121051 0.000846999633480269 -48.812901143778454 -32.92444955289433 -0.26704388183419375 -0.21827066646221105
0.173 -0.20627731772374155 0.06768541566851605 -0.0014126995200174144 0.0008381620226922131 41.88595574802521 -27.07640814450666 -0.17172603266393302 0.03360767279019348
0.174 -0.225500194999894 0.028883038923408207 -0.0007952999231582754 0.0009714290391935305 21.56191476585102 33.9508814771881 -0.24678924026894267 -0.07048794691553169
0.175 -0.21639840713070763 0.11325157737315328 0.000509834731045151 0.0011886836708709788 -16.09644285391024 13.795933757267417 -0.1716527017360632 -0.0493845489149102
0.176 -0.2145891229811267 0.04394053274588106 -4.506983787680096e-05 0.0008344944477863293 -77.6020993754015 52.37509683597168 -0.18863842537787764 0.029937300690052814
0.177 -0.2680293894459883 0.12022733042744303 -0.0006565441677192684 -0.0009449785496626113 5.8336871720227235 22.388484638957255 -0.2721043321504901 -0.0028968095463961863
0.178 -0.19699434843908228 0.02506499975266375 0.000152505073482714 0.0009935545822507758 1.2126777393957282 32.08133016074654 -0.2757286162979865 -0.056835667644963506
0.179 -0.21156809291540157 0.1559329432279312 0.00023399762888886997 -0.0005602491560109508 -10.209485819679449 -37.32201106070768 -0.4635487014511753 -0.21756733243683915
0.18 -0.12895335391674734 0.13383330303290195 0.0012627002462944116 0.0009131145264085377 -1.749615822654438 24.991855997876662 -0.24847427537354042 -0.04596288559102741
0.181 -0.1844906250995539 0.09845608887349547 -0.0016209321098237413 0.0012826820744372119 -16.900408571144418 11.848740537857111 -0.03923472790300329 -0.07652857715688079
0.182 -0.2440490140568566 0.07426838355412256 -0.0008700445191940948 -4.1763027723410054e-05 17.447924618792257 15.61119019208416 -0.28043887882519813 -0.016832678693556712
0.183 -0.22730691319877042 0.09615408069982208 0.0005427951453548549 -0.0006906835253717427 -58.0478163473786 41.70586325289019 -0.29875255326271366 0.02751955447252819
0.184 -0.17411559492810244 0.135652798755738 -0.00038034120728289617 0.0014098870464699365 -14.900572389164546 36.249351267000655 -0.02112593817147162 0.04359584411054207
0.185 -0.15992688510099423 0.1720684595391721 -0.0005827931564788838 -0.0009397269085004563 -15.914588547664106 -40.76512438213833 -0.18236666590964784 -0.06742955471760105
0.186 -0.2468451525574663 0.1492802398964238 -0.0015666081156774246 0.00043146076810333467 73.26311980584326 -58.694470270882576 -0.22274121011102901 -0.011526324741523467
0.187 -0.24571055875353578 0.16851431996396052 -0.0005676982122097712 0.0008135657668942967 31.662509917704025 -4.909047385159517 -0.2910715691671746 -0.039610760435898715
0.188 -0.1866110944122558 0.11801102951116703 0.0005587561689058851 -0.000279366324781689 -34.97882277837821 -7.010589200327821 -0.3641369226481787 0.10046035163601662
0.189 -0.1920124742982099 0.13629956941856508 -0.0016588719995049722 0.001204904984453424 -29.84655219160211 -24.089934312024834 -0.21159037763585223 -0.0014680781926569636
0.19 -0.1599999721221277 0.13660042961733243 -0.0005289722550181631 0.0006346218545612408 -3.1213918984786595 64.49508759736777 -0.21202119461709013 0.007306449079177975
0.191 -0.15855209227793618 0.21236657721831825 -0.0017156214791884462 0.0009865521795326465 -92.4429264739138 11.297006641254416 -0.2283504924760616 -0.10993107677211587
0.192 -0.16378815818067183 0.18258155617623767 0.0005877703071689969 5.30773207383607e-05 -72.21306540914834 356.6480070535931 -0.18171831325649848 0.006635937036044881
0.193 -0.15543753285732795 0.1442132879315514 0.00010902604704200204 0.0018758155374258181 22.337568429310828 -139.68231294248412 -0.32239272104115435 0.008001658212877382
0.194 -0.16396828669555435 0.210987956578424 -0.00041901906391375577 -7.226890957348509e-06 -62.40832950396898 -34.66149403787024 -0.2852486453620203 0.04524649435622475
0.195 -0.1549461217620011 0.21145618694216842 -0.0007597993548448942 -0.0008567349796933155 3.0964651003324537 51.7653347860737 -0.25071433243828234 0.05383082069678739
0.196 -0.1321831523623921 0.099859136993966 -0.0009274332736940802 -0.0010326240767438268 39.37829547774782 26.366628962507313 -0.2801758640460092 0.007783770357117031
0.197 -0.17593633314918222 0.16217041054431944 -0.00015115273792215198 0.00019565431947570833 45.03829999758997 84.00473489610887 -0.1339258802229965 0.05780814706934043
0.198 -0.15312428983345008 0.17753077790640995 0.00011543418806170096 0.0021902970545897033 74.1736819765703 17.2158023932714 -0.2770353849507619 -0.014457008689423527
0.199 -0.1585149020074429 0.2282586227708047 -0.0013584384859853524 -0.0003339773957038409 -32.26012784727861 5.38171540329888 -0.27068572805648083 -0.10919551801842356
0.2 -0.16662529461702394 0.14423299222406646 -0.00040372207341606215 -0.0006782711669749244 -63.97483640152025 0.10993269734803555 -0.19236555677778344 -0.028312946006310846
0.201 -0.13629218482452404 0.2213928254487644 -0.0024830091175008367 -0.00028051963532513215 41.62792730773782 -81.99404819787573 -0.31415340201315334 -0.05761557542607695
0.202 -0.10098664681875613 0.2320209987137548 -0.00011997340725192974 -0.0004109202498196682 47.21377831302615 -45.82192866324572 -0.15226639186439775 0.051081460902597665
0.203 -0.10252208245673254 0.22749766065615107 -0.0006736048809457693 -0.0006863859028575558 -67.23898623048771 -27.44664495396292 -0.2855704256350123 0.16675639499557413
0.204 -0.10394700413533767 0.2178269030875485 0.0002655353372416265 -0.0005327907947778309 -18.78793813298397 -14.976618504147952 -0.2490432241476226 -0.007670835805977776
0.205 -0.15059265579346426 0.12449121142055987 -0.00042918965862286747 -0.0011418265848861207 -20.79067954891078 8.043294763044072 -0.1943777110937102 -0.06467083520520403
0.206 -0.10191494965662701 0.2092954343582253 -0.001188996514158797 -0.0005893981951218441 -36.58306193266299 2.621656248489074 -0.1769052334473613 -0.03100289193572739
0.207 -0.09551221904059927 0.262596621271973 -0.0008263292314436331 -0.0004013147621122929 -30.826548513048063 13.64050278798354 -0.10873753254376427 0.03222079700653436
0.208 -0.10174865190014473 0.16821537228407277 -0.0020605139453161196 -0.0009545170137957803 -24.96248582707278 -8.340367025434993 -0.10200198465340406 -0.01983095207078386
0.209 -0.09983162896346381 0.2023750570615526 -0.001229903764035021 0.0002669064198731164 35.964284721041906 97.21002462200401 -0.2745307861164658 0.17235645133941863
0.21 -0.07079022547774658 0.26204306544639017 0.00018609321744078984 -0.00039873279853131594 -32.787652257187325 26.3546331791194 -0.20806058631443147 0.05540486354083213
0.211 -0.0745829594421058 0.2347456504096321 0.0005565471066266264 0.0014641983866951736 -36.3015479817783 13.87632857635601 -0.26716584470655796 0.09569317008681733
0.212 -0.08047027864616231 0.23718603505432567 -0.00047917657348362836 0.00020601481956152316 -40.763640795809295 -17.496308456936237 -0.11877134855646461 -0.0379241359713797
0.213 -0.05458788407794774 0.23780481636421744 -0.0026096395356476443 0.0012044938158441852 -26.239654789147515 -44.62273644569372 -0.10277367990414372 -0.07950497301763504
0.214 -0.14981437572254327 0.1368832458240395 0.0007611879124389125 -0.0002909649386003755 -47.00763533545147 60.266633156888666 -0.33439492316248043 0.04102912438447811
0.215 -0.0602550935435756 0.27326116234856485 0.001508456262164169 -0.00015103566413670114 -4.254945044690328 25.2740682285201 -0.22189156295340418 0.07452071212775183
0.216 -0.058143836594289226 0.18953035460488052 -0.0006643936166498972 -0.0018312723748243893 -42.63224934175968 44.53259158691753 -0.1935433867156047 0.13428702420620137
0.217 -0.033666979776330715 0.20974441124131063 -0.00010850949252401997 -0.001814572960531494 -30.46979386727619 5.322150742683884 -0.462554679911244 0.149857311408154
0.218 -0.002451407519364981 0.25119677971268184 -0.0011942091009638888 -0.001803374134090555 -21.025604348522936 -1.6837602416736643 -0.39956269660530086 0.05974204168354719
0.219 -0.07216022771981431 0.24966161243384985 -0.0009624935997649443 -0.0014752176368019335 -33.038464800470855 34.461107430215684 -0.40822513105352254 0.09210483184740637
0.22 -0.06392232683376685 0.2221121328903905 0.0006250217041634194 -0.0008061607638745236 -24.539999201816396 8.170631637571606 -0.2685341213500809 0.1810052479598809
0.221 -0.019623712851470763 0.2521110364198083 0.0006401981957861163 -0.0007008030766341113 -13.142884139430071 20.301419355107654 -0.1773547422588606 0.2600519607389908
0.222 -0.025136393703615725 0.22338152661634594 0.0013183286121112633 0.001097059147612867 -10.002500387395994 38.266602278275265 -0.1855921612730183 0.2161478879329632
0.223 -0.04699539713000305 0.22624692367323446 0.0008703173040092238 -0.0008754676946219446 -30.451788832052987 22.136859456002185 -0.10546446322691268 0.0785102808408855
0.224 -0.0221471847142392 0.24658359376234984 -3.2624563996885644e-05 0.0005382311548892222 -72.06605410596428 -0.1373661020103568 -0.26999955741919646 0.17751353433628791
0.225 -0.0397345624127501 0.24639924137753377 0.0006291525708078554 -0.00012524961927943502 -38.76780049393233 -21.723573096911277 -0.12016531329577136 0.2210937708429148
0.226 0.008637493575337774 0.2373402372080454 0.00015420018713344942 -0.0012101583619387921 -8.816624624378704 28.91087214287591 -0.37910956725237915 0.11360957302130616
0.227 0.022995290214412937 0.2704109689707544 0.0020717185767869946 0.0006231138959746735 -15.231642872491207 24.437045890820983 -0.2016135026964101 0.060825240349080566
0.228 -0.011173191864691165 0.2557795657281438 0.0005292877253939873 0.0005800401459085502 -21.238498324773037 25.49024913975334 -0.29943122622243684 0.0733372363225292
0.229 0.021139806170140083 0.21284693020332737 -0.000274694802801233 0.001082819105627347 -19.67886901913843 17.585290943919464 -0.22533677753603806 0.21944780965696892
0.23 -0.0434960370803983 0.21857908327537914 0.00035763975333263643 0.0012365899021429345 -12.007077036823468 23.554371408798392 -0.18835376851712074 0.13097964398508666
0.231 -0.028682638546087477 0.2646318157863867 0.00036914433324141093 -0.0015410542683484112 -79.80144673658367 15.985758334325237 -0.19661601089696965 0.12513654382856082
0.232 -0.016963559814770855 0.2765335780671826 -0.0005667321829699616 0.0008853207227224178 48.741484226673435 77.51465111773045 -0.07265118725389613 0.11242613826444312
0.233 -0.0005449046319861203 0.2571649175328087 0.0006244488385349611 0.0007676783246456769 -92.67808674710835 9.717130898620763 -0.1861876547278934 0.23777094592262893
0.234 0.046121304376906605 0.2914743497578833 -3.9456214406774896e-05 0.0003841260710319261 29.151716524242488 67.98118180552864 -0.16718821549412402 0.21568357678017575
0.235 0.00813370046517576 0.21247307439412905 0.00016857391807260038 0.0007148741795100432 68.50076064523623 115.65122288245851 -0.2293751964380183 0.15155096399450838
0.236 0.03771308279132975 0.2368229332192889 -0.00025713297966223965 0.0007228301329328216 -21.89041087040981 37.24233164644469 -0.1967460877287574 0.21338867834406153
0.237 0.0006459366730217867 0.23749090522898106 0.0014829086928246102 0.0004692967184085636 -7.619137150031288 54.20347516087572 -0.26344486083200835 0.21277366362315503
0.238 -0.01649269750676018 0.2083889457802232 0.0002093391625793975 0.0018424715492431983 -5.71187667408176 39.27478420218239 -0.19011002580692582 0.18023020430421224
0.239 0.0529130161059317 0.2542713010038427 -0.00030894328456786027 0.0025366582627959974 0.28080599775852116 44.42453157524374 -0.3676441092814853 0.2849703955462939
0.24 0.053469106123050704 0.2324829214249924 0.0023650978699462913 0.00016197211243636466 -18.82437671035219 23.45896018097434 -0.2450149310108969 0.13076763266650004
0.241 0.07178790232121822 0.22502952996448305 -0.00023757842402841043 -0.0009430300591978821 7.504345740187596 31.756597337512094 -0.15871680267121663 0.08762443409159805
0.242 0.03200883817068079 0.2365947272651176 -0.000721351169746275 0.0015039402881338016 3.6788252541595376 42.48541328807472 -0.10982386580067785 0.16854343590930293
0.243 0.09057300784222934 0.20706521597821376 -0.0005075828377555152 0.00028752728609032443 -4.249108228238893 43.70021162113823 -0.2366971001708201 0.11749947514549784
0.244 0.010714833050491644 0.21262609591562673 -2.1133540532883392e-05 -0.00018666536174478205 -64.33486158803753 104.3014443643258 -0.21602079422543685 0.21174320980968334
0.245 0.022214114704080433 0.24071352070849938 0.0006673272195936339 -0.0005946679998734859 8.437557432436057 27.66232334219405 -0.060962017384296026 0.2452012097144771
