!Created with skrf (http://scikit-rf.org).
# GHz S RI R 50.0 
!freq ReS11 ImS11 ReS21 ImS21 ReS12 ImS12 ReS22 ImS22
0.13 -0.35764996625393664 -0.184056177008969 -19.985118046095014 6.98597338802508 -0.9525628483483839 -0.16316751166615423 1.3922254355280315 1.2237033350665374
0.131 0.5502837799156484 0.4582801677330484 -16.154539663725856 10.447502752036028 -1.5491371631018986 0.08893103962414593 -8.96291878066586 0.371711551261328
0.132 1.6993275549904028 2.6981844060033757 -26.30279616825465 1.7256473626053372 2.3595712040356935 2.403184349506179 -7.4943688855285 -4.679021127846848
0.133 -0.40636348382601245 2.230260240844745 -15.732533730093037 8.302935983933791 1.2481055236355778 -1.5474281351515358 -2.5768436956569936 -1.7550540877824377
0.134 -0.14630003754710544 -0.23166701251825073 -18.986226909978758 9.334350658646477 0.178315729489758 -0.5357741626275773 0.03378959674944892 1.676843430744174
0.135 0.4622271557127664 -0.26446092196264476 -21.322560745609824 8.92789418339877 -0.7971692499092744 -0.02099142454910501 2.720421750348866 1.4880113114622415
0.136 0.1332375875776718 1.1403802587873189 -14.656408069892539 13.312600786733507 -0.5968335311953922 -0.24114365968915358 -2.7046239106258465 0.6145103133364519
0.137 0.4892993056855792 0.1326232252242149 -19.514498168695194 6.929615434802535 -0.39351987147461326 0.8883095170643508 4.940578927909542 -0.5793155003398409
0.138 0.10843784159481369 0.26461785783191866 -19.32584607870726 12.751965978931016 -0.225900121682515 -0.2722249662830622 0.9937110666841683 -1.826568938187243
0.139 -0.009226111752025087 -0.8371837269763798 -18.53788095904578 12.863090977709703 -0.1619946831146892 -0.3274400934928798 0.3745256616463352 0.8361823138701432
0.14 -0.630281267669041 -0.2428763750238082 -17.662428171893264 10.799230953787188 -0.899597793364857 0.45423544735109134 -1.530543877576106 -1.089008893002981
0.141 -0.2598321643227236 -0.7741263812493446 -17.451957328050753 10.197576668630408 0.028235482489835734 -0.7801802452095182 0.21608562238030843 -2.1047320580881803
0.142 -0.24191956726233904 0.8016580038125142 -16.564363910320303 11.22971914853444 -0.054356709688094806 0.5536971816993129 0.21528660462417953 -1.0253575912081303
0.143 -0.8166322456185974 -1.1716880340072586 -15.988120175569327 10.637043170895389 -1.4318632105233304 -1.194582698591346 -0.9145797711861184 -3.9621871470587333
0.144 -0.220292224328083 -0.11171436710429003 -16.58498252721171 13.894304396435803 -0.09275693165899919 0.055021309478532746 0.013189688902758208 0.33838292686834465
0.145 0.5283341082567605 -0.3296394813215454 -16.02022304774426 16.32205647010867 0.2998491939669269 -0.5126031467445917 1.1602907323064127 1.338007542995566
0.146 0.005456315709406211 -0.05973930726117101 -14.985122285120932 14.69067788896866 0.2584465780316069 -0.3055904134585587 0.9456273159241517 0.4277301043925878
0.147 -0.10230455676782005 0.16475870815652482 -14.83552243387482 15.495785556809198 0.3732626533052943 -0.5546832059876471 1.507122279282988 -1.9779999208854548
0.148 -0.10427723117362134 -0.18825656931482973 -14.179957863357584 15.590873460158301 -0.24020823224251753 0.3000764808252005 -0.5354484877019228 -1.3660221838886746
0.149 0.3459286943581093 0.08175836231023507 -13.625648361700877 15.152483782005632 0.49507224611680734 -0.26347949509957824 0.28875646830787033 -0.8644362295386183
0.15 -0.2858769678940889 -0.013394242014786945 -13.458147729321311 15.895338243521374 0.5570333451079432 1.0714497620751295 -1.012173539885778 -2.81826355035577
0.151 -0.9254147281977455 0.2921628415328527 -13.955071742454667 18.496430509501927 0.644107678283094 0.13258895109319604 1.2698381335973103 -1.1798543503905938
0.152 -0.4901894849814606 0.5760054119255906 -11.554081821725905 16.602893573871803 0.48224290173492934 -0.361033961855012 -1.0297843390630252 -0.36460180821871835
0.153 -0.10246881329387626 -0.5836110563091212 -11.806546554818627 20.280179745396715 -0.2171656871142405 -0.4577652804007468 1.964881252604425 2.402295518355481
0.154 -0.07355961084656507 -0.8669185664948804 -13.685599350014524 17.18741650501467 -0.5547879431423646 -0.6336561305714183 -1.3306963098109443 1.0259972809083584
0.155 -0.3853062028244363 0.1599518565399536 -11.982388566700509 16.60671010279407 -0.19633909732451874 -0.12058527157688163 0.6206019706217937 -0.6612452026690913
0.156 -0.18386727188736063 0.1235692640363731 -11.353291936744547 17.86515536967193 -0.09041771877022388 0.22192425592015344 -0.5608725103215403 0.14335728137525142
0.157 -0.4027229536882523 0.15534043286101712 -10.258495569424525 18.092921939712394 0.6539071635843964 -0.0952565191224437 -0.41135871581274347 -0.08214745043169355
0.158 -0.4500645627881679 -0.17877605002192196 -8.645670249000935 17.763612428534188 0.43628287418851275 -0.3605387992759901 0.7068092027041593 2.780235381245828
0.159 -0.3997770831279274 0.20809673368840836 -9.88949636824237 18.725400874360535 -0.0731209328478473 0.21568241865913534 -0.19567361037528383 0.08401099165366988
0.16 -0.4566416600666327 -0.32162921175608017 -7.333942167495518 19.34118063413104 0.5143308759585171 -0.05487772199401944 -1.3559175233813476 1.3713831866587571
0.161 -0.24892572806971344 0.06187090544622937 -8.540092940152338 19.42090474152043 0.0798235658398634 0.1588222055706172 0.47374651456136346 -0.06970109892161855
0.162 -1.951602790464282 0.11404497760535294 -4.796883943658391 11.46855071686873 2.625247036347606 -1.2792837885916732 0.5175372665177244 13.721827779902346
0.163 -0.0441152631467008 -0.1452146176238575 -7.659024014990438 20.019150229617424 -0.16311574773695742 0.007019836890188014 0.4288851479050565 0.09693109966781177
0.164 0.10032370710974067 -0.011110871684021853 -6.702084286302616 19.68835111434827 -0.11424776350666614 -0.48363141281693195 -0.3303858035517036 -0.48527753183519023
0.165 0.07643294603137238 0.15604916122781456 -7.149084660020208 20.099853229519823 0.2833638227521036 -0.27880072712759374 -0.30927161547417287 1.1120796439886147
0.166 -0.029704450799953732 1.0201179766403101 -6.665833054340184 18.924378507954582 -4.0117892961735535 -1.4097086173764022 6.635909736882718 -0.6332924447380431
0.167 1.8897348527255982 -0.18595055385884163 -4.265875102051806 19.74010373931347 0.525567024524348 -0.9864258114034578 0.08725178584497872 -0.7302765289142962
0.168 -0.09007182444009142 0.06048580172673421 -4.613568380539197 20.43353067826824 0.22197282398796309 0.0771744053599607 0.06880653101353976 -0.41125008297738136
0.169 -0.5300922563041915 0.22747552524012532 -4.493630906012801 21.25228703079489 0.8617013871505209 -0.1236040241112937 0.8319686139074907 -1.1355377908520938
0.17 0.22402683618756464 -0.3174991126690072 -3.758275103587536 18.867625498220097 -1.3118861282358356 0.3572679136897332 -1.5610934272389545 4.419349445986322
0.171 0.16372783708577857 -0.31616424008443356 -2.727087544910372 19.233986385483487 0.9977650427349192 -0.3419163469634519 2.2719545669368846 -2.9319035299989045
0.172 -0.25240360054943756 -0.6348979206177566 -2.9008919411469023 17.87377164345605 -0.441169098022998 1.6745424881997315 -2.269506727801051 7.44849620543486
0.173 -0.5847156824187384 -0.1268036734900898 -0.3911965154062409 20.719610023717802 -0.6241935837294376 -0.3367771646389652 2.5167551924090095 0.03970012166646486
0.174 -0.4435320016933307 0.07683138838750526 -0.4038373928675918 20.930078873619948 0.34384152057710876 -0.43101307444545556 -1.4849877550363928 1.502826419113067
0.175 -0.05616131029448256 -0.3649240260474181 0.5134317227391817 21.579990188642665 0.23060978098442256 0.18483743468537106 -0.6822931108830927 0.6051525003763033
0.176 1.3912273171361194 -0.022297366350683342 -0.7901665448268536 22.22315242675762 0.9807765395606637 2.470113385701353 -2.051514117932538 -0.21434380757679666
0.177 -0.1343780079891874 0.12344656483239307 0.21897555182514142 21.138979181709985 0.34541589815001433 -0.058509502193916575 0.1813185825365222 0.22361891798399763
0.178 0.049148436836107826 -0.0708605574722477 0.5840714867278366 21.310187266347246 0.3079364590648759 0.3331969100933461 -0.41585433930453747 -0.4438575048245404
0.179 -0.2379304516256166 -0.11830706225823016 0.9450439324845972 20.445891667687025 -0.13425672071116793 0.7037485875315054 -0.15371743414164132 1.8927065761788313
0.18 0.3120658878675199 0.1982854903544299 0.5468543572899672 22.047606802961063 0.6475325379924144 -0.5445886449795446 0.4642184562347768 3.2099497695146
0.181 -0.3534380290115131 0.10610559139340656 2.8622660816383885 20.940148753342456 -0.675524020671358 0.020004435231460404 0.4958981439865532 0.1927337541702389
0.182 -0.5097518429639151 0.2655592740175262 3.107034578139771 22.53366886572362 -0.22838000047875065 -0.4643421330495508 -1.893188221075748 -0.44610480294347044
0.183 0.38012462695886545 -2.819270583753314 -2.695323796169548 21.857815608948425 2.7986723911879543 0.4171659280722546 -1.2969142383309928 -6.281670814973376
0.184 -1.3557648497793227 -1.0409387395754826 7.674300837876512 17.044510762704498 1.4872309929412852 -0.66587566204136 1.9750109867393775 4.496766825311485
0.185 -0.32182634509699426 -0.898508681483191 5.879349028310142 23.179954059489713 -0.7601254825957384 0.352382710068618 2.2043015613149457 -1.4319053649454163
0.186 -0.4847754929187099 -1.5373611728554144 9.530376435275814 17.647079526463422 1.1128901960481936 -2.2052579496322795 7.674922995976391 0.4011174632131259
0.187 -0.9521012674720817 -2.0265114604029333 3.6289844461050658 21.46470939716299 0.8614908748143272 -1.0164665218449302 -1.3330213806207205 -0.914061070427105
0.188 -0.027240232515251952 0.3228289763461259 6.2496733816950965 19.93030828549748 -0.3168886335864684 -0.44740923512437114 0.5132765643302537 0.011947358577765714
0.189 0.04073390414057022 -0.16488309612963012 7.584774846936326 20.563769516253195 -0.4367565534037603 -0.4747736387807198 1.8159662601580004 -1.113891671532891
0.19 -0.07653572413211915 0.01603164908616335 7.350761263630142 19.630375439999504 0.06703616777340295 -0.4295787395584306 -0.14844156664592778 1.5108182072093197
0.191 -0.38163279376127385 1.728512127405855 6.669707182983892 20.705015645716355 0.6267504769930655 -0.9253924803311485 1.254181940009478 -0.4661654483580114
0.192 4.687848376643866 6.035036627296743 15.448498094771448 26.036504841234414 2.813840219856796 -16.778003672089554 1.3456315208530052 -21.580405522866016
0.193 -0.48773882672455376 1.1015274965737296 8.42015324449294 20.33127569391606 1.9510846954998193 0.24270736789951666 2.7543611512009534 0.35112665967932566
0.194 0.24209637429716624 -0.6721856042943788 9.04573331578383 17.591427834888982 -1.375226982763453 1.05603539110829 0.14379062183200494 2.3816467782114863
0.195 -0.10763755748897373 -0.35074239459665235 9.091801762439871 19.121105913577086 1.1411452827454716 0.23566416368178197 -1.3781773705175304 -2.9196988564168467
0.196 -0.6904231351353864 0.324742059485541 8.765151716200705 18.902311392765313 0.047250048831721604 0.6003567104973775 0.18847832242910736 1.7275797848764358
0.197 -0.37403408212188743 -0.9873090541422892 13.780272662210475 20.374959591060367 0.42086399945632996 1.4994397687531948 -3.9359684130927115 -3.5257265806090494
0.198 0.23099584772648962 0.24204035529944395 10.936334074382811 17.080923235067978 0.6353783189572507 0.9704827803174092 -0.7475222991892708 -1.938769582764413
0.199 1.092152808531012 1.300436103311568 15.589199252483311 14.669230807382919 -0.32879144486775586 1.7006464864127762 4.1479210225079255 1.6763036542557732
0.2 0.08672397168919871 -0.21364869252285082 12.946340541837358 16.865205345156745 -1.4188807130903718 -1.7381063840296744 0.7153020107025445 -2.765201792631186
0.201 1.3456751323393208 0.37888334460510303 12.035793032340525 13.840725608856966 1.5444468974302308 -0.17858373700708138 -1.6100397413424679 -2.5876795532938175
0.202 1.563470149544903 -0.44968736530302983 15.72936160646898 18.788455912756987 -0.22477415022293454 -2.5817841068985983 4.755794247783903 -2.6421702792399944
0.203 -0.40311585565022745 0.27353396788316847 14.559249184598425 15.525326489600118 -0.7486349822021315 1.3163951676752124 2.898049940034577 -3.091065383751206
0.204 -0.13079472437046183 0.0694119500525545 13.970248145650453 15.303366104334371 -0.18055340873404574 -0.697540978569173 0.23477717232250292 -0.624878150126879
0.205 -0.6466749645254529 0.6087704673815859 11.996831724737087 17.55228157234856 -1.0503803828558806 -0.26133546727583734 -5.040774254974115 -1.000207078203331
0.206 -1.0364023669045281 0.06642486223627726 11.635758481208434 11.590881524564546 -0.227546974888616 -0.5300922028488196 0.9024573389347758 -2.6667500881056165
0.207 -0.12478385452093921 0.0834166971892042 15.034195380668105 14.086582840494382 -0.24111163145287795 0.08640755910236667 -0.7970193832932587 0.4951429942716589
0.208 -0.2732239112760039 0.2726117798783332 15.10333093195167 14.064445318847477 -0.10653379318726057 0.4631620015887374 -0.4186512326736782 1.303634496367877
0.209 0.08952588912013343 1.120477518692781 16.608788698980245 14.42568910109208 0.144533497701839 1.437954658698106 0.5902538443773836 1.2866569251899604
0.21 -0.5226517165263909 -0.6648740889556806 15.46921170193465 14.254248118610063 -1.1354484912053477 0.6696457202098117 2.030027344176687 1.3311611142195285
0.211 -1.0550599757168964 -0.5882928119366514 18.910198087920236 14.929936492724229 0.24085297377096826 -1.1776648790378983 -1.3486300750458775 2.9788236037731277
0.212 0.11661538651372735 0.018984134294873924 17.54115645050716 11.469000000525856 0.4072504267901637 -0.2805851271695856 0.9046740139324032 -1.6253379510358525
0.213 0.16390732263342306 0.8415142959887053 17.093426377958885 13.813122646554103 0.43649289363421206 0.9975385618251003 -0.31263052621574533 3.2389714034543324
0.214 -0.34446238194156187 -0.02002351063371537 18.112616114009658 11.714102085805244 1.074562951568505 -1.0871316470061891 -3.5819029348430624 0.7363129295700239
0.215 -0.1964813794967546 0.17452720506979585 17.780051528200143 10.44145980576323 0.042217649565699476 -0.2174062200127706 0.39745455294021537 -0.2500744112735482
0.216 -1.0400481855170127 -0.4518209034395614 15.07381539120669 7.864954028665616 -0.9352976760229975 -0.7759331140186544 -2.9040792854139523 -3.0011857973413223
0.217 -0.19050856754076914 -0.017713170561065663 18.390096690981053 10.45558120790602 -0.016857161840205862 -0.28261031349808197 -0.9406717310173393 0.848415477558396
0.218 0.030295125620320183 0.0003986211382974707 18.609240827905186 9.16509247611384 -0.175359939228797 -0.840770890125966 -0.43167792536320204 0.14344514085145094
0.219 -0.3693243506651036 0.5501849349265693 20.119332180799702 8.482073404461065 -0.8554132113381226 -0.32106629777840356 0.7532007728066361 1.7488030105164243
0.22 -0.49045661180585204 0.042205299660786226 20.16183963301906 9.389428406970415 -0.5582374997892818 -0.292972360427209 0.6037052302159339 1.9978868171780555
0.221 -0.11683407161957664 0.41691327087939656 19.17612306414509 6.737553442663671 -0.33162623098278626 -0.1299604921887977 1.0723988958379682 -0.304957279621143
0.222 -0.09308744369235245 -0.07838346261698204 20.464658854865615 7.566210209216132 -0.5748352724223447 -0.4792233918347676 3.010039749293103 0.1276367793869262
0.223 -0.7636461766065705 0.23920301173390704 20.500217375142615 6.311497348373078 -0.8239951144201234 -0.4033740102331 0.795066760180125 0.22428336654360584
0.224 0.2837458926660823 -0.39186406894640124 19.55391878244678 6.067406802495281 0.9478048940529946 -0.4907865030031429 -0.5114123285305754 -0.32636884746318845
0.225 -0.18699824455669697 0.2713883290708025 19.990182847290214 5.133918928487233 0.45203377239297327 -0.07335543248320701 0.05487292825702279 0.6335823553325989
0.226 -0.4576885321460511 0.06514497179030715 21.05369706385015 5.925349426667869 0.5342200385071378 -0.6584283309269994 -2.503505277450007 0.2391401175537503
0.227 0.07492080746521132 -0.26224846119914436 20.542315709943615 3.7231033067230643 -0.17180566355256224 0.320823512192269 -0.2055383315230085 0.40524955009959956
0.228 -0.20429111708953201 0.08677663051880252 20.382707182793677 4.026062668368627 0.24928000632028283 0.18337481558297117 0.11370776768235756 -0.37863071060511144
0.229 -0.22235967978840152 0.2971309650841536 21.256037518198845 2.6107688868127297 -0.013183880456890194 -0.6072777218010912 0.20090804208592303 2.054935135401387
0.23 -0.25655347662481376 0.22194841447636138 19.94055478116676 2.3241966786700083 -0.004805787397028398 -0.27444312978339247 0.46504204863761694 -0.663675076879372
0.231 -2.773516933017407 -1.1134762958070568 22.706998361931827 5.9207229350336625 2.633118707039593 -0.10677216663370248 -3.0670630762860824 -2.1970561864987572
0.232 0.6241073180943945 0.968755257621206 19.042638149116467 1.3148789072614586 -1.2910102033430793 2.2939953108293856 -1.0807100440115902 -4.403104556614032
0.233 -0.609744670473411 -0.5477441671426927 23.82356292662658 1.3361181065797958 0.628384988424469 1.3382723813904713 -4.51858747909917 -1.8909036489760072
0.234 0.47265489547944894 0.08624242423580451 20.63638848341925 0.6625643191000621 -0.8700626101810026 -0.4240178920970016 0.5501278235367282 -0.025699579104192363
0.235 -0.004096854014986451 1.672249949265673 22.431395175330238 0.2592243518348616 -3.6454844321576294 -0.49811475321501286 -1.329296370451298 3.4421778736559356
0.236 0.4428273976144376 0.4006278794746559 20.372066096566034 -1.826215896864846 -0.5947195055477867 0.10030393583167731 1.301963070603255 0.690949426972219
0.237 -0.052102537139098494 0.5360943940556464 20.948724133955363 -2.035451586825137 0.27423093836793355 -0.6946030912613593 -0.5245942752924856 1.3750869296450055
0.238 -0.11307056208577099 0.2723026971425881 20.506155116020945 -1.7567767169912272 0.3072348758282984 -0.43340955943307397 0.8433774071734479 -0.06370736973661266
0.239 1.372017495968507 0.21919412552559114 17.207484034581867 -3.306872420765118 -0.6649069607123416 -0.8084039863156508 1.144151953080991 2.5018368708289525
0.24 0.612139988802427 0.3386170827444318 20.694039243559292 -4.184801844121812 -0.538304207770651 -0.23965167165681292 -0.3688541212148066 1.2761456217666864
0.241 -0.039165793471876126 0.2353944644298027 20.55959693655134 -3.2704867082684825 0.04137361525611348 0.11583333112730348 0.13753718922449054 0.023983324009817886
0.242 -0.02002088231231667 0.8413139560353943 19.532225648550472 -2.7765418945613485 0.38862959376465395 -0.6687933117473137 1.4721789245257635 -0.7492920606691148
0.243 -0.019315204484080365 0.2489928259171779 20.400452961088288 -4.223677126209267 0.35410358855706675 0.08077903459336584 0.6498816865046543 -0.8245700767795867
0.244 1.0935319164778863 -1.732524878992614 22.30874913944538 -7.648130569940856 -2.023243642715161 2.0955964648338936 -3.4676311913085245 2.4526705911834035
0.245 0.3263586326115335 0.6527163319897487 19.437817544365597 -5.411425627577589 -0.056822813878326855 -0.6803925448303417 0.8927301169385503 -0.03585936059949571
0.246 -0.1646364982346108 -0.34605923820121104 20.188506024605477 -6.926845282807472 0.42851958050206035 -0.10351347759426557 0.533714239164956 0.2932374639270189
0.247 -0.11013381809897861 0.43724162880739476 20.089881490335614 -6.3949305325024755 0.8340316539373235 0.2633005497059801 0.40912609844352354 -1.4064426622678607
0.248 -0.006663225262956287 -0.2545735184423914 19.452136978175503 -7.103706220207213 -0.1804804755844507 0.4461676122868771 0.10794267321063121 -0.11875557721854262
0.249 -0.2675456949956306 0.44568692604866633 19.08543445484835 -8.256479662780398 -0.6175875236636454 -0.6329106991530261 0.9512724275039333 -0.34709567278338255
0.25 -0.4574841535901536 0.7473199937723124 17.108384536106076 -9.48801797358365 0.045040075203341946 -1.4177930979104265 4.058212414757611 -0.48837549490527415
0.251 0.09136825698434052 0.23337179562855917 18.956779395251974 -8.529428856625966 0.3467482378344248 0.003957899094003472 0.6714236403534918 0.19810970648552642
