!Created with skrf (http://scikit-rf.org).
# GHz S RI R 50.0 
!freq ReS11 ImS11 ReS21 ImS21 ReS12 ImS12 ReS22 ImS22
0.13 -0.16801023637271206 -0.06172283056387372 23.514164182094568 10.38730760725783 -0.258367344398392 0.24172708199359566 -0.8999006308995765 -0.9387729930244504
0.131 0.13043627225504545 -0.14495243609276065 21.64888242850406 8.210614367690413 -0.051790028674603854 -0.6319104518226663 -1.8771585789049825 3.4253056368203603
0.132 -0.598904508870089 -2.268102300997751 26.729997412328334 1.2805508366022018 1.5855036253569421 0.8576730221331423 3.8556560473037664 4.810079146307228
0.133 -2.354589428576958 -6.008042780572849 37.25834522576205 10.774707880419804 -2.1222908934666926 -3.7891517141810107 8.435236397685202 0.46598137390747923
0.134 -0.31474129409515905 -0.07250534632048367 25.86624753812575 6.693269037181305 0.14428260595816633 -0.052886119341032926 0.9184258007342809 0.07663943448604818
0.135 -3.7414000912690066 -5.8671066924230635 49.96091215963925 -20.937336874648214 -5.048158698690946 -4.570098670809984 14.0225708824536 -32.71276985571326
0.136 -0.10599448395146992 0.09894014895890463 27.826996655561036 6.213719439228842 0.047029841403945914 -0.06667276075822061 0.5895442932333353 -0.08555635740552896
0.137 -0.2076304185025871 -0.04831072013230711 28.151540968012014 4.577913062022812 -0.024546201427273113 -0.04958341145615511 0.6381305559285292 0.20883937150927745
0.138 0.7050555377744907 -0.791760312550833 25.20743364085787 -5.165132015860349 0.11185547090643533 -0.7983224590548802 -5.335363010364848 -2.61408550778441
0.139 -0.3164892559269982 -1.05922840713525 31.619376841688133 0.23539301125116882 0.32177955860820195 0.08184749956364983 0.7957677410657835 0.8313751840147765
0.14 -0.5442882252437748 0.3622209021987515 31.396046704409333 0.9230965436490323 -0.49195034273559546 -0.358565720097262 -0.0360620362451181 1.3430011327404776
0.141 -0.2513817373234495 -0.04879241244248884 30.18128647740017 0.20565290800693878 -0.007650955622112195 0.030716558706745146 0.4315746219284371 -0.3478475911345303
0.142 -3.153802869366614 -0.045876164183476786 25.460692493223707 -7.078808142953311 1.0229859079878945 -0.7447938328425995 3.7323294752448013 0.44194734524741125
0.143 -3.8421654454806786 -3.0622077293470555 25.331194721040116 11.169615108367633 4.414517644809343 -1.1671728476946568 -7.599933087042951 -12.86656119210496
0.144 -0.0035860779462626472 -0.5669361518745103 33.80185757584649 -2.317436070166133 0.38432153284087284 0.19005756498349535 -0.9765171730068168 0.7089588806801684
0.145 -1.7553294942734003 -0.37213044375090754 26.459064513455996 -1.9414982581438358 0.3949695297523762 -0.6720750606896171 -0.5157959119235374 -3.880421587469513
0.146 -0.4804187993138046 -0.2663348198130867 31.06389761867341 -6.223251080727259 0.6810809901319749 0.03971452893688159 1.2795072646534664 -2.4369989093339663
0.147 -0.20461036357468504 0.03318797980268612 33.32657950461606 -8.402934490303485 0.10256261637670877 0.1626810017743333 0.49228988779308297 -1.8123994724342254
0.148 -0.15065942977206678 0.3395879823029331 35.68476801294253 -6.852098309624103 0.227199968142697 0.47857934077094866 3.2409540013891855 2.6562560104671076
0.149 -0.7989822050843601 -0.8120618431480708 35.14855788830135 -7.980906901722718 0.7261661613250242 -0.2642870517797986 -1.6698801596214143 0.5291157473575969
0.15 -0.19682324690890385 0.19570620557741672 33.963040426200806 -11.176194350069187 -0.3248046885971771 0.47404302009099486 -1.954643083429702 0.6096869079816454
0.151 1.2364984376312842 -0.6001681500568729 29.500881214818694 -7.958559491537994 0.6268967109281904 -0.27200574496327784 -1.7566841477376898 1.8413342433725532
0.152 -1.698013391905514 -3.4760573622213173 47.99757783632241 -19.65107600850975 -0.9168985683700916 -1.796614052618259 7.227313058599602 -3.400095420857951
0.153 -1.1832343310337208 0.688453323505204 22.69699095768258 -11.765370603922051 0.006065617274469058 -0.5932330379808739 1.7338988091424663 -6.214847084981887
0.154 1.2684139760049895 2.3437048323876555 22.78006238669924 -18.72818963299748 -1.4741839249032322 0.4799487761564613 2.3411398984734566 -6.071484299901285
0.155 0.9646225091201636 2.680480431046106 53.03098928642875 -18.22534356005239 0.2825181533702174 -1.1710062514164135 -6.1677639349287965 -5.299790402443099
0.156 -0.05203476281864302 -0.8589196776194032 27.31734753072564 -21.446294554860323 0.5498917804786441 0.7617318339540352 4.800473711741922 -3.6660840169297417
0.157 -1.1138863838893216 0.2482038749818607 31.93684636421436 -23.199553162947883 -0.9846480669965173 0.3488747890013912 -1.1731980010917396 -1.4238939426431185
0.158 0.5106208967277626 0.11363593336406644 38.53429732315196 -28.971714150640814 -0.019101953285279225 -0.7261156610102456 -4.3999777153931365 -5.141676048177657
0.159 -2.7670365432583406 3.1862026011207183 32.96830944444361 -20.985685162772214 -0.3929319082706191 -1.2417396057256511 -1.2036869698832764 -0.5710316408049864
0.16 -0.5707721277595438 0.8098105887918694 30.282015094431383 -21.203156559153204 0.376287524547447 0.2921725663093827 3.0850814405391556 1.4320128570258825
0.161 -0.3772077252287231 0.2914983575048609 30.41870740052985 -29.66888721518913 -0.20183511339148488 0.018577743545684637 0.7774584636991488 -1.4218876502008106
0.162 -1.8894327071171588 1.7756127861733026 29.864347523770196 -6.2261897759232125 0.08748391961373866 1.8684790305693988 13.22466480305195 12.759717700451892
0.163 -0.43792749431388045 0.5462295579112375 27.746196335315297 -31.142283961310536 -0.1926417991141702 0.08278346237836026 -0.5757552338753337 -0.47606225406568997
0.164 -0.41233883353662365 0.10930438054693656 29.251394320298246 -32.28434378588647 -0.1422673213789222 -0.26302964502043724 0.4453805408285683 0.28591705411953094
0.165 -1.0848804174883038 -0.1373318543466966 22.52095545896797 -34.5018602855672 0.10813534022604017 -0.7542157078420312 -0.551899963141302 -5.072221627891119
0.166 2.0825353629439367 1.7823876963440854 35.14498637495337 -30.412290815769403 3.798699978871269 -4.294859012988197 11.883915355607162 -14.917977632749295
0.167 -0.279705895514754 0.4415884083781095 26.445733923436393 -36.82494073674829 -0.07712069283184043 -0.0440862359531479 0.022243782524018686 -0.0494120632242343
0.168 -0.9629732293790683 0.12175053047983671 25.634396941085328 -41.99887887821763 1.0496785412524103 -0.603189316104114 1.6901138486866931 5.632604793313647
0.169 0.7600675979077194 -0.7868319165516814 22.829789082535516 -36.287623652531245 0.7882369816693003 -0.8458656820892664 -0.9487375864356483 2.7970703156227277
0.17 -0.7587925464837817 0.2347809526759793 25.545213655322907 -44.5869380302167 -0.6206556208002482 0.020590997378427095 3.9333247782317637 -3.386164396923857
0.171 0.4012194914935523 0.5253136929659054 16.124586629190958 -43.604829387751046 -0.5598976795710584 -0.4747189272743434 5.37960801935023 1.819204544525832
0.172 1.5179058602432407 2.6066989867775336 11.822235681571657 -72.46984719575619 1.5422773640965988 2.9513730705570165 -4.753705581424633 -33.17917502967864
0.173 2.9646103303978366 -3.4676140421628574 36.31886122601884 -81.34009875319411 -2.0313444616499474 2.4806789126150806 -10.795181073678705 24.51827194315007
0.174 -1.1018825349292272 0.027382858613119843 11.153485609377041 -50.476768567800825 -0.512852646640506 0.5457011263551214 -6.175042859260358 2.4648406693372014
0.175 1.67704320503206 7.6312804188526675 72.74308654298645 -34.92254590421692 2.2571541226610115 -0.32884220464909636 5.192227534404814 -16.52356560499205
0.176 -2.9770850232147765 5.224408909959809 16.724005813450734 -37.29930288441014 4.123735352618511 -0.4353712254018579 5.521144545327336 -5.888215623785633
0.177 -0.0801460792218418 0.06134605286627648 12.299270478134428 -49.57304930408542 0.15942951022813942 0.15651469142720825 0.599174604029475 -0.7485397776358125
0.178 -1.9112143781928066 0.16993717409135428 4.864254713453715 -51.486634120867826 0.6430825566674737 1.1301302779743108 1.292229535585712 4.499686874061167
0.179 -0.620729265336716 0.3788871473439469 12.328024346364122 -51.64698594605609 -0.5310194957001174 -0.045405191341063786 3.4375067745275016 0.2174296826692845
0.18 -1.1276227114280475 -0.018998665527362128 0.24298450234585078 -46.739148143654816 0.34527940484386527 -0.6390217853526851 -1.8989740768224044 -6.512566174769055
0.181 -0.5261659954069988 -0.3690232854395411 5.4053627929356995 -52.928764631492136 0.38399559167910513 0.5221606338204893 0.21068741191323867 0.6528396598088195
0.182 -1.2320497304053322 -1.6709636237045424 23.47869918390938 -46.11069818903441 -0.8346989303953295 0.4829681124208501 3.3029187704945877 -8.99120065602282
0.183 1.442612082343402 1.458411558616483 -4.423270039845938 -42.8108125418066 0.3260744902850393 -0.7362190381123753 4.684848444854805 1.1638604852638863
0.184 -0.19760042430758373 0.5835917440695866 1.9885154469079318 -53.22623032467671 0.14030523372656875 0.03104314900668045 0.5756446732707452 -0.8021754066122041
0.185 3.3516512864799166 3.4574721768306897 24.435568247805477 -25.280520875921358 -0.5446647304526065 1.4512011238618567 -5.43494063017455 11.278483341955049
0.186 -0.7983314768049954 4.490662944956332 29.65125869589525 -60.26137304818605 1.4859061415222528 -2.083457952502037 -18.914749853052623 -6.766907694577547
0.187 -0.706322617277405 -1.7756580708404146 1.224114737888501 -55.46149464181994 -0.26981379331786853 0.36488462509999836 -1.0116712271763464 -1.3234412377368545
0.188 0.19908888735476948 0.4861819032961267 -7.175787877757995 -55.8670007492742 0.34230562408658977 0.10490939211940169 0.39828426860054095 -0.49582305310520536
0.189 0.05909961835244995 1.8210154938264542 3.8378839014925137 -53.94500928058448 -1.3073856046386685 0.07513706060318173 -2.5343241569197947 10.618498318329927
0.19 -0.26669923229375797 0.03394918218631457 -12.19401064756143 -57.37552053739004 1.4947605947115603 0.1035978002233441 13.288596225585067 2.016984149917745
0.191 -4.913914799077236 -4.940506942325201 -13.926962032968486 -34.690227513947946 -0.7941974345513948 -1.571465567512736 -1.4184745449926865 4.953780549824543
0.192 5.205505227001525 11.13903951568939 -34.23629280206087 -93.84099224879321 -2.4382447329835086 9.466434359875509 8.907165061353114 -32.97106431799652
0.193 -1.3112230308901696 1.846983249500229 -12.559929396641296 -61.787581275137526 -1.2872134218343452 -0.36272757276465756 4.986073483764532 1.6049913547236407
0.194 0.3244157644110737 0.580974979028116 -22.294648832611475 -55.12776091540296 0.2348075984149821 0.34693559521990136 -1.4207884494463685 -0.5346942924363904
0.195 -1.2207200759182528 0.5682051082591205 -28.841702930608484 -61.43509053880288 0.17385344095518307 1.0676110942538781 -6.904938206431576 5.396408128522923
0.196 -2.3401095866236017 -0.8440791261130671 -6.345384456349849 -45.59023398699699 0.4755574446063455 -0.6592193881105639 -4.068809062126981 5.122045604306179
0.197 1.1008177628077869 1.9377532331565368 -7.330414404797955 -42.94203073795325 0.6907393376296362 0.7579532302419609 9.891468310831467 4.127351156144644
0.198 -0.038824186809626356 0.5367164377253819 -28.668652463464817 -51.9164649426044 0.054250031841969235 -0.32263327209770276 0.7423738435844263 -1.6580703710422589
0.199 0.7416611595084454 -1.029358207414011 -23.499307118460607 -43.089333559897995 -0.5355394548350657 0.04190031805898913 1.076452044993519 -4.0429438581289
0.2 0.8652936470928649 0.04310110410204252 -35.6463701791454 -54.57870434594839 -0.09838413418359589 2.1920554340523397 6.799310943212608 -4.430010619249957
0.201 7.169347468169999 1.7021811081014062 -28.34311231880614 -10.02638305527974 -2.592907492949433 0.42743597494852015 -7.2971463458016315 -13.19077024658752
0.202 -3.3635938681110544 0.38812461097638906 -28.327323707413395 -32.120373367417265 0.2388492221358395 -1.6608928178251015 -9.87429365268228 2.3204550748371133
0.203 -0.01906545119852302 1.2369626906232394 -39.97068094387868 -40.63903372409685 -0.9508755592656283 -1.1513605325366312 -5.57789523398392 -12.002521449936173
0.204 0.107649431541806 0.1883177106371976 -40.29897568933501 -48.350061944540535 -0.5549149871706062 -0.025827841731025487 1.442908818921148 0.7165409869226066
0.205 -0.061777483100985485 0.12008970019230002 -41.92039028689511 -45.68962052362668 -0.03224385849210919 0.03313810165936166 0.36036778859956414 -0.8959494406930405
0.206 3.7095219821421868 -33.030550404134466 -377.6231552962459 289.82427412014835 -6.329097855625264 2.0412702346854092 88.01367081129709 32.62684330992933
0.207 -0.0229621497433709 0.17907487819527484 -45.899812846144386 -43.30661195594132 0.0930245993706233 0.08807533008913511 -1.1753769107200989 -1.1183115400085635
0.208 -1.0838076849502423 0.43259652638426915 -37.92620803726112 -42.72238494853207 0.47190323678737095 -0.5085862500451962 -4.999268471895112 3.5517002510138593
0.209 -1.1815144207591652 -2.9476033119831784 -44.97157168244997 -33.677176269063445 0.42232391946865105 1.410452510374016 -2.1856713244405745 -3.945373627634937
0.21 1.2413302133071176 -0.12265089628095685 -45.310654857239165 -34.375112115708944 0.1822955532734585 0.5880925752536225 -2.5712516205717195 2.6119595502532076
0.211 1.8821878482572891 -1.9531127913898318 -32.29147197250971 -52.94156555413784 -0.8915495522302831 -0.26297527133420967 -7.009635034537337 -4.1084313471721625
0.212 2.7972870128968887 1.1473620553018307 -87.04172652832443 -29.38110668564648 -2.376225895506173 -0.4227891296576715 25.205065026181696 -9.501160101095364
0.213 0.5282222100111904 0.020327587390454874 -61.85946399035156 -34.856608771287924 -0.24158497582582675 0.11429059093075232 2.4455655675934445 -0.29462250679216306
0.214 -0.025154907419218872 0.30527061018676266 -58.58615872766167 -33.23669815073174 0.097443823106279 0.05172123617915065 0.2998580172819663 0.8232373236674103
0.215 -0.9139937890920617 1.09171165878481 -50.852678598653256 -32.41797546948182 0.19476799166456596 0.6182334007722964 1.5217174337772255 -4.253829414432593
0.216 2.586112309170912 -1.9920888761780438 -89.19920586774845 -6.646935588089879 -0.9817078939604849 0.5671697928133751 10.991429209394346 -5.816965309333422
0.217 0.9743565174608111 -0.25462162209881933 -46.15546785490694 -21.619460364520393 -0.4534557087799459 -0.13449342686285315 -3.0981093026202107 -6.303195440893188
0.218 0.055700479940260735 0.4656015494876187 -62.89401518521811 -26.162134556303133 -0.24937356854906947 -0.24815113694960791 0.16379972326063724 -0.5329357103850342
0.219 1.3441500445549448 0.5855420599990158 -58.552253923016806 -15.804410572335884 0.0220974974938398 -0.7338495223633268 3.5899780235166263 -3.8145182090894814
0.22 1.187940412797703 0.3804073731163294 -56.87678386180921 -13.156642534680774 -0.3938505405102284 -0.2249625087745305 -1.7235824259391492 -4.417892927071309
0.221 -0.38443150629318784 0.13441079098248632 -69.46595483559588 -17.916505117717403 -0.0822966794381227 0.16215631724079463 0.4838002455967726 1.4652180465608717
0.222 0.4763261572445016 0.6772826366513032 -59.14510515834835 -18.004870158758497 -0.5179823039903606 -0.1878913172799448 -6.503391689184686 3.1684096677774405
0.223 1.7361238098704668 1.0236237418818657 -63.76870627428761 -12.517954207937997 -0.27643955161582473 -0.6113070907587257 -0.4117009300872327 -1.8213277423574161
0.224 0.3421261824373911 1.95540803526837 -70.00101471598278 -11.162874124642434 0.4214363694467653 -0.8130814809140918 1.6227733234867308 -0.5936725795763823
0.225 0.37176407001064715 -0.34887025955694834 -72.08112612734784 -12.734982649955365 0.4128303991524416 -0.2243450761064867 -1.0554847489863795 -2.2318151419889705
0.226 -0.4939446971071463 -0.7898694888168141 -67.47905574016421 -20.07568230625801 -0.6764962113217161 -0.12524692388048683 -4.635846798732994 -5.23154609821575
0.227 -0.22155568129673 -0.6366116822707386 -68.68236508149205 -0.9729728743416605 0.005873411494146936 -0.22938649851138343 -0.16545532825892664 1.312911257078053
0.228 -0.4965044326021524 -1.5945726178842705 -65.661278542328 -8.576876701610862 0.10772441943993834 -0.8706705355005127 2.5297619391492443 -1.0313569657451154
0.229 0.26952012204763925 -0.652065112640684 -70.45740320450547 -12.285005691967267 -0.29855465832758454 -0.5361053396954846 -4.377342361557533 -5.622777163102507
0.23 -1.262580660954797 -0.6688840333473438 -63.23408567127217 10.328612175999636 -0.4612042069900877 0.31941304995378733 3.9605298835699467 -1.1986189763022654
0.231 4.822350953875466 -1.7832210807849889 -45.42247969913966 4.834235393404169 0.9709130261163424 -0.8939032902748718 6.314241240824483 -1.7893325189568132
0.232 1.0564685290376505 -1.0820070463795175 -74.52872289951618 -4.618286733286416 -1.1097984401363212 -0.4283396871703774 -6.230811246158456 3.765244204834932
0.233 1.1566273280341435 -0.3287406418495668 -67.10226041033864 -6.903711967548809 0.5872061230157788 -0.0454198299241498 4.60500624952437 -5.608197812994528
0.234 -0.3985938280064735 0.3471244702245829 -71.20102588118147 10.422075169437857 -0.24771799615366422 -0.1393637846935468 -0.1520860729984079 0.40719082177023325
0.235 4.167821781132527 -3.158003929174878 -61.408190420569305 27.036395972106646 -1.4212681588895097 -3.2996038524445512 11.575518222464096 -3.6787316566970425
0.236 2.59686468078617 -0.3143246363699894 -50.94377521061107 21.131602870198623 0.6496676046923999 -0.5612461560201848 7.048583467358747 -1.3012281654961761
0.237 -1.2465453866996696 -1.700450563148901 -82.59946225512908 5.140978709802104 -0.317149591054109 -1.202988140292214 -3.81518122870357 -7.963758681016977
0.238 0.13569930290934135 0.3802129912328266 -70.44577927203451 18.403577928884438 0.03111932832842401 0.11675840550740144 0.0911498099466178 -0.4474520014605918
0.239 0.8673392987251339 -2.0671619934341425 -60.21393277302044 -0.026283036941197355 0.5303765109490607 -0.12485702389129517 4.996100131709277 -0.6393887559908454
0.24 0.6973570960086681 2.478457759804994 -87.6470784820693 29.49946206748199 -0.06179309610920735 0.6440809594779562 -5.565392911459993 -0.11932096022421713
0.241 -0.07276802117897342 -0.43188664748085254 -67.1223800333401 27.069803377060524 0.24739886832394983 0.033059029658973275 -0.7422273334115681 0.29611716484023154
0.242 3.1115552557668438 -5.615074024545732 -98.6349559632586 58.5686971376286 1.9302492585967923 -0.8408890101260056 -13.945126084660838 1.3554013763638326
0.243 -0.0678847679103968 -0.4854281925883171 -60.91354929990076 29.50419470495086 0.6187410478041723 -0.36289532545584274 1.7504696056509053 5.98285595637134
0.244 -2.5152033400296974 -3.257717423301099 -51.47894511352975 51.10979813341989 -0.3178898662169657 -1.6137688744875422 2.041357826929911 8.571019168826355
0.245 0.09024449279674183 0.2531031468283455 -66.00373343526462 34.5495510321344 -0.026870361257533438 -0.0038114877739759186 0.07184783553374914 -0.22427053152582352
0.246 0.1644817834791165 -0.42569854917567757 -66.37418517860664 39.64778431880241 -0.14021613155650134 -0.057791587750613466 0.29694721068676666 0.558307207590692
0.247 -0.7975694158957608 0.9719230372849438 -68.68561245920785 34.644083121103144 -0.5685595271121414 -0.7131428570644135 2.7903367587393144 -4.002399162829481
0.248 0.09929032444240832 -2.742050337054217 -62.929449421796896 38.55632024841411 0.6631426772755261 -0.7918120713494875 0.22215632790990847 -0.7074896410000415
0.249 1.1005626726344881 -2.3149974247003056 -69.75170068060925 36.71362488021039 -1.1355860264484383 -0.8715062206392193 -4.618290657098705 3.407166230556113
0.25 0.5737945022943485 0.5189421302666363 -58.05562046607035 39.89922666026054 0.25522630200630475 0.06964185466031161 -0.17947030485174775 -2.7993215868916295
0.251 -0.6774595299737489 -0.022030645588478042 -53.91445362096032 49.32704585446918 0.6365279269788995 -0.4137560685389459 -4.757298487112331 1.6902801029490762
0.252 0.9727363201157224 0.1541310939610317 -53.3445602934071 52.62396638734512 0.1314220774962373 0.38717716400163366 -1.4046144093719921 2.4665235325387287
