! AWR Design Environment (8345) Tue Sep 05 14:16:53 2017
! Document = 'SParameters'
! nPorts: 2, nXvals: 80

# HZ S DB R 50
!Freq DBS11 AngS11 DBS21 AngS21 DBS12 AngS12 DBS22 AngS22 
1e+008 -0.37685921 -74.231109 35.623972 139.45247 -40.525701 51.383744 -9.4516375 -111.99622 
2e+008 -0.73065221 -114.01443 32.288313 117.83899 -37.817686 31.818737 -7.040019 -139.43217 
3e+008 -0.88607682 -134.49709 29.509208 106.14092 -37.036474 22.146642 -6.3302551 -151.73226 
4e+008 -0.95961617 -146.5767 27.295523 98.584345 -36.697729 16.614419 -6.0337393 -158.53275 
5e+008 -1.0005439 -154.59032 25.486817 92.996014 -36.499668 13.054324 -5.8739799 -162.82752 
6e+008 -1.0270839 -160.38701 23.965486 88.473492 -36.354199 10.566878 -5.7692125 -165.79938 
7e+008 -1.0467264 -164.8563 22.654448 84.588868 -36.228865 8.7264097 -5.6891783 -167.99921 
8e+008 -1.0629126 -168.47214 21.502469 81.116314 -36.109695 7.3090613 -5.6208515 -169.7161 
9e+008 -1.0773735 -171.50829 20.474337 77.926406 -35.990007 6.1872598 -5.5580304 -171.11586 
1e+009 -1.091043 -174.1332 19.545025 74.940068 -35.866373 5.2837024 -5.4975749 -172.30031 
1.1e+009 -1.1044509 -176.45599 18.696204 72.106477 -35.736957 4.5492675 -5.4378546 -173.33537 
1.2e+009 -1.1179088 -178.55036 17.9141 69.391599 -35.600756 3.9515492 -5.378039 -174.26554 
1.3e+009 -1.1316028 179.53219 17.18813 66.77187 -35.457222 3.4685073 -5.3177448 -175.1219 
1.4e+009 -1.1456442 177.75456 16.510007 64.230503 -35.306059 3.0847548 -5.256848 -175.92669 
1.5e+009 -1.1600973 176.08939 15.873139 61.755248 -35.147113 2.7892829 -5.1953776 -176.69618 
1.6e+009 -1.1749967 174.51601 15.272207 59.336977 -34.980298 2.5740088 -5.1334526 -177.44244 
1.7e+009 -1.1903574 173.01851 14.702865 56.968757 -34.805559 2.4328138 -5.0712431 -178.17453 
1.8e+009 -1.2061814 171.58447 14.161527 54.645233 -34.622845 2.3608848 -5.0089453 -178.89926 
1.9e+009 -1.2224623 170.20398 13.645203 52.362199 -34.432094 2.354251 -4.9467657 -179.62181 
2e+009 -1.2391878 168.86906 13.151383 50.116303 -34.233225 2.4094488 -4.8849103 179.65393 
2.1e+009 -1.2563424 167.57321 12.677941 47.904833 -34.026134 2.5232749 -4.8235775 178.92501 
2.2e+009 -1.2739083 166.31103 12.223066 45.725562 -33.810694 2.6926036 -4.7629542 178.18927 
2.3e+009 -1.2918667 165.078 11.785206 43.576638 -33.58676 2.9142503 -4.7032123 177.44511 
2.4e+009 -1.3101988 163.87033 11.363023 41.456493 -33.354175 3.1848719 -4.6445081 176.69138 
2.5e+009 -1.3288859 162.68475 10.955356 39.363788 -33.112775 3.5008977 -4.586981 175.92731 
2.6e+009 -1.3479102 161.51847 10.561199 37.29736 -32.862399 3.8584852 -4.5307536 175.1524 
2.7e+009 -1.367255 160.36903 10.179668 35.256187 -32.6029 4.2534999 -4.4759328 174.36636 
2.8e+009 -1.3869049 159.23431 9.8099886 33.239361 -32.334152 4.6815128 -4.4226096 173.56908 
2.9e+009 -1.4068458 158.11241 9.4514795 31.246065 -32.056062 5.137819 -4.3708606 172.76057 
3e+009 -1.4270655 157.00163 9.1035366 29.275559 -31.768578 5.6174695 -4.3207493 171.94092 
3.1e+009 -1.4475532 155.90048 8.7656238 27.327164 -31.471695 6.1153185 -4.2723264 171.11031 
3.2e+009 -1.4682998 154.80758 8.4372634 25.400257 -31.165467 6.6260799 -4.2256319 170.26896 
3.3e+009 -1.489298 153.7217 8.1180282 23.494258 -30.850002 7.1443939 -4.1806955 169.41712 
3.4e+009 -1.5105421 152.64168 7.8075348 21.608627 -30.525475 7.6648954 -4.137538 168.55505 
3.5e+009 -1.5320281 151.56648 7.5054377 19.742857 -30.192121 8.1822869 -4.0961726 167.68303 
3.6e+009 -1.5537534 150.49514 7.2114251 17.896477 -29.850238 8.6914087 -4.0566054 166.80133 
3.7e+009 -1.5757175 149.42675 6.9252137 16.069039 -29.50018 9.187304 -4.0188366 165.91022 
3.8e+009 -1.5979208 148.36048 6.646546 14.260125 -29.142357 9.6652778 -3.9828614 165.00995 
3.9e+009 -1.6203656 147.29552 6.3751866 12.469339 -28.777224 10.120947 -3.9486706 164.10075 
4e+009 -1.6430556 146.23113 6.1109199 10.696308 -28.405275 10.550282 -3.9162515 163.18284 
4.1e+009 -1.6659956 145.16661 5.8535475 8.9406809 -28.027036 10.949633 -3.8855885 162.25642 
4.2e+009 -1.6891921 144.10128 5.6028861 7.202128 -27.643058 11.31575 -3.8566636 161.32166 
4.3e+009 -1.7126527 143.03451 5.3587659 5.4803378 -27.253906 11.64579 -3.8294569 160.37872 
4.4e+009 -1.736386 141.96568 5.1210293 3.7750184 -26.860151 11.937318 -3.8039474 159.4277 
4.5e+009 -1.7604023 140.89421 4.8895287 2.0858949 -26.462365 12.188292 -3.780113 158.46873 
4.6e+009 -1.7847126 139.81951 4.6641262 0.41271012 -26.061116 12.397048 -3.7579309 157.50187 
4.7e+009 -1.8093292 138.74106 4.4446921 -1.2447768 -25.656954 12.562281 -3.7373783 156.52718 
4.8e+009 -1.8342655 137.65831 4.2311042 -2.8867922 -25.250418 12.683012 -3.7184325 155.5447 
4.9e+009 -1.859536 136.57076 4.0232467 -4.5135464 -24.84202 12.758563 -3.7010709 154.55444 
5e+009 -1.8851559 135.4779 3.8210097 -6.1252374 -24.432254 12.788525 -3.6852715 153.55639 
5.1e+009 -1.9111418 134.37924 3.6242888 -7.7220494 -24.021582 12.772725 -3.6710131 152.55051 
5.2e+009 -1.9375111 133.2743 3.4329841 -9.3041553 -23.610443 12.711199 -3.6582754 151.53677 
5.3e+009 -1.9642822 132.16263 3.247 -10.871716 -23.199245 12.604159 -3.647039 150.51508 
5.4e+009 -1.9914744 131.04375 3.0662446 -12.424885 -22.788367 12.451967 -3.6372859 149.48538 
5.5e+009 -2.0191081 129.91722 2.8906298 -13.963805 -22.378161 12.255106 -3.628999 148.44754 
5.6e+009 -2.0472045 128.7826 2.7200703 -15.48861 -21.968953 12.014162 -3.622163 147.40147 
5.7e+009 -2.0757858 127.63945 2.554484 -16.99943 -21.561038 11.729797 -3.6167637 146.34701 
5.8e+009 -2.1048751 126.48735 2.393791 -18.496389 -21.154691 11.402735 -3.6127887 145.28404 
5.9e+009 -2.1344965 125.32586 2.2379144 -19.979605 -20.750158 11.033742 -3.6102268 144.21238 
6e+009 -2.1646749 124.15458 2.0867791 -21.449194 -20.347667 10.623611 -3.6090687 143.13187 
6.1e+009 -2.1954362 122.97309 1.9403123 -22.905271 -19.947424 10.173155 -3.6093067 142.04233 
6.2e+009 -2.2268072 121.78099 1.7984429 -24.347951 -19.549615 9.6831888 -3.6109345 140.94355 
6.3e+009 -2.2588157 120.57787 1.6611021 -25.777346 -19.154409 9.1545296 -3.6139479 139.83535 
6.4e+009 -2.2914902 119.36335 1.5282223 -27.193575 -18.761961 8.5879817 -3.6183439 138.71749 
6.5e+009 -2.3248602 118.13703 1.3997378 -28.596756 -18.372409 7.9843358 -3.6241216 137.58978 
6.6e+009 -2.3589561 116.89853 1.2755845 -29.987014 -17.98588 7.3443638 -3.6312815 136.45197 
6.7e+009 -2.3938091 115.64748 1.1556995 -31.364479 -17.602489 6.6688149 -3.639826 135.30385 
6.8e+009 -2.4294512 114.3835 1.0400215 -32.729288 -17.222341 5.9584127 -3.6497588 134.14516 
6.9e+009 -2.4659151 113.10623 0.92849032 -34.081587 -16.845534 5.2138565 -3.6610855 132.97567 
7e+009 -2.5032344 111.81532 0.82104723 -35.421531 -16.472157 4.4358183 -3.6738131 131.79513 
7.1e+009 -2.5414432 110.51043 0.71763433 -36.749285 -16.10229 3.6249428 -3.6879502 130.60329 
7.2e+009 -2.5805764 109.19122 0.61819498 -38.065028 -15.736013 2.7818492 -3.7035066 129.39991 
7.3e+009 -2.6206693 107.85735 0.52267338 -39.368949 -15.373397 1.9071314 -3.7204939 128.18474 
7.4e+009 -2.6617576 106.50853 0.43101457 -40.661255 -15.01451 1.001359 -3.7389246 126.95752 
7.5e+009 -2.7038773 105.14444 0.34316439 -41.942164 -14.659418 0.065080226 -3.7588125 125.71802 
7.6e+009 -2.7470648 103.7648 0.25906923 -43.211913 -14.308186 -0.90117746 -3.7801725 124.46597 
7.7e+009 -2.7913564 102.36934 0.17867587 -44.470753 -13.960872 -1.8969049 -3.8030203 123.20115 
7.8e+009 -2.8367885 100.9578 0.10193143 -45.718957 -13.617539 -2.9216086 -3.8273725 121.92332 
7.9e+009 -2.8833968 99.529938 0.028783236 -46.956811 -13.278246 -3.9748078 -3.8532462 120.63224 
8e+009 -2.9312169 98.085536 -0.040821568 -48.184623 -12.94305 -5.0560331 -3.8806592 119.3277 
