! AWR Design Environment (8345) Tue Sep 05 14:21:48 2017
! Document = 'SParameters'
! nPorts: 2, nXvals: 80

# HZ S DB R 50
!Freq DBS11 AngS11 DBS21 AngS21 DBS12 AngS12 DBS22 AngS22 
1e+008 -0.32229952 -58.609247 33.235727 146.51891 -37.823838 57.573233 -7.5203515 -59.592939 
2e+008 -0.75857258 -97.173549 30.702417 124.63477 -34.325078 36.775504 -7.5863868 -96.765564 
3e+008 -1.0125966 -120.03203 28.293979 111.20377 -33.192669 24.430152 -7.5794045 -117.37379 
4e+008 -1.1472441 -134.36842 26.248874 102.09842 -32.712635 16.417491 -7.5207189 -129.43596 
5e+008 -1.2225469 -144.09676 24.52077 95.259616 -32.469096 10.682378 -7.4275593 -137.05204 
6e+008 -1.2677618 -151.16152 23.03723 89.713553 -32.328817 6.2543528 -7.3094183 -142.19082 
7e+008 -1.2966814 -156.57768 21.740482 84.966736 -32.240064 2.6431648 -7.1723037 -145.86136 
8e+008 -1.3161787 -160.91265 20.588465 80.748818 -32.179744 -0.4182842 -7.0206943 -148.62111 
9e+008 -1.3299158 -164.50427 19.55077 76.901346 -32.136434 -3.085125 -6.8582739 -150.79821 
1e+009 -1.3399694 -167.5648 18.605118 73.326131 -32.104039 -5.4521231 -6.688199 -152.59554 
1.1e+009 -1.3475835 -170.23376 17.734877 69.959467 -32.07912 -7.5794321 -6.5131994 -154.14323 
1.2e+009 -1.3535401 -172.60639 16.927403 66.758403 -32.059657 -9.5062977 -6.3356208 -155.52696 
1.3e+009 -1.3583517 -174.74983 16.172918 63.693016 -32.044426 -11.258762 -6.1574519 -156.80411 
1.4e+009 -1.3623671 -176.7127 15.463743 60.741853 -32.032666 -12.8542 -5.9803514 -158.01351 
1.5e+009 -1.3658313 -178.53107 14.793766 57.889132 -32.023889 -14.3041 -5.8056766 -159.18153 
1.6e+009 -1.3689219 179.76774 14.158062 55.122961 -32.017764 -15.615822 -5.6345148 -160.32601 
1.7e+009 -1.3717708 178.16269 13.552623 52.434177 -32.014041 -16.793745 -5.4677161 -161.45892 
1.8e+009 -1.3744785 176.63727 12.974153 49.815561 -32.0125 -17.840033 -5.3059252 -162.58812 
1.9e+009 -1.3771229 175.17837 12.419919 47.261312 -32.012912 -18.75516 -5.1496122 -163.71863 
2e+009 -1.3797658 173.77546 11.887639 44.766669 -32.015005 -19.538289 -4.9991002 -164.85349 
2.1e+009 -1.3824568 172.41992 11.375389 42.327648 -32.018439 -20.187541 -4.8545911 -165.99437 
2.2e+009 -1.3852363 171.10469 10.881539 39.940858 -32.022777 -20.700215 -4.716187 -167.14199 
2.3e+009 -1.3881379 169.82389 10.404699 37.603361 -32.027464 -21.072974 -4.5839103 -168.29648 
2.4e+009 -1.3911892 168.57257 9.9436744 35.312575 -32.031799 -21.302018 -4.4577194 -169.45754 
2.5e+009 -1.394414 167.34656 9.4974332 33.066197 -32.034912 -21.383267 -4.3375232 -170.62465 
2.6e+009 -1.3978322 166.1423 9.0650791 30.862154 -32.03574 -21.312564 -4.2231923 -171.79713 
2.7e+009 -1.4014611 164.9567 8.645829 28.69856 -32.033003 -21.085914 -4.1145691 -172.97427 
2.8e+009 -1.4053156 163.78712 8.2389941 26.573685 -32.02519 -20.699769 -4.0114753 -174.15532 
2.9e+009 -1.4094088 162.63124 7.8439661 24.485934 -32.010542 -20.151356 -3.9137188 -175.33961 
3e+009 -1.4137524 161.48701 7.4602044 22.43383 -31.987052 -19.439077 -3.8210989 -176.52647 
3.1e+009 -1.4183567 160.35263 7.0872261 20.415998 -31.95247 -18.562937 -3.7334102 -177.71533 
3.2e+009 -1.4232314 159.22649 6.7245975 18.431161 -31.904335 -17.52502 -3.6504461 -178.90569 
3.3e+009 -1.4283851 158.10716 6.3719272 16.478124 -31.84002 -16.329964 -3.5720019 179.90288 
3.4e+009 -1.433826 156.99333 6.0288602 14.555775 -31.756802 -14.985398 -3.497876 178.71074 
3.5e+009 -1.4395619 155.88382 5.6950727 12.663075 -31.651958 -13.50229 -3.4278719 177.51816 
3.6e+009 -1.4456003 154.77756 5.3702683 10.799057 -31.522884 -11.895139 -3.3617994 176.32535 
3.7e+009 -1.4519486 153.67354 5.0541746 8.9628218 -31.367226 -10.181952 -3.2994755 175.13245 
3.8e+009 -1.4586142 152.57086 4.7465395 7.1535321 -31.183018 -8.3839615 -3.2407246 173.93954 
3.9e+009 -1.4656043 151.46867 4.4471295 5.3704134 -30.968806 -6.5250641 -3.185379 172.74664 
4e+009 -1.4729266 150.36616 4.1557269 3.6127495 -30.723754 -4.6310019 -3.1332793 171.55372 
4.1e+009 -1.4805888 149.26259 3.8721284 1.8798805 -30.447704 -2.7283542 -3.0842745 170.36071 
4.2e+009 -1.488599 148.15726 3.5961434 0.17120017 -30.141194 -0.84343436 -3.0382216 169.16749 
4.3e+009 -1.4969657 147.04948 3.3275927 -1.5138461 -29.805419 0.99878639 -2.9949859 167.9739 
4.4e+009 -1.5056977 145.93862 3.066307 -3.1757635 -29.442153 2.7756194 -2.9544404 166.77975 
4.5e+009 -1.5148045 144.82407 2.8121267 -4.8150108 -29.053637 4.4673742 -2.9164663 165.58482 
4.6e+009 -1.524296 143.70523 2.5649003 -6.4320019 -28.642443 6.0578045 -2.8809519 164.38885 
4.7e+009 -1.534183 142.58153 2.3244841 -8.0271084 -28.211343 7.5342798 -2.8477933 163.19157 
4.8e+009 -1.5444767 141.45242 2.0907415 -9.6006629 -27.76318 8.8877112 -2.8168932 161.99269 
4.9e+009 -1.5551892 140.31736 1.8635426 -11.152959 -27.300756 10.112292 -2.7881615 160.79188 
5e+009 -1.5663335 139.17582 1.6427635 -12.684258 -26.826754 11.205105 -2.7615144 159.5888 
5.1e+009 -1.5779231 138.02727 1.4282866 -14.194785 -26.343674 12.165671 -2.7368746 158.38311 
5.2e+009 -1.5899731 136.87123 1.2199993 -15.684739 -25.853793 12.995477 -2.7141708 157.17444 
5.3e+009 -1.6024989 135.70717 1.017795 -17.15429 -25.359152 13.697523 -2.6933374 155.96241 
5.4e+009 -1.6155173 134.53462 0.8215719 -18.603583 -24.861546 14.275922 -2.6743146 154.74663 
5.5e+009 -1.6290463 133.35308 0.63123333 -20.032744 -24.362533 14.735545 -2.6570481 153.52669 
5.6e+009 -1.6431049 132.16208 0.44668772 -21.441876 -23.863452 15.081734 -2.6414886 152.30219 
5.7e+009 -1.6577133 130.96112 0.26784838 -22.831069 -23.365439 15.320071 -2.6275919 151.0727 
5.8e+009 -1.6728932 129.74974 0.094633496 -24.2004 -22.869446 15.456201 -2.6153188 149.83781 
5.9e+009 -1.6886673 128.52746 -0.073033684 -25.549934 -22.376266 15.495695 -2.6046348 148.59707 
6e+009 -1.7050603 127.29382 -0.23522514 -26.879731 -21.886554 15.443954 -2.5955098 147.35006 
6.1e+009 -1.7220977 126.04836 -0.3920079 -28.189845 -21.400844 15.306143 -2.5879184 146.09633 
6.2e+009 -1.7398072 124.79059 -0.54344397 -29.480334 -20.919568 15.087152 -2.5818393 144.83544 
6.3e+009 -1.7582175 123.52008 -0.68959025 -30.751256 -20.443072 14.791569 -2.5772556 143.56694 
6.4e+009 -1.7773594 122.23635 -0.83049883 -32.002676 -19.971629 14.423669 -2.5741545 142.29037 
6.5e+009 -1.7972651 120.93896 -0.96621651 -33.234671 -19.505454 13.987415 -2.572527 141.00529 
6.6e+009 -1.8179687 119.62746 -1.0967852 -34.447333 -19.04471 13.486467 -2.5723684 139.71124 
6.7e+009 -1.8395061 118.30141 -1.2222416 -35.64077 -18.589521 12.924191 -2.5736775 138.40778 
6.8e+009 -1.8619149 116.96036 -1.3426178 -36.815116 -18.139981 12.303675 -2.576457 137.09446 
6.9e+009 -1.8852347 115.60389 -1.4579405 -37.970529 -17.696154 11.627747 -2.5807134 135.77082 
7e+009 -1.9095069 114.23156 -1.5682321 -39.107198 -17.258085 10.898993 -2.5864566 134.43644 
7.1e+009 -1.9347748 112.84298 -1.6735104 -40.225351 -16.825804 10.119774 -2.5937002 133.09086 
7.2e+009 -1.9610835 111.43773 -1.7737886 -41.325251 -16.39933 9.2922482 -2.6024611 131.73366 
7.3e+009 -1.9884799 110.01541 -1.8690765 -42.407209 -15.978671 8.418383 -2.6127594 130.36441 
7.4e+009 -2.0170128 108.57566 -1.9593799 -43.471582 -15.563831 7.4999778 -2.6246188 128.9827 
7.5e+009 -2.0467327 107.1181 -2.0447017 -44.51878 -15.15481 6.5386787 -2.6380656 127.58813 
7.6e+009 -2.0776918 105.64239 -2.1250426 -45.54927 -14.751607 5.5359933 -2.6531295 126.18031 
7.7e+009 -2.1099436 104.1482 -2.2004011 -46.563578 -14.354221 4.4933072 -2.6698426 124.75885 
7.8e+009 -2.1435435 102.63523 -2.270775 -47.562295 -13.962652 3.4118969 -2.6882399 123.32341 
7.9e+009 -2.1785475 101.10319 -2.3361619 -48.546077 -13.576901 2.2929441 -2.7083586 121.87362 
8e+009 -2.2150131 99.551834 -2.3965599 -49.515648 -13.196976 1.1375471 -2.7302382 120.40918 
