! AWR Design Environment (8345) Tue Sep 05 14:20:08 2017
! Document = 'SParameters'
! nPorts: 2, nXvals: 80

# HZ S DB R 50
!Freq DBS11 AngS11 DBS21 AngS21 DBS12 AngS12 DBS22 AngS22 
1e+008 -0.36698881 -68.771856 35.142152 141.96078 -39.642425 53.578146 -9.4338731 -95.344582 
2e+008 -0.7610228 -108.50844 32.076208 120.15806 -36.669716 33.468231 -7.3917193 -128.70006 
3e+008 -0.95109385 -129.93967 29.411384 107.89283 -35.782637 22.885008 -6.7018763 -143.81748 
4e+008 -1.0440856 -142.81234 27.248264 99.875748 -35.405074 16.553978 -6.396527 -152.15512 
5e+008 -1.0957451 -151.40265 25.46419 93.93645 -35.197423 12.309921 -6.2241064 -157.37559 
6e+008 -1.1283703 -157.61801 23.955405 89.138696 -35.057696 9.220139 -6.1054986 -160.94362 
7e+008 -1.1514844 -162.39774 22.650511 85.029998 -34.947699 6.8352255 -6.0106917 -163.54627 
8e+008 -1.1695614 -166.24912 21.5009 81.368987 -34.850774 4.9167194 -5.9266795 -165.54564 
9e+008 -1.1848873 -169.46762 20.472704 78.016434 -34.758827 3.3282168 -5.8473203 -167.14997 
1e+009 -1.1987114 -172.23612 19.541647 74.886917 -34.66761 1.9870676 -5.769586 -168.48723 
1.1e+009 -1.2117533 -174.67356 18.689848 71.925376 -34.574761 0.84093818 -5.6919911 -169.64025 
1.2e+009 -1.224444 -176.86048 17.903821 69.094873 -34.478909 -0.14443862 -5.6138655 -170.66483 
1.3e+009 -1.2370484 -178.85333 17.17318 66.369787 -34.379223 -0.99207768 -5.5349894 -171.59977 
1.4e+009 -1.2497317 179.30717 16.489779 63.731842 -34.275175 -1.7177366 -5.4553965 -172.4727 
1.5e+009 -1.262597 177.59094 15.847134 61.167685 -34.1664 -2.3323672 -5.375263 -173.30364 
1.6e+009 -1.2757078 175.97523 15.240009 58.667343 -34.052619 -2.8436823 -5.2948404 -174.10728 
1.7e+009 -1.289101 174.44252 14.664131 56.223227 -33.933581 -3.2571967 -5.2144155 -174.89451 
1.8e+009 -1.3027968 172.97911 14.11597 53.829457 -33.809035 -3.5769424 -5.1342843 -175.67339 
1.9e+009 -1.3168032 171.57407 13.59259 51.481398 -33.678707 -3.805979 -5.0547362 -176.4499 
2e+009 -1.3311209 170.21861 13.091525 49.175337 -33.542285 -3.9467709 -4.9760442 -177.22846 
2.1e+009 -1.3457455 168.90554 12.610688 46.908253 -33.399412 -4.0014748 -4.8984588 -178.01229 
2.2e+009 -1.3606691 167.62891 12.148307 44.67765 -33.249682 -3.9721665 -4.8222049 -178.8037 
2.3e+009 -1.3758824 166.38375 11.70286 42.481434 -33.092642 -3.861024 -4.7474807 -179.6043 
2.4e+009 -1.3913749 165.16587 11.27304 40.317819 -32.927794 -3.6704777 -4.6744575 179.58484 
2.5e+009 -1.4071361 163.97168 10.857714 38.185264 -32.754603 -3.4033336 -4.6032808 178.76305 
2.6e+009 -1.4231557 162.79812 10.455898 36.08242 -32.57251 -3.0628731 -4.5340714 177.92997 
2.7e+009 -1.4394242 161.64249 10.066731 34.00809 -32.380938 -2.6529277 -4.4669276 177.08548 
2.8e+009 -1.4559329 160.50248 9.6894578 31.961203 -32.179315 -2.177934 -4.4019266 176.22961 
2.9e+009 -1.4726744 159.37602 9.3234148 29.940785 -31.967087 -1.6429593 -4.3391271 175.36256 
3e+009 -1.4896423 158.26127 8.9680136 27.945948 -31.743736 -1.0537042 -4.278571 174.48457 
3.1e+009 -1.5068317 157.15661 8.6227318 25.975875 -31.508798 -0.41647661 -4.2202853 173.59595 
3.2e+009 -1.5242391 156.06055 8.287104 24.029807 -31.261886 0.26186074 -4.1642842 172.69706 
3.3e+009 -1.541862 154.97177 7.9607134 22.107038 -31.002697 0.97396982 -4.1105708 171.78827 
3.4e+009 -1.5596997 153.88904 7.6431857 20.206909 -30.731037 1.7121388 -4.0591385 170.86993 
3.5e+009 -1.5777525 152.81126 7.3341833 18.3288 -30.446824 2.468403 -4.0099728 169.94242 
3.6e+009 -1.5960222 151.7374 7.0334006 16.47213 -30.150097 3.2346804 -3.9630524 169.00608 
3.7e+009 -1.6145117 150.6665 6.7405601 14.636351 -29.84102 4.0029117 -3.9183504 168.06124 
3.8e+009 -1.6332253 149.59768 6.4554083 12.820949 -29.51988 4.7652027 -3.8758356 167.10818 
3.9e+009 -1.6521683 148.53013 6.1777134 11.025438 -29.187081 5.5139577 -3.8354731 166.1472 
4e+009 -1.6713472 147.46305 5.9072623 9.2493632 -28.843133 6.2420009 -3.7972256 165.17852 
4.1e+009 -1.6907697 146.39572 5.6438583 7.4922935 -28.488642 6.9426779 -3.7610538 164.20235 
4.2e+009 -1.7104444 145.32744 5.3873193 5.7538267 -28.124291 7.6099376 -3.726917 163.21889 
4.3e+009 -1.730381 144.25756 5.1374761 4.0335841 -27.750827 8.2383875 -3.6947739 162.22827 
4.4e+009 -1.7505902 143.18545 4.8941708 2.3312114 -27.369045 8.8233282 -3.664583 161.23063 
4.5e+009 -1.7710836 142.11049 4.6572556 0.64637675 -26.979766 9.3607618 -3.6363029 160.22603 
4.6e+009 -1.7918738 141.03213 4.4265917 -1.0212294 -26.583825 9.8473837 -3.609893 159.21456 
4.7e+009 -1.8129743 139.94979 4.2020482 -2.671896 -26.182057 10.280555 -3.5853132 158.19624 
4.8e+009 -1.8343995 138.86293 3.9835013 -4.3058921 -25.775283 10.65826 -3.5625247 157.17107 
4.9e+009 -1.8561645 137.77104 3.7708338 -5.9234674 -25.364302 10.97906 -3.5414902 156.13905 
5e+009 -1.8782857 136.67361 3.5639339 -7.524855 -24.949877 11.242032 -3.5221737 155.10013 
5.1e+009 -1.90078 135.57014 3.3626951 -9.1102701 -24.532737 11.446712 -3.5045409 154.05424 
5.2e+009 -1.9236654 134.46014 3.1670157 -10.679914 -24.113565 11.593032 -3.4885594 153.00131 
5.3e+009 -1.9469605 133.34314 2.9767981 -12.233971 -23.692998 11.681263 -3.4741987 151.94122 
5.4e+009 -1.970685 132.21868 2.7919484 -13.772616 -23.271629 11.711956 -3.4614302 150.87386 
5.5e+009 -1.9948595 131.08631 2.6123766 -15.296009 -22.849999 11.685893 -3.4502275 149.79907 
5.6e+009 -2.0195054 129.94556 2.4379956 -16.804302 -22.428607 11.604037 -3.4405662 148.71672 
5.7e+009 -2.0446451 128.79601 2.2687217 -18.297637 -22.007903 11.467491 -3.4324241 147.62661 
5.8e+009 -2.0703017 127.63721 2.1044735 -19.776147 -21.588297 11.27746 -3.4257812 146.52857 
5.9e+009 -2.0964994 126.46873 1.9451729 -21.239962 -21.170158 11.035223 -3.4206196 145.42239 
6e+009 -2.1232634 125.29015 1.7907436 -22.689204 -20.753817 10.742099 -3.4169239 144.30787 
6.1e+009 -2.1506198 124.10106 1.6411122 -24.123994 -20.339569 10.39943 -3.4146806 143.18477 
6.2e+009 -2.1785956 122.90102 1.4962071 -25.544451 -19.927681 10.00856 -3.4138787 142.05286 
6.3e+009 -2.2072186 121.68965 1.3559595 -26.950691 -19.518386 9.5708187 -3.4145092 140.9119 
6.4e+009 -2.2365181 120.46652 1.2203018 -28.342837 -19.111896 9.0875123 -3.4165654 139.76164 
6.5e+009 -2.2665239 119.23125 1.089169 -29.721009 -18.708397 8.5599124 -3.4200429 138.60182 
6.6e+009 -2.2972669 117.98343 0.96249799 -31.085334 -18.308055 7.9892492 -3.4249393 137.43217 
6.7e+009 -2.328779 116.72268 0.84022727 -32.435947 -17.911018 7.3767073 -3.4312544 136.25242 
6.8e+009 -2.3610932 115.44862 0.72229716 -33.772987 -17.517417 6.7234209 -3.43899 135.06229 
6.9e+009 -2.3942432 114.16088 0.60864988 -35.096604 -17.127369 6.0304751 -3.4481502 133.86151 
7e+009 -2.4282636 112.85908 0.49922916 -36.406959 -16.740982 5.2989023 -3.4587409 132.64979 
7.1e+009 -2.4631901 111.54287 0.39398021 -37.704225 -16.358349 4.5296836 -3.47077 131.42684 
7.2e+009 -2.4990591 110.2119 0.29284988 -38.988588 -15.979559 3.7237514 -3.4842473 130.19239 
7.3e+009 -2.5359076 108.86583 0.19578626 -40.260251 -15.60469 2.8819894 -3.4991843 128.94616 
7.4e+009 -2.5737735 107.50433 0.10273859 -41.519432 -15.233816 2.0052354 -3.5155943 127.68784 
7.5e+009 -2.612695 106.12709 0.013657414 -42.766368 -14.867005 1.0942855 -3.5334921 126.41718 
7.6e+009 -2.6527111 104.7338 -0.07150598 -44.001314 -14.504323 0.14989566 -3.5528941 125.13389 
7.7e+009 -2.693861 103.32418 -0.15279942 -45.224548 -14.145831 -0.82721396 -3.573818 123.83771 
7.8e+009 -2.7361838 101.89796 -0.23027027 -46.436367 -13.791588 -1.836356 -3.5962825 122.52836 
7.9e+009 -2.7797191 100.45489 -0.30396543 -47.637091 -13.441654 -2.8768714 -3.6203076 121.2056 
8e+009 -2.8245059 98.99473 -0.37393183 -48.827064 -13.096086 -3.9481263 -3.645914 119.86918 
