!Created with skrf (http://scikit-rf.org).
# GHz S RI R 50.0 
!freq ReS11 ImS11 ReS21 ImS21 ReS12 ImS12 ReS22 ImS22
0.13 0.1542385756125656 -0.10816364314038941 0.00020700905584577535 7.574895575956609e-05 -2.1428120282074355e-05 -0.00013523215501140426 -0.027746134727722752 -0.0475175095685523
0.131 0.150230248508957 -0.11557706212897567 -0.00013072469081686753 3.080039241393876e-05 0.00010054583495894638 1.1726211081033775e-05 -0.030342086546460853 -0.046562706373358215
0.132 0.14702452087581325 -0.12227052492590715 -8.441236605736776e-05 -1.0563211286797327e-05 4.678632704240416e-05 -9.951756855774608e-05 -0.032832150604830954 -0.04507315540546213
0.133 0.142078396728913 -0.12938235717088373 4.508870005962101e-05 -6.405813538362898e-05 -1.964334186966557e-05 -2.141934877344782e-05 -0.03539931790902407 -0.043532163147092566
0.134 0.1371283626313278 -0.1368948368395588 6.764868840898411e-05 -4.385292809476463e-05 2.1069484040608208e-05 8.452963533442346e-05 -0.037524173397053995 -0.04204228429069121
0.135 0.132388718451944 -0.14328588661355884 9.290121319565148e-05 -8.751219754701393e-05 -6.133936497969514e-05 -8.68183081944799e-05 -0.04025559275854038 -0.04012407172271219
0.136 0.12740535500725453 -0.14916220814725872 8.014596513958522e-05 -5.733260540148269e-05 1.725544500029153e-05 -3.916526797926508e-05 -0.04249680640669565 -0.03860138111836149
0.137 0.12231260297191747 -0.15444768113668544 -0.00010248111710461548 3.9435041813221537e-05 8.621226196763742e-05 -0.00015825537466534258 -0.04426454617159572 -0.036794017964683824
0.138 0.11497178673043662 -0.16101029127589642 0.0001359647670217928 5.5624654802217495e-05 5.8083213497013674e-05 -8.788428689323169e-05 -0.046553238507649086 -0.03461486868426796
0.139 0.10983716863806006 -0.1678662715392885 2.2500490764320043e-05 -0.0001881274865569505 9.584939171132669e-05 0.00012597703095764174 -0.04858493246681588 -0.03239637963065959
0.14 0.10246253233968981 -0.17345974489558505 -5.109878500727225e-05 -3.739223766749777e-05 2.3002487422665846e-07 -5.355427933469611e-05 -0.05031904180762864 -0.030020352606600433
0.141 0.0966765400389142 -0.17802709149849116 7.562328035285575e-05 -1.744339777278841e-05 5.644022885755669e-05 -4.912695716009608e-05 -0.052163262710639 -0.02765364061749058
0.142 0.08874742182777537 -0.18463540655413527 4.190640040379973e-05 -1.0207041311244864e-06 -9.214697865552453e-05 5.14728262973502e-05 -0.053926646501545245 -0.02510166253120908
0.143 0.08222574669592285 -0.18843837631407717 -0.00011220276298473107 -1.5300226704877917e-06 2.4419399760178774e-05 1.2043418896438332e-06 -0.05531654067977866 -0.022595381965581546
0.144 0.07518640547982983 -0.19156086474202744 8.394336318716729e-05 2.5781275744355107e-06 -4.6128572405214e-05 -1.9084977140519857e-05 -0.05678616564875778 -0.019752464698284254
0.145 0.06603366014557611 -0.196596281641336 -1.3720455250467284e-05 4.354855822321796e-06 -9.418298909036045e-05 1.721679317874047e-05 -0.05791473736956355 -0.01736148250163217
0.146 0.05930092760874582 -0.200497715314711 -0.00011418212192632438 7.031400607621132e-05 0.00010120802494052558 -1.4067334994108107e-05 -0.05898608985572557 -0.014263426182996686
0.147 0.05122113410074818 -0.20383753658859105 2.7760541367278292e-05 -0.00012039389820605037 -2.1743966602795477e-05 -3.0954681838916174e-05 -0.06024947612590598 -0.011260078333334572
0.148 0.04150306327414616 -0.20732000114711846 -4.831015869511818e-05 1.1507711004244247e-05 6.763287933295068e-05 -2.7820176521414708e-05 -0.060928442111215925 -0.008452826447469183
0.149 0.03310800075814075 -0.21269436459009342 -2.6547833199346674e-05 -9.103528246758173e-05 4.3088835490343696e-05 -5.403007139575173e-05 -0.0616882060563977 -0.005354642186549815
0.15 0.025210028493745356 -0.21299845527934144 7.21688408235953e-06 0.00012528243715329593 -4.867461357579391e-05 1.0401616043520893e-05 -0.06210662899873052 -0.002346884468978027
0.151 0.014995522086620154 -0.21613998507047888 -2.5904675505257807e-05 -7.892006185252741e-05 -1.5328280195648045e-05 1.1143035394710964e-05 -0.06249570288730606 0.0007328851353144136
0.152 0.00679008507568579 -0.21691187699810122 3.3879286777749055e-05 -1.6099382830873386e-05 -9.454950333831212e-05 -8.713881613432602e-06 -0.06277360718483188 0.003994067786247886
0.153 -0.0008015462193042331 -0.2177185562688135 0.0001099017729024645 -3.056219163632235e-05 -2.2783635262774576e-05 -2.9471103993329962e-05 -0.06289950681395728 0.007253386376459449
0.154 -0.011353095814670724 -0.22007478761391192 1.6406853131661885e-05 4.8063734961992454e-05 8.71656225645149e-05 -3.194290671550223e-05 -0.06267151338458835 0.010408567500879085
0.155 -0.020264915102027048 -0.2212035057107869 1.1495915884469072e-05 -4.791271555273858e-05 6.203543365212267e-05 -1.856220510627509e-05 -0.06250477804041421 0.01366038956353389
0.156 -0.030118872067393214 -0.22040953807463085 3.182634472928114e-05 -0.00018042423929447586 5.46286653304525e-05 -0.00011117696033252518 -0.06194623900810434 0.016544138325734353
0.157 -0.0404669647012825 -0.21967727793635378 -5.737991847011481e-05 -2.1248605242992806e-05 6.371071586628611e-06 -3.557869673161411e-05 -0.061637733792703236 0.019860193679183836
0.158 -0.05082506477943172 -0.2194647965787031 -4.0969214462261217e-05 1.9961279562238106e-05 -9.896527357218654e-05 -1.5094101653711503e-05 -0.060888871406886584 0.023135212947996482
0.159 -0.0602283278806442 -0.2199691264229315 -5.556728087872529e-05 -9.417295403363796e-05 0.00013033273000508425 -9.82057910528576e-05 -0.0598312729414674 0.02606389543908272
0.16 -0.06835529777836583 -0.21961124166661655 -8.404916120937824e-05 -2.269715942776146e-06 4.49565153336283e-05 4.74843818985766e-05 -0.058929747386220366 0.029341168155147836
0.161 -0.07942107826541424 -0.21550645588343773 7.395500644900056e-05 8.56635299426162e-05 3.635650575622894e-05 2.131890843040779e-05 -0.05765862599431353 0.032331705600642816
0.162 -0.08889605165242905 -0.212683894234842 -5.400767276319911e-06 -9.232996034053503e-05 4.099553284390607e-05 0.00010580403289250168 -0.05640039537511585 0.035500042619014974
0.163 -0.09869935057053351 -0.2115108277609667 6.728709491372763e-05 -4.0962735444298816e-05 -1.3514661055661736e-05 8.025415525484965e-06 -0.054818784533481546 0.03831772709965351
0.164 -0.10656491113349856 -0.20729031613850407 3.226061887733283e-05 -4.05231203641593e-05 1.4452188792907472e-05 4.272784548668803e-05 -0.0532696281760504 0.04132713987440813
0.165 -0.1178137349216594 -0.20444546644972983 -5.469745797969572e-05 2.5614886148742458e-05 -8.480163015202421e-06 -2.6159930223965823e-05 -0.05138077098821063 0.04433357832369309
0.166 -0.12685421630923427 -0.20111252362505352 -9.150535318596382e-05 -8.458493120506984e-06 5.855478602063426e-05 -1.2323169178522591e-05 -0.04930217952896008 0.047055057993942044
0.167 -0.13662275467182208 -0.19734280902537765 -0.00012434704705179816 3.159817631226217e-05 -2.347954293554132e-05 -5.573645223267286e-05 -0.04705293048377854 0.049746207888205655
0.168 -0.14467696436712832 -0.19161202318922757 8.628523238740052e-05 -6.992599096218424e-05 -9.192381724646913e-05 0.00012963741449233227 -0.044966777120203645 0.052446269189441744
0.169 -0.15343387672822623 -0.18613017618537553 7.811144386855702e-05 -9.860596341093e-05 -7.059741148462823e-05 -8.500197152975223e-05 -0.042556227951985305 0.055101686795454366
0.17 -0.162244871242228 -0.17950090434160898 4.945977739397604e-05 7.707542539048258e-06 -4.155220842823525e-05 -0.0001040277737516409 -0.04003236396941428 0.057413404864491334
0.171 -0.16982482428088627 -0.17395002432210857 2.197472970099413e-05 1.6165582864292064e-05 3.1588050129759295e-05 2.8763391413590987e-05 -0.03724525298610859 0.0597679499121214
0.172 -0.17994904633769568 -0.16720982826213857 9.446488789341969e-05 -5.7815097600551164e-05 1.0095300107726785e-05 2.3334972582806026e-05 -0.03468522177300439 0.06191511560822545
0.173 -0.18688564292402265 -0.1616090832463397 -0.00019204146991011118 6.167510201163786e-05 -4.430845013636455e-05 -2.2197087741520275e-05 -0.0315861882382977 0.06397346953728779
0.174 -0.19536670662925906 -0.15319566914276447 -5.221092444259225e-05 5.8932705449938446e-05 -0.00010965062664445525 -1.1116757130652471e-05 -0.0280786856525312 0.06563850658613421
0.175 -0.20282615724505823 -0.14421598289543036 9.152962368018526e-06 -9.312684908544536e-05 -5.2463771681491875e-05 0.00011945384562917317 -0.02487758212920566 0.06737704721025232
0.176 -0.20990734087040794 -0.1365189726742843 -7.077955581375222e-05 0.00011737964861153323 -2.0949393270559403e-05 3.243323267658416e-05 -0.021654849333611587 0.06887684249507796
0.177 -0.21629186855096957 -0.1293999504364474 -5.746913452331134e-05 -2.5953969619157596e-05 -1.4520874864377181e-05 9.421523659012027e-06 -0.01831114587803878 0.07052617974062776
0.178 -0.22289812118762076 -0.12012022416719165 -3.134592687918292e-05 6.621698344529889e-05 -4.8113548922983346e-05 -5.560811808748022e-05 -0.01461839111466082 0.0715271375688305
0.179 -0.22824409060888995 -0.11036054238184766 5.523104805358198e-05 -1.3175699826236205e-05 -3.7701487935291005e-05 0.0001239200937027851 -0.010934330683766369 0.07238667335280308
0.18 -0.2337481266645398 -0.10027513346416092 8.759725516361438e-05 5.312059786429665e-05 -8.624831232091099e-05 8.285828307221729e-05 -0.00727238654652481 0.07347827129224045
0.181 -0.2397853933602228 -0.09073440993651471 -9.087512986231533e-05 2.454048655364036e-06 4.38582695223487e-05 -3.6806610354425323e-06 -0.004218307820752273 0.07473685394764648
0.182 -0.24427956281734853 -0.08040362497198567 -3.813769209667388e-05 -5.1702134998752364e-05 2.318757216421295e-05 8.149337956509237e-05 -0.0005138934428433114 0.07462896799615198
0.183 -0.24850988642116514 -0.0713324118356407 6.320742879840902e-05 8.615321202109094e-06 7.166418198786901e-05 -8.554808597816842e-05 0.0035850343223570954 0.07517090787975017
0.184 -0.25262581373114557 -0.06094162371732958 1.5383219797101233e-05 -0.00010044734810882098 1.0014294290873369e-05 1.0541343725893396e-05 0.007388668983635772 0.0753872288853042
0.185 -0.25576077263258784 -0.04953392383406507 4.516586410615101e-05 -7.550637378334235e-05 -1.7520530314631274e-05 2.6443206027294242e-05 0.011260258238074066 0.07520384968669139
0.186 -0.2586509856752455 -0.03995462064375591 7.011516557699628e-05 4.253641928399472e-06 -2.0313352495539156e-05 -4.624255441637476e-05 0.015637301569187977 0.07464305198362745
0.187 -0.2617468322032267 -0.029027177058183647 8.341924584664801e-06 2.0418179140499835e-05 -2.778892905130676e-05 -2.1821138775641688e-05 0.018529206268380727 0.07492561955209148
0.188 -0.26344528258161704 -0.018133131229446004 1.9248942246609515e-05 8.075952421029952e-05 3.123346991447968e-05 -6.154269288535777e-05 0.02275939372213052 0.07352727076069676
0.189 -0.2657503511516235 -0.006850136221076399 -7.616765950432241e-05 1.0154479199962486e-05 -3.305081258591631e-05 7.671145457082859e-05 0.026558276211058357 0.07321666763818316
0.19 -0.26607941759253023 0.004245231591034906 -1.0100190573593481e-05 -5.006317793211406e-05 -8.129387910681683e-06 -9.23392405559158e-05 0.030362857070096477 0.07222762581710189
0.191 -0.2672554192502909 0.015687741907523336 -1.7501469681575307e-05 6.199081587592752e-05 -8.303893320754333e-05 7.822200891658517e-05 0.03460132081740815 0.07082675651700766
0.192 -0.2673869822069753 0.02751384647082184 -4.709414365655169e-05 3.396146310890854e-05 0.0001109795379930219 7.386448225236935e-05 0.03790229715241174 0.06914264707677359
0.193 -0.2672939921773304 0.03816056725293015 -1.9019559060456412e-05 3.2598053848355735e-05 -0.00011628895503678267 -9.131540914178065e-05 0.04188799318711426 0.06728462719395537
0.194 -0.26634420883775745 0.049664558729417975 5.447630151948044e-05 -1.9355880772681914e-05 -4.22928108104399e-05 -1.219594838587972e-05 0.04524518492508313 0.06590913445337936
0.195 -0.265035678077918 0.0606936667231442 -7.863992053573429e-06 -1.1648566443815538e-05 7.625402180495716e-05 1.102180680598242e-05 0.04914172926508423 0.06392084755817495
0.196 -0.26183690071069293 0.07207580697435997 3.1121336319793936e-05 6.996384168782501e-05 -9.470750953182868e-05 -3.47048922983629e-05 0.05197924069466509 0.061425830841433514
0.197 -0.2611109610071497 0.08295468898808941 -7.698395091160119e-05 -0.00014089214398470723 8.893962530794233e-07 -2.672254317236333e-05 0.055370983579718765 0.05883295292373986
0.198 -0.2580262146266186 0.09439227145399301 -1.8595068047789572e-05 -7.385104243920884e-05 5.775898677077232e-05 1.36638331012959e-05 0.05886992208140835 0.056428806160720296
0.199 -0.25502183559146463 0.10534844018283156 -1.921500425968578e-05 2.5849453933860165e-05 6.418083825450777e-05 -6.336344284991885e-05 0.06218319791385347 0.053466076207415184
0.2 -0.25132740392556 0.11586352019830827 -4.0220273368085856e-05 -9.564009144088945e-05 2.4178548275794026e-05 -9.23478048630056e-05 0.06474450675935119 0.050271910308032464
0.201 -0.24775438515281692 0.1271747594487232 -0.00016972498447470798 -3.600360069446336e-05 2.347832693297408e-06 0.00012659339679078077 0.06772452810157067 0.04717393199863347
0.202 -0.24278276403928858 0.1371414579611199 -4.10462381423692e-06 -6.437267176930674e-05 5.8416559930701276e-05 -2.483161809205317e-05 0.07030335202467508 0.04380222199670265
0.203 -0.23851008509268698 0.1477744820322794 2.9781066856232903e-05 0.00012883566692500155 -1.6801578874451456e-05 3.9380334446060675e-05 0.07265015491023814 0.04073322680313945
0.204 -0.23349792128504032 0.15721854840244645 -3.586804835162468e-05 -1.5265503309336022e-05 2.4159092773584286e-05 2.7608860436688598e-05 0.07528379113135177 0.03640912144242224
0.205 -0.2270053546298258 0.16697132597070918 5.96002738321696e-06 -1.6101251132794495e-05 7.323603485341824e-06 -2.4503067936452886e-05 0.0774962436258842 0.03317147584093495
0.206 -0.22102210723294133 0.17843194219800018 6.298232848185901e-05 3.7102227171217396e-06 -2.5209665821109847e-05 -9.10477285324162e-05 0.07873543861645849 0.02958490400160655
0.207 -0.21460459872669704 0.1864502071126666 1.1649429132508792e-05 -3.577854251207159e-05 -5.360710256477022e-05 -4.6792782244177834e-05 0.08073616245302817 0.025587697078606034
0.208 -0.2075825775300925 0.19639761728326485 -2.818398987065048e-05 -3.3942617161972904e-06 8.107986851802364e-05 4.2903751308320806e-05 0.08225076275267354 0.021394182482854792
0.209 -0.20052995698240295 0.20579361067377872 -4.4951816617765505e-05 7.06133254912791e-05 -5.8654784485358365e-05 3.9796311170701636e-05 0.08369455248194407 0.017340788578227788
0.21 -0.19261518444760903 0.2135691986235532 -1.8120367907028252e-06 -3.4894343181765423e-05 -3.9082312046445564e-05 3.555827140811195e-05 0.08465031403151475 0.01295656678325946
0.211 -0.18459419176567193 0.2225052355123007 -6.970884269538006e-05 1.1787408739145954e-06 -3.0311152409304153e-05 2.2570099664043104e-05 0.08576129198824045 0.008540111569177965
0.212 -0.17666195372318932 0.2322565272766871 -3.4665689916304615e-05 -9.1649370053645e-05 7.106962489235029e-06 0.00013334750202949715 0.08659705062111674 0.004310279747217624
0.213 -0.16779256957217897 0.23724936154124376 1.9227140334131744e-06 3.3024654451761346e-05 -4.3444451021491645e-05 -3.625278909998591e-05 0.08708530112734224 -0.0002713498351749039
0.214 -0.1586425914888589 0.2477497981748635 1.9174304599804923e-05 -2.5789192905927607e-05 4.887646997286651e-05 0.0001836106727033782 0.08772867169122449 -0.0047337442480131844
0.215 -0.14768544816421886 0.2558792687041105 -8.602556470606364e-05 -3.0502858458247075e-05 -5.1455688099824374e-05 8.186116783497649e-05 0.08730771210466755 -0.00931184010100248
0.216 -0.13963922206033821 0.26227798035202876 3.240798084796546e-05 -3.7191406218782485e-05 5.195789374628676e-05 -5.630391948288536e-05 0.08728048570210986 -0.013939027901750875
0.217 -0.1282451656816167 0.2675091588245509 0.00014048207807689007 1.0115248131447822e-05 3.3451159955643934e-05 -3.904214195665233e-05 0.08662042863568876 -0.018054044282393485
0.218 -0.11833628563010988 0.2736842402115392 -5.8303511243084034e-05 7.354424207696393e-05 -2.39371130865411e-05 -9.403759943743848e-05 0.08597205814659388 -0.02217995919907727
0.219 -0.10781919763939489 0.28185458515984924 7.146343824585606e-05 0.0001258103840280796 -5.218975101022152e-05 8.31421769499548e-05 0.08523717108117401 -0.027118154776918636
0.22 -0.0972229643970325 0.2869236565960756 1.9744550698895163e-05 -1.7170767326793227e-05 -7.221613137679299e-05 -4.0612155450792435e-06 0.08413966104345151 -0.03140460080189634
0.221 -0.08741603832645885 0.29081087725379884 -3.087776312048023e-05 -3.590465273920876e-05 1.40689792780714e-05 -2.2170500368823045e-05 0.08260162041172676 -0.03572552503575769
0.222 -0.07486090435014942 0.2961190547519127 -3.329176940654852e-05 2.6585390292061484e-05 -1.2437738854202207e-05 6.604563982138664e-06 0.08091255178641187 -0.04017118403058747
0.223 -0.062081725366012995 0.3005241314791716 3.0254202517052196e-05 3.452203822360913e-05 -9.249673792342917e-05 5.3234984901215264e-05 0.07935172017137751 -0.044396468204317606
0.224 -0.04777503213805241 0.3062322564079951 -2.654681007171426e-05 -8.565964263016317e-05 -7.404361043691645e-05 -0.00010735737639952675 0.07714219273782129 -0.04862164287864582
0.225 -0.03793723546922376 0.30775968405432663 -6.855750945405144e-05 2.474137298383807e-05 -8.233838945967093e-05 -0.00015928249704241657 0.07462961043100448 -0.052370036705275826
0.226 -0.024110122791526006 0.31178279621890714 3.148079889270149e-06 -6.134931981277755e-05 -4.793647743603849e-05 -2.8138441049463183e-06 0.07251717975538854 -0.056445938349573635
0.227 -0.013853680624644048 0.31193311492596826 -4.3798843222818165e-05 -3.062380029000215e-05 -3.7145597048223514e-05 -4.6411955076974606e-05 0.06963502386976844 -0.060333046777175055
0.228 0.0008413727401623082 0.31643564901446297 -2.9792364807125465e-05 -2.3991154221128914e-05 -1.7224245235839546e-05 -5.0797873643251934e-05 0.06672608053826118 -0.0639330174691887
0.229 0.01287793274031971 0.3167549281614616 -2.8923703678581435e-05 8.239139688582309e-05 -3.8468512262120084e-05 -9.69594573812203e-05 0.06365305926446835 -0.06743452124764024
0.23 0.02627548806459968 0.3164770307341465 -3.842840569650522e-05 -6.421316096738175e-05 1.0222697149697078e-05 -5.5943948763063884e-05 0.06041249565371994 -0.07072906198395218
0.231 0.03849513086693435 0.31673052402017726 7.306780134342473e-05 4.745078501066729e-05 -2.128385406149496e-05 7.299415043587289e-06 0.05728223251013417 -0.07394457148548514
0.232 0.0530763678480535 0.31757086724570666 8.932255846429881e-05 -2.2903142138270325e-05 0.0001349453655825925 -5.561616082230901e-05 0.05375875314962346 -0.07709384380787404
0.233 0.06554181022138296 0.3162939562320616 -6.896700657874108e-05 1.6537622782884553e-05 -0.00010006597112898151 4.06198626196107e-05 0.04953467052260636 -0.08018756902483072
0.234 0.07848926500369402 0.31370965403799755 -6.305207243709219e-05 -1.2983897744251683e-06 -2.741450960734199e-05 5.7344860819105123e-05 0.04549352063127988 -0.08241668255822013
0.235 0.09415155612911959 0.3115225868677331 2.890633522425262e-05 1.575359913963287e-05 2.3896562658407472e-05 -2.4403697621216427e-05 0.04177759873431299 -0.08506719966210094
0.236 0.10658174508255501 0.30878340191213594 -6.399849825435354e-05 -1.634647314842184e-05 -6.473936346822584e-05 3.542541095958097e-05 0.03806028640912549 -0.08709389330222488
0.237 0.1211795157835694 0.30781673586437147 2.1634136350912047e-05 -8.542869618147444e-05 7.565781465767491e-05 0.00011758800358708633 0.03354477031835143 -0.08940354225390017
0.238 0.13297301621332783 0.303325450333037 6.024891882498886e-05 5.4632629065511976e-05 -6.335404709087816e-05 0.00014229551954177182 0.02868488799344629 -0.09095521881039074
0.239 0.14596631466888071 0.300313905065365 -3.626903617469994e-05 -1.820054707960375e-05 3.8212177974316775e-05 5.1571714606945015e-06 0.024488383683802586 -0.09244997965142839
