!Created with skrf (http://scikit-rf.org).
# GHz S RI R 50.0 
!freq ReS11 ImS11 ReS21 ImS21 ReS12 ImS12 ReS22 ImS22
0.13 0.15185455991343405 -0.10777101755148576 -7.31780989798221e-05 -1.1191695712651214e-05 5.4046288722317813e-05 8.84118625382516e-05 -0.03477474356180732 -0.040896325891068105
0.131 0.14880933321095824 -0.11540722778225895 2.480149244525642e-05 -3.8842829351704105e-05 5.891742032269319e-05 7.364585843193093e-05 -0.03739099495159612 -0.039401887344472766
0.132 0.1440593944143264 -0.12194684965608174 7.745785115029548e-05 -8.924854252598697e-06 -7.662019237719726e-05 -2.3699595077962968e-05 -0.03924801924136979 -0.03768478171835383
0.133 0.13884258165332253 -0.12860832781520448 0.00011521135779044922 -1.474304807972434e-05 4.035536128974277e-05 1.8469970467989785e-05 -0.041817690351554936 -0.03596293623279754
0.134 0.13519348247361923 -0.13512897833395293 -6.426205803371202e-07 -1.4037559212535829e-05 -9.48416015850915e-05 -0.0001451965978052574 -0.0435584124111715 -0.03415607628985102
0.135 0.12914031784001181 -0.14179318652916723 1.801074239307806e-05 4.224634394029966e-05 2.9871895563577306e-05 -3.9526284541487486e-05 -0.045543357558644484 -0.03182506246807542
0.136 0.12490150784422596 -0.14888273889958722 -1.8427846055036812e-05 -8.09775748178341e-05 2.4968047381239095e-05 4.376656239708719e-06 -0.047323919517699445 -0.029661067179754065
0.137 0.1185896693317499 -0.15375532722068364 9.766909622043694e-06 -7.352841356184709e-05 -7.113783994773556e-05 -3.725421285594925e-05 -0.04951585200615938 -0.027174111117641987
0.138 0.11320782004036145 -0.15969975397094097 6.754748945440745e-06 1.016761678977573e-05 8.779550607910197e-05 6.301760994669379e-05 -0.051071401274555256 -0.025012713633307607
0.139 0.10717448991471054 -0.16614797675005902 4.0035966999933956e-05 0.00018943374414782263 5.081720939923152e-05 6.656861728987948e-05 -0.05240858836497035 -0.02268600914221713
0.14 0.10121056903703998 -0.1721164839977794 -0.00011335266464755815 3.803620345213001e-06 -4.919530013512568e-05 -1.695430824084104e-05 -0.053947989525304406 -0.019643793298468964
0.141 0.09279661368333016 -0.17575167909279857 2.2420801190125296e-05 -4.308788750287161e-05 7.966298096478574e-05 -4.103772144291226e-05 -0.05535900270934645 -0.017040568861152232
0.142 0.08704376557108484 -0.1828116968923184 4.5077616117452286e-05 -3.28871711127186e-05 7.523916621521586e-05 -1.646834321496335e-05 -0.05634451407808723 -0.014023786498036575
0.143 0.07907903034839223 -0.18714932895632774 -2.6841903241970977e-05 0.0001003943411634113 -2.973283246060536e-05 -7.584489163970601e-05 -0.057052996842481274 -0.011607563396615879
0.144 0.07246400203229196 -0.1898576722566328 2.179163561487574e-05 8.362665438548356e-05 0.000142264210073471 7.792244587874428e-06 -0.05832958715836749 -0.008359962629056245
0.145 0.06391120800160793 -0.19466432680080653 -5.343489839903942e-05 7.18539028878992e-05 0.00018449555677510946 1.6961480797523924e-05 -0.05911050125122709 -0.005545304097255307
0.146 0.05716474426674312 -0.1986413832261603 -5.565974695431945e-05 -8.834877126385979e-05 0.00011593016706537836 -2.6240627190486564e-05 -0.05957208201628955 -0.002657944232865496
0.147 0.048962537778985286 -0.20080480363658632 -1.8576454961549184e-05 9.744457460297753e-06 3.9253372508900315e-06 -3.489637112548526e-05 -0.059800611097676724 0.0007175902610901668
0.148 0.039780172010753845 -0.20524885209304522 4.539596712747005e-05 6.44272635030427e-06 -2.753566533448213e-05 7.045212736446885e-05 -0.06009534957035907 0.003478230579994361
0.149 0.03274301260893154 -0.209129818143555 2.9909223010418198e-05 -5.6501732645726815e-05 1.2901772795897877e-05 -2.6480040769452688e-05 -0.06017097839833879 0.006888863296299075
0.15 0.023227212969441982 -0.2114201843658615 -9.109796963339385e-05 1.3475024965172345e-05 -8.461704007571418e-05 -2.215775174839422e-06 -0.05995234312689482 0.00974707672748463
0.151 0.013805077175460161 -0.21195323888696005 3.226840998299944e-05 3.7181952473103564e-05 -1.647478145452694e-05 2.304358026323727e-05 -0.059722049244465024 0.012830556827834209
0.152 0.006147348117057334 -0.21462603174903838 -6.730342560090475e-05 0.00010175973510186862 -7.571170968067087e-06 5.9872898731021236e-05 -0.05949647471116231 0.01627290581817178
0.153 -0.0033220981507259915 -0.21655014188524424 -4.998201121574677e-06 -3.399850559197565e-05 1.0173383755772923e-05 9.697774164479984e-06 -0.05892145428575713 0.01923360401900464
0.154 -0.011973315296895853 -0.21659588762237922 -2.563456069239639e-05 7.642311033785959e-05 -6.331489818132106e-05 3.692415728558124e-05 -0.05800246418324059 0.022219700596158718
0.155 -0.02158966333807265 -0.2176819903826421 0.0001225737526909465 7.434242403831938e-05 9.195823392387056e-06 1.8486558519010384e-05 -0.057319291748946975 0.025351806533836334
0.156 -0.03243500877907749 -0.21804450544718912 2.480762254733113e-05 0.00010583924166647225 2.0060940128187743e-05 -9.68772679998304e-05 -0.0560890279834633 0.028511385540637587
0.157 -0.0417280997346292 -0.21824512140949862 -3.059237357544435e-05 -8.800771853315545e-05 5.502460041437329e-05 -1.6286788242079992e-05 -0.055073071401283015 0.03141710647799677
0.158 -0.04953351050418733 -0.21650527075087267 -0.00011814848842440213 -5.474091373241284e-05 -6.786605782036749e-05 4.271686269189796e-05 -0.05353188312822762 0.034401914694134186
0.159 -0.05846301939351423 -0.21600594009279875 8.34726426205775e-05 -5.089803622636532e-05 1.636187873728627e-05 -3.290669537600948e-05 -0.05196315950284403 0.03718268105907191
0.16 -0.06895713089034551 -0.21321702659125202 -5.193573714440472e-05 -0.00011816403891910602 1.146502246923124e-05 6.774595841383672e-05 -0.050537084493828495 0.04013155037163674
0.161 -0.07863012495133341 -0.21100722081652756 -8.482687868949716e-05 3.565249241591468e-05 5.9473978457225823e-05 -1.8323774382186433e-06 -0.04832497986795554 0.0431198565894631
0.162 -0.08820959785966143 -0.21059753631365563 -4.853604499304535e-05 -0.00015148427003667113 -5.3896034141710076e-05 -6.836679338571477e-05 -0.04656132522098502 0.04563105549706074
0.163 -0.09835615346882991 -0.2070428525976681 -1.5143154439713467e-05 6.737106908616259e-05 8.786437696932995e-05 2.4351627768691706e-05 -0.0444195760516263 0.04814493606296941
0.164 -0.1075120053625213 -0.20394162397773355 -1.6326622013477518e-05 -5.1695391311141685e-05 -3.606216372962528e-05 -3.3591757814393334e-05 -0.04213579938762288 0.05093060399051532
0.165 -0.11611763219982849 -0.20055285621824234 -3.422361555527942e-05 5.038216124004314e-05 -3.146243592292281e-05 -1.0279710657918822e-05 -0.03962352823480521 0.053251421246441326
0.166 -0.12575013808414942 -0.19682507939112814 4.700675511697505e-05 -5.582308870513042e-05 2.7128046768789616e-06 -3.607256826211468e-05 -0.037446557073795274 0.055573995418399795
0.167 -0.1354823346674369 -0.19242586322370298 7.063217072800554e-05 7.304203191858524e-05 0.0001699977156458421 -8.214722281003065e-05 -0.03467918616069608 0.057680221859417416
0.168 -0.14409389447679036 -0.1877603129906521 0.00014644625801805186 -3.0919466477051234e-05 -4.4225706092946344e-05 4.518891351579992e-05 -0.03146137443515026 0.05999662678775534
0.169 -0.15299790254980955 -0.18092843597278915 -4.319122229362065e-05 2.3154380903433034e-05 -4.568860170457094e-05 5.07938376072417e-06 -0.02840269940843949 0.061931983450040334
0.17 -0.1632453501209344 -0.17515494666539866 -6.670871322534966e-05 3.7958411892693026e-05 -1.2780783142027073e-06 -1.2098736300471377e-06 -0.025513231875156528 0.0636089680080556
0.171 -0.1703448245300307 -0.1705307433296775 -4.4218056590618004e-05 9.900640108421663e-05 -1.3099571413552996e-05 -0.00013614153805523928 -0.022298443809137335 0.06514871528719807
0.172 -0.17774809928153348 -0.16475868830915852 -6.794515279408312e-05 -5.386473322680032e-05 -1.8447443486108454e-05 -6.535852887406858e-05 -0.01921457236214665 0.06706094062698212
0.173 -0.18554629503770165 -0.1568595005732706 -2.36172178052623e-06 -5.451878471192214e-05 -5.473225181179504e-05 -5.1882262592481805e-05 -0.014957189527493682 0.06801593298992911
0.174 -0.1933534915908064 -0.14891063415134667 -4.173228550337512e-05 -5.1794491256585764e-05 6.974260275165655e-05 6.406933335081235e-05 -0.011726967519301395 0.0692077320647733
0.175 -0.20123398197388698 -0.14279491152435725 1.1897269172746009e-05 3.1636453128865356e-05 -7.828628720239548e-05 5.2494713272912606e-05 -0.008548183471922195 0.07033280753977465
0.176 -0.20841886396075845 -0.13357790647644321 6.147961546565897e-05 -3.3130130276701105e-05 -7.681793026353166e-05 5.4242636695155594e-06 -0.0047722174359193905 0.07088446137884635
0.177 -0.21462003893671847 -0.12634204060129822 7.593511550181318e-05 9.459998006206513e-05 -0.0001168360003841216 -4.283179132459775e-05 -0.0009187414932787213 0.07167608836267757
0.178 -0.220683007370441 -0.1173392364262832 -1.8602752488055132e-05 9.7323906847007e-06 7.595104908760893e-05 7.069975112846137e-05 0.00212281737203752 0.07172304748151981
0.179 -0.22664229218920065 -0.10734512613445889 3.88882018190001e-05 -1.6908283263378673e-05 -0.0001434878573927417 0.00019300306163777967 0.006462615748156534 0.07189181213634473
0.18 -0.2318001609985475 -0.09775982353740584 6.39022522182663e-05 4.830424344840326e-05 -9.30047354566849e-06 -4.684008018919012e-05 0.009610334194781838 0.07227416282117143
0.181 -0.2360101088603975 -0.08798389931035627 -9.270259078191808e-06 3.713783001267836e-05 5.597883069654382e-05 3.6721606181003123e-06 0.013686115903080583 0.07163368647277281
0.182 -0.24114521454606713 -0.07933552529987528 -4.736494593852678e-05 8.175505970310309e-05 6.437449558158869e-06 -9.999212733383907e-05 0.01757127123407866 0.07132325378385952
0.183 -0.24507354983897076 -0.06868519229244317 7.77301404901118e-05 -3.3246514540289865e-05 9.083280412223082e-06 -7.85795726058847e-05 0.021253505856751426 0.07116231427703126
0.184 -0.24991768040053067 -0.05881183666488838 7.955054979310698e-06 3.842934011131843e-05 -2.2451796498340294e-05 -1.6315216052582e-06 0.02528496546226256 0.07012367119153376
0.185 -0.2530991973157956 -0.04858891825911566 -5.523306445024389e-05 4.377249305812545e-06 4.821051077575945e-06 -5.12107916078457e-06 0.02880958364411304 0.0689533809816768
0.186 -0.2557983101788065 -0.03748081115711685 3.7704850422523116e-05 6.922725802930104e-06 -8.80517520109221e-05 -6.260765442879882e-05 0.03257984784695493 0.06758033546899511
0.187 -0.2590864700730477 -0.027373964292624144 -6.792062812894129e-05 1.0453984532674404e-05 -5.649424190547565e-05 -1.3832217772877706e-05 0.03669995500171672 0.06629905173258939
0.188 -0.26023832431613153 -0.01570316498622605 2.1663678308064294e-05 3.363710093193769e-05 7.27273532533775e-05 -8.585559257600237e-05 0.03956062096022609 0.06482958347519141
0.189 -0.2614947296690013 -0.005420459667538615 8.926345263480017e-05 -1.4877370420537624e-05 -4.9186237534480874e-05 0.00010767634416769728 0.04306271125216316 0.06278493006251075
0.19 -0.2626924645502828 0.006448738043107313 9.432345292281145e-05 1.8125322626851304e-05 8.517051984229052e-06 -4.025848776225951e-05 0.046850720992848496 0.06104843004900433
0.191 -0.2635324808418077 0.01705631469935454 -7.048065367268834e-05 -5.77908437803174e-06 -8.754568597612507e-05 0.00011944847560191808 0.05063551845692603 0.05845846262463314
0.192 -0.2636311176330749 0.027636060649623914 -4.530279698733785e-05 -8.274993028485036e-05 0.00012213690811654963 -5.945423148897296e-05 0.052986004740743414 0.05613759841841295
0.193 -0.26317173402662397 0.03914786793664953 -7.975617704861146e-05 3.07653524107053e-05 5.353027870801929e-05 5.835012556883958e-05 0.05682870842768641 0.05370428771109734
0.194 -0.26246524901301566 0.04997891243190951 7.973459878009873e-05 8.53589298113844e-05 -5.0472165295239655e-05 -1.7502221371660687e-05 0.05943118329468206 0.05079757915581351
0.195 -0.2614815428373968 0.06089376455007764 -8.880056723743751e-05 -8.64829690408639e-06 -0.00011569149859638116 -1.2414913350410711e-05 0.062675029920114 0.04805830636537441
0.196 -0.25823352336678335 0.07222156933776917 3.803524868089242e-05 -8.349090278724595e-05 2.177484589210658e-05 -1.8074816232700604e-05 0.06494581656643529 0.04498240783704135
0.197 -0.25671867546055155 0.08325818101706331 -4.36547719445336e-05 9.111260159898397e-06 -2.6306175935561985e-05 0.00011033500984945124 0.06756625944432591 0.041817640727704636
0.198 -0.25423252354533 0.09418536434284205 1.4302442081955442e-05 9.477802188010506e-06 8.928086990655765e-05 -6.135656092359249e-05 0.07032177454469833 0.03829808344216731
0.199 -0.250743089511044 0.10514530373239904 3.2399389461798626e-05 -2.6899610810287784e-05 -5.268846500448221e-05 1.860138684273998e-05 0.07238363267324278 0.03462370999322506
0.2 -0.2481404895826683 0.11562743692513981 -2.845062754462144e-06 -4.392148645244143e-06 -3.921934155642206e-05 -5.581641989277282e-05 0.07399734653403528 0.030458789691716774
0.201 -0.24358419745954066 0.12680190723252724 5.465167560174904e-05 -1.864840744000521e-05 1.3564497879351696e-05 -7.363566782697156e-05 0.0764550161099477 0.027008165324383375
0.202 -0.23912276681592742 0.13675644710037974 -6.109331071912668e-05 -9.53655669534588e-05 -5.582005939795498e-05 -3.292154977343016e-05 0.07774504036431215 0.02304642763825158
0.203 -0.2336681773461038 0.14694410043705633 -6.209085688448468e-05 1.9474832374210086e-05 0.00012015728940490821 -4.1749527003063614e-05 0.07951255049122749 0.019235536611206184
0.204 -0.22904958545451293 0.15687022654523297 3.179095897681819e-05 1.055643057578311e-05 -2.2014445081419975e-05 -2.0189095167140423e-05 0.08067734297696823 0.014926350345960208
0.205 -0.2227289350925185 0.1675052232565687 -5.81213463651866e-05 -7.890593530887034e-05 8.843098967073246e-05 0.00010072534239929004 0.08154763095385986 0.010745140468445175
0.206 -0.21626595100078666 0.1762055030356859 5.638532604200008e-05 -5.355518541492499e-05 8.429508449274725e-05 -6.541543031646052e-05 0.0826900967673148 0.0068053871551447855
0.207 -0.21063766663992212 0.18553880230961822 2.6200173962138717e-05 -2.351323095750601e-05 -3.9386623596007804e-05 -8.394135661210111e-05 0.08302570938705071 0.002428489221281135
0.208 -0.2034717632334457 0.1944099945900537 -9.589837342577944e-06 -1.4553249345385855e-05 -5.088440261315751e-05 3.927697888848405e-05 0.08337652995719137 -0.002008831184408312
0.209 -0.19650431176203842 0.20359725513242827 -7.297985684233189e-05 4.09753239278853e-05 9.132828679562489e-06 -7.734357750598143e-05 0.08353699029253944 -0.006202501921906356
0.21 -0.18842443097707162 0.21397246548585044 -0.00017744397058370957 7.265074082517253e-05 6.13782406567955e-05 -0.00016294327186407992 0.0832959760293466 -0.010397554183373804
0.211 -0.18071629650750198 0.22026468224643866 3.782732563760049e-05 4.607030799709539e-05 7.209418312883899e-05 -9.547569076051089e-05 0.083225337948647 -0.015223246569556112
0.212 -0.17237764225491764 0.22979422049827633 1.453481695996431e-05 -3.2112469147422677e-06 3.518047320790339e-05 6.236964545618368e-05 0.08250911999314434 -0.019630291193294024
0.213 -0.16404327741819477 0.23746853415840705 2.1253343732650854e-05 6.77490503403776e-06 0.00010820586317073187 0.00012631738867618385 0.08198242312330146 -0.024482021367581507
0.214 -0.15555621479886017 0.24613246887676402 5.608806824636116e-05 8.914348644201994e-06 7.00825713531528e-06 -1.267071965679636e-05 0.08081380541553143 -0.02813493142125203
0.215 -0.14499477765809052 0.25117786759752797 5.8806110396591654e-05 1.4106967694748218e-05 -3.0780799421879876e-05 -1.833538922668732e-05 0.07950297385679284 -0.0322332560414013
0.216 -0.135847799871804 0.25786278666138834 4.5193477731110075e-05 -9.735058569648482e-05 5.144366705655068e-05 -5.7625895724985874e-05 0.07799350868886117 -0.036870290169009376
0.217 -0.125262767444828 0.26667813890827335 -4.826372762270068e-06 -0.00010951409287807331 5.819180918645553e-05 -2.6142490231846337e-06 0.07622156577018283 -0.040876670366189534
0.218 -0.11614246143243362 0.27216877907627685 2.241979724501369e-05 -0.00011848516063682581 -1.322088213970747e-05 -2.1894901143487888e-05 0.07431038268275414 -0.044974889822523824
0.219 -0.10460872631311954 0.2781112469755628 8.080581833089171e-05 -2.874820890175929e-05 -2.260324185893498e-05 -5.868008691041125e-05 0.0722921077152294 -0.04902742222236728
0.22 -0.09553601121341089 0.28391793146168154 -5.934027821177426e-05 2.353379766621261e-05 -2.8343455656457816e-05 0.00012654194955159751 0.06988971406081888 -0.05266194190463897
0.221 -0.08351467692617344 0.28901795666697133 -6.254760297749626e-05 -3.2246511882470794e-05 3.17918132568368e-05 -5.640699126100587e-05 0.06738591949891024 -0.05661007790520135
0.222 -0.07145883945285843 0.29254645356447867 -4.4505503223284804e-06 -3.2420764384729156e-05 -3.4535191951906376e-05 4.471607146436639e-05 0.06467048919152078 -0.060170338727841784
0.223 -0.059757224339503506 0.2975562031272366 -8.359141956218233e-05 3.801224405152821e-05 -3.152484975039626e-05 -1.0043814744393091e-05 0.06143859427757124 -0.06391736861770914
0.224 -0.04737297931640155 0.3020325084616081 -0.00010734546231469954 1.156365106328244e-06 7.745815524415822e-05 -1.454660114868595e-05 0.05830991428304316 -0.06713794923260646
0.225 -0.0343461246682849 0.3044039276493061 -3.0482742960584592e-05 -2.191289773045795e-05 -5.5291842994882467e-05 -4.107738528367713e-05 0.05534618599047808 -0.07006864005548145
0.226 -0.022134705322937216 0.30460148235834594 -1.6303599471655397e-05 -7.688280530228155e-05 8.639769328876947e-06 -1.6172089563260181e-06 0.051281596852036114 -0.07333343847174016
0.227 -0.008229733230438557 0.3102393746945244 2.8324948938136608e-05 0.00011883818706598593 0.00011977408991256579 -2.3834097955145977e-05 0.047903886840847926 -0.07633180937593648
0.228 0.0019932958525390268 0.31102876907949556 -0.0001341192773967714 1.0757850576581318e-05 2.044305533743862e-06 0.0001265092434637789 0.043558455124995094 -0.07873971106824158
0.229 0.014516201360526119 0.3133541325824402 -4.08820273693333e-05 2.6612546560825348e-05 8.775105026386122e-05 4.1943262421008116e-05 0.04005683633045576 -0.08122024896633724
0.23 0.02872087199333104 0.3118669370683255 4.6424707514719786e-05 1.931415792122585e-05 4.7714562002041134e-05 1.5666304786501083e-05 0.035560537064769804 -0.08366434040929722
0.231 0.042644331345847185 0.3152747698276615 3.928366466557187e-05 2.2433814005966087e-05 5.38860314212356e-05 -8.424152286679895e-05 0.0311004443523366 -0.08555664662806628
0.232 0.0536893275144427 0.3104242602592423 -3.626620726330788e-05 -4.3017480876601266e-05 3.28300259022708e-05 -3.638903098420536e-05 0.02716420472747456 -0.08746198042483044
0.233 0.06812630354935065 0.3138739318692671 6.355714251439892e-05 -5.5623235713301e-05 1.8827131645655095e-05 -4.9337697685951396e-05 0.022892699715727598 -0.0892470581166995
0.234 0.07989973298234905 0.3092102283213111 1.9024373413925663e-06 2.9299339041919972e-06 -2.392265491132395e-05 -9.875477506299208e-05 0.019179802083374286 -0.09008286712885279
0.235 0.09382676025033913 0.3092294808234683 3.172765476835171e-05 1.0415465157485536e-05 -9.436447926256476e-06 -6.552238359670124e-05 0.013773686015773947 -0.09152154135862801
0.236 0.108276845305461 0.3039848907847639 0.00011213817921703974 -4.527786493315264e-05 -0.00013040722547700407 5.1471502845315424e-05 0.009836188316731746 -0.09237329035570856
0.237 0.12070396586893867 0.30147143851849206 8.768276821321111e-05 -5.680596735899172e-05 -4.810422425202396e-05 -6.410885523008128e-05 0.004818886922028205 -0.09279717435877978
0.238 0.13334780633665846 0.29835374805305487 3.580792842183977e-05 -8.584782247710025e-06 -1.5125484564404677e-05 9.126524314329586e-05 5.726283317775224e-18 -0.09351730346679688
0.239 0.14487963114190291 0.2961243907940224 4.5391647474522476e-05 6.285719087804233e-06 -0.00012590749976100973 -8.605441000825491e-05 -0.0050960867821212945 -0.09322553305896705
