!Created with skrf (http://scikit-rf.org).
# GHz S RI R 50.0 
!freq ReS11 ImS11 ReS21 ImS21 ReS12 ImS12 ReS22 ImS22
0.13 -0.1820755216907486 0.0573536065604986 0.0016489672806643764 -0.00010583171949047506 4.405982455501514e-05 -7.404067394887075e-05 0.054833972349074736 0.011120090692068221
0.131 -0.18133746844604512 0.06477203899995498 0.0017232542715536834 -0.00029145455850536345 5.291857237729634e-05 4.0726354891593885e-05 0.05601287510982292 0.008082006256245378
0.132 -0.17951517043024323 0.0720736654957865 0.0017573343840136463 -0.00023829331604733586 0.00013278991671967488 7.342627469703806e-05 0.05649474153415641 0.004772166929360027
0.133 -0.17886054158773518 0.08060013809648847 0.0018597178354083832 -0.00037382721732040605 7.039068529849171e-05 -1.9818555848742416e-05 0.057275971805096304 0.0017426107165589883
0.134 -0.17587226801907122 0.08783643967857364 0.0017327197351436833 -0.0005290352131034014 -5.957756248978769e-05 6.823491694817864e-05 0.057775839090011785 -0.001544447484128917
0.135 -0.1738621363809072 0.09578537226773166 0.0016684105829936483 -0.0005894713991312648 -1.8167986223341614e-05 -6.528567350726419e-06 0.057917905774045396 -0.005008725341105691
0.136 -0.1714058026621159 0.10337309098538193 0.0015213397747116976 -0.0006861871567289451 1.0258276628457699e-05 1.8481155038802422e-05 0.05783520784242692 -0.008354004383254846
0.137 -0.1676780298340018 0.11098366687686621 0.0016303816297724364 -0.0007149982254300107 6.987684069892592e-06 -0.00010151983025383757 0.057677592160926036 -0.011723377794818805
0.138 -0.1644942651003693 0.11845298294347036 0.0014872039830813838 -0.0008742555621342743 1.7820299809713533e-05 -6.815785766075794e-05 0.05745868655184789 -0.015116614395450553
0.139 -0.1602109207213089 0.12651277352588147 0.0014905709958490164 -0.0010521367319213327 -5.551921652071327e-06 5.545868745779291e-06 0.05680733726150951 -0.018561712990869277
0.14 -0.1563530940559189 0.1327290701134784 0.0015544088892310993 -0.0011030826400704175 -6.920188553790838e-06 -3.943497178345693e-05 0.055964343337432394 -0.022009688615868054
0.141 -0.15261485865192795 0.14026744207787298 0.0014332872775722324 -0.001117526725744027 0.00011652365245067394 9.238914404995664e-05 0.05496446399281268 -0.0253616870992419
0.142 -0.1474322752876292 0.1469505920175146 0.0013141773018375837 -0.001251030003439313 1.3221782359516951e-05 4.683093178498906e-06 0.05385152117041305 -0.028561583029430196
0.143 -0.14261829674069637 0.1537359961440084 0.0013531479625349847 -0.0012152930531378686 4.332328183564952e-05 0.00014954584120446338 0.052374868342178416 -0.03184172922745141
0.144 -0.13652303022632142 0.1601572224106933 0.0012435979757677202 -0.001344121242652558 1.353667948215509e-05 -8.475650649335496e-05 0.050909240177433715 -0.03512966618690575
0.145 -0.13160421593686122 0.16740815566958447 0.0011732696718316823 -0.0015026667223574954 -4.4492499607675306e-05 3.6493749832350044e-05 0.049034131592014814 -0.03810817978514614
0.146 -0.12490216545467163 0.1732757249522499 0.0011866934323908078 -0.0015305868842090174 -3.430465023903885e-05 4.03657805589695e-05 0.047087276138923655 -0.041138509926442635
0.147 -0.11846184706392165 0.17921515400816942 0.0008827808564251227 -0.0017798431987637228 4.093821063459413e-05 -3.768532791063198e-05 0.04495912592768085 -0.04382114366163619
0.148 -0.11242565312760287 0.18444848902014258 0.0008980919180486342 -0.0017591935302903102 -1.630069500688903e-05 -0.00013926921850737352 0.04267761549155309 -0.04700370322597137
0.149 -0.10527876471271148 0.18886368045377658 0.0008119240548235514 -0.0018596647384066074 -3.207181820193217e-05 -0.0001152200717284246 0.04007413117400522 -0.04946329281942436
0.15 -0.09834465272484702 0.19392653726964018 0.0007712054170236278 -0.001987562785033274 6.22190782754782e-05 -8.998940345078387e-05 0.03729789596764259 -0.05193689091621852
0.151 -0.09076547666023617 0.19938275639950837 0.0006357050811504661 -0.0018727267799763445 -3.817617195195794e-05 2.384788243876584e-05 0.0345876218237045 -0.05437755346110095
0.152 -0.08377202298296094 0.20341934121954786 0.00045541350495291845 -0.0019781494956647855 0.00011849120928858645 1.1159761836358055e-05 0.03148036031042919 -0.05647384566548568
0.153 -0.07484088290092532 0.20786965601348534 0.0005447642057978413 -0.0019987089286186044 1.8860489138004147e-05 -1.0389711978443052e-06 0.02837432517256333 -0.05849956418375421
0.154 -0.06808451466712803 0.21175087478197827 0.00028199437186888327 -0.002109718991611621 1.6587436686426055e-06 5.626892716912134e-07 0.025484201595981693 -0.06044908968289831
0.155 -0.059200781390859686 0.2162162660718227 6.745866608021982e-05 -0.0020393900199597247 -0.00010213650038209047 -8.641712600312168e-05 0.022132973902486835 -0.062325982110493845
0.156 -0.05152266882668146 0.22028943380271626 -1.1327141122118044e-05 -0.0021030597823204276 -8.954718314720282e-05 -9.62170449857994e-06 0.017971849147620518 -0.06340885293661688
0.157 -0.042994774610426334 0.22248438723790265 1.3157653395746947e-05 -0.0018736854149801186 0.00013957032757253802 -3.3280258813902215e-05 0.01493125258366707 -0.06481546921455801
0.158 -0.03416983344669575 0.22558381803950106 -7.962935167897855e-05 -0.0020735476846376714 -4.845384137192461e-05 -3.185282035322305e-05 0.011264944994858658 -0.06582697764005996
0.159 -0.026140683373657634 0.22791405471741802 -0.000400940348066629 -0.002025766536580541 6.574236121781894e-05 -5.1526162446542425e-05 0.007483777797445477 -0.06661278685109819
0.16 -0.015748413474700924 0.2304041877666925 -0.00044535049083480884 -0.001951470820623553 7.738139930977896e-05 -6.248771184146719e-05 0.003819719886447735 -0.06751135224356723
0.161 -0.008484599563218818 0.23035832617151178 -0.0005134288315485856 -0.002084050400489443 5.9401442485375146e-05 -3.118283835283596e-05 5.548321005212763e-05 -0.06781766529223245
0.162 0.0018532705081626452 0.23233056012944286 -0.000690751894548022 -0.0019497782242721524 -2.4972722987583688e-05 -6.779114100513029e-05 -0.00373039798931502 -0.06824223290232702
0.163 0.010840900840945496 0.23401721945413975 -0.0006556356472255443 -0.0020094450030813536 1.82449055069369e-05 -5.315180435063362e-05 -0.007820155412996075 -0.06801811425185737
0.164 0.020621506532346342 0.23459957016061753 -0.0008610349358260001 -0.0021290464193458765 0.000189004354716095 8.09966931438481e-05 -0.01163518583062422 -0.06793477284287303
0.165 0.02921096757812463 0.23564603488457003 -0.0010479094008969234 -0.0018672929300088705 -6.626274699908463e-05 1.4197941907570077e-05 -0.016016966017817113 -0.06736255148801502
0.166 0.03736995684243639 0.23459871447819847 -0.0010252708953587932 -0.0018389786142223442 5.8747032714887045e-05 0.00015407647236283345 -0.01961258740862548 -0.06654404565066863
0.167 0.04752927766532161 0.23296341118697375 -0.0012271293973777646 -0.0016612108297615143 -6.486643902513863e-06 -9.876071920085368e-05 -0.023153335319087396 -0.0658534841058864
0.168 0.05738531344050995 0.23334268778664322 -0.0013467337673293378 -0.0016705164134663204 -1.1543156793612956e-05 -4.129511166949555e-05 -0.027492637400421273 -0.06451164108764769
0.169 0.0664183757312964 0.23168801748096796 -0.0014385747265621923 -0.0015837472620169716 9.741388174885195e-05 1.915340162885411e-05 -0.031223396614812465 -0.06339103227877453
0.17 0.07541744585445757 0.2298163981466486 -0.0015992013952137527 -0.00151758545909885 -3.8020350174725466e-06 8.749155263787244e-05 -0.03507633794485585 -0.061624161083960495
0.171 0.08557283172160969 0.2289701074420588 -0.0016861808838776046 -0.0015224123821795986 -7.005973739910354e-06 1.9835818136493613e-05 -0.03860556302315339 -0.05978587860591344
0.172 0.09441927444163627 0.22585493321783662 -0.00179608786931976 -0.0014411103040187889 -7.374834649808351e-05 -9.222294687880236e-05 -0.04199358975326948 -0.0577164281166844
0.173 0.10298163297992112 0.2233844304450565 -0.0018647576358242046 -0.0012401151727084712 -5.546201831616633e-05 -9.299226830418827e-05 -0.04540207874986969 -0.055864132613000675
0.174 0.11288431227693935 0.21811792851078765 -0.0019303832726366014 -0.0010720943997183606 0.00014524647253501326 -6.124776514050085e-05 -0.04864388927142867 -0.05331855909486533
0.175 0.12183744815220009 0.21422097806889043 -0.0018732377760979303 -0.0011154971085479152 3.354342431283452e-05 -4.758664232146164e-05 -0.05206713696570645 -0.05074924038101749
0.176 0.13059751126603952 0.2125948744824729 -0.0020115509194194203 -0.0008570916100235781 -0.00010508683113542401 7.967807678085395e-06 -0.05487901555711128 -0.04836640381603953
0.177 0.13887989686701077 0.20875612955195214 -0.002213076952160674 -0.0006799065787573491 -2.9420203252053994e-05 2.7180881047811473e-05 -0.05760765975097951 -0.044982742347194946
0.178 0.1473412598045773 0.20370181180991723 -0.0020886695502451615 -0.000663568209741818 0.00010277943749247633 5.0853010333875055e-05 -0.06039777180586488 -0.04216835968793088
0.179 0.1565097075493138 0.19750482964499316 -0.002236180856451097 -0.0005591621152109548 9.670658013407815e-05 2.5808246855385614e-05 -0.06269369879971583 -0.03892620169763408
0.18 0.16502471411894898 0.19364645414040751 -0.0023146120427443642 -0.0005015601722502948 4.47549947500375e-05 -4.384885249832173e-05 -0.0655197170618692 -0.035470264893579975
0.181 0.17220348248086625 0.1877471607811629 -0.0023083638301703204 -0.00030294128606546834 -1.4461394810953359e-05 -0.00010169057513827107 -0.06766086854681234 -0.032182027927787904
0.182 0.18048035908989202 0.1817026436193713 -0.0023014404053461257 -0.00015210505228770694 8.78769013344991e-05 4.597832049624365e-05 -0.06952555585448765 -0.028211524936309552
0.183 0.18826847721337914 0.176019693214196 -0.0022428109903963444 -6.515710991489525e-05 1.637553513958274e-07 -0.00013343979801186797 -0.07164141191220812 -0.024177442698780003
0.184 0.19567447831465384 0.169641039606348 -0.0022952377165134054 -9.076017639219928e-06 6.272757724248592e-05 8.804870461643437e-05 -0.07274513731749373 -0.020409211197768777
0.185 0.20411434004951215 0.16339623066329376 -0.0023511852865612877 0.000294223087402586 -2.0398017802347297e-05 -8.799762140286409e-05 -0.07417789331856443 -0.01606323940964334
0.186 0.2110207390723307 0.15638102989860664 -0.002381242959167835 0.000376153387792997 0.00010751951741381218 -7.372894873204193e-05 -0.07556431125105088 -0.01207385356644465
0.187 0.21848737538304705 0.14906817654621193 -0.002122000878205012 0.00041818330725237955 -3.5113104986818182e-06 -4.618511223727293e-05 -0.07639576024514948 -0.007882100339107976
0.188 0.22300967480713277 0.14084683437196505 -0.0022157212129607904 0.0006741117124940655 -7.020801275712967e-06 -7.6464040962172e-05 -0.07699632354635107 -0.003666830347706734
0.189 0.23152008720232264 0.13237698793689387 -0.002263489449707081 0.0007470713362684075 2.8661482317227876e-05 4.66142060042337e-05 -0.07756617865935411 0.0005394074879879187
0.19 0.23775338003845856 0.1230977859476383 -0.002158713227857472 0.0008300035396673952 5.3586737695716414e-05 -4.835897807107461e-05 -0.07769354113651152 0.0052306311490239905
0.191 0.2439888013027572 0.11423997084530145 -0.002206831814096028 0.0009549099518955411 -6.992921299729558e-05 -7.641887743603172e-05 -0.07784935540732277 0.009558698920262294
0.192 0.24938079432757268 0.10590101697220689 -0.0021271344044949967 0.0012096084883796796 -5.92646380831313e-05 6.847732170700896e-05 -0.07724438875891619 0.013848446514511056
0.193 0.2559338349559826 0.09686490215521712 -0.002013722547126461 0.001270180449111224 -2.068541214245243e-05 -0.00011110115076122201 -0.07681103692990249 0.018396395630835453
0.194 0.2599821671541247 0.08710215874264737 -0.0020474884990006243 0.0015137660406843584 -9.888853352822458e-06 -6.276807705775988e-05 -0.07602434708591875 0.022609672896682212
0.195 0.2646675726609824 0.07730510085213668 -0.0020782671072345905 0.0014944179403626123 -7.407821187759086e-06 -3.2227105716701874e-05 -0.07527794624746513 0.027364064283691387
0.196 0.26873155729900255 0.06789573987434075 -0.0018570370120651184 0.0016588341887016854 6.418395253742499e-05 4.488342081031489e-05 -0.07355480088895545 0.03126951787936934
0.197 0.27251891397383265 0.05735064367392701 -0.001852819887494875 0.0016596149775407766 2.5895991689786054e-05 -7.999648231067981e-05 -0.07206069774355411 0.03567087137374549
0.198 0.2758887465639415 0.0475298155764028 -0.0016785735772210891 0.001987202824643716 7.47342050576588e-06 9.152752753688068e-05 -0.07028812490549272 0.040020537378842605
0.199 0.2786868199270333 0.03566825819568729 -0.0014513322817526946 0.0019180809569135295 1.2920603483938545e-05 -1.0346005165242934e-05 -0.06831367341104981 0.04391449849823988
0.2 0.2814516853905592 0.024854664436778574 -0.0014211733876041271 0.002071448609541516 -4.7933537613685507e-05 -1.6856558154317903e-05 -0.06603988389465579 0.04800830584436224
0.201 0.284241969359115 0.01379273022827589 -0.0012670846400487377 0.0021301082850436067 1.120907768039658e-05 -3.320671642481436e-05 -0.06350950361159681 0.05151506947990116
0.202 0.2859242717259814 0.002412370106624873 -0.0011999843134004316 0.0022891207665290975 4.1557538416534924e-05 -0.00011915909358778111 -0.06089970224586034 0.05566696249007302
0.203 0.2872368301064863 -0.008188184928580797 -0.0010878210244400382 0.0022659364009055723 8.589906224350907e-06 7.716961756475134e-05 -0.0576750984168846 0.05907607921797947
0.204 0.28794720294859755 -0.020137695830108156 -0.0009788290905911605 0.002396305549988656 8.06326172193572e-06 -3.4285354642896357e-05 -0.05445154813741694 0.06262209329971523
0.205 0.2883811705221624 -0.031673656777489595 -0.0009127113071662244 0.002308279642080862 -7.754829200519354e-05 -0.00014575122296033808 -0.05110198300343598 0.06616670690971332
0.206 0.288180178408675 -0.04317929581900889 -0.000563584921694187 0.0026051356756308505 -3.9010105757288277e-05 3.870280697004979e-05 -0.04743888104144487 0.06941869815047436
0.207 0.28787661577068413 -0.05495760961592214 -0.0005010211196996635 0.0026175239014982797 7.328394114211801e-05 -1.9185903292933867e-05 -0.0438771354518648 0.07191976957422683
0.208 0.28681869845842445 -0.06646194532050803 -0.00024493020254588846 0.002479884861502702 -0.00010435282801960181 8.822134141866574e-07 -0.03970670150631408 0.07471430570299169
0.209 0.2852945253401259 -0.07856175572381117 -0.00022949183278196293 0.00262929735454973 3.1649117221342186e-05 4.794788672589119e-05 -0.03558298184568752 0.07731018649742993
0.21 0.2823539230169023 -0.08921106746520499 -0.00018163032375129913 0.00268692514879214 -5.811283529162203e-05 2.545200245103978e-06 -0.0314310234379868 0.07934776847720448
0.211 0.28067798370254493 -0.10184431839785751 -5.8294607189650665e-05 0.002812258273870833 3.154030657585874e-05 -3.373973075865124e-05 -0.026974237789995234 0.08178320211650073
0.212 0.27836084779819 -0.11358699567405975 0.0001940698261586508 0.0026481660717008657 -3.5030196643590105e-05 -0.00010115225078329231 -0.0221463077466689 0.08337833500338229
0.213 0.27389014930055494 -0.1246442030927353 0.0005267858667040181 0.002797552337266559 3.494928639345126e-05 -4.725145868344762e-05 -0.017357248381035507 0.08504645927622657
0.214 0.2694974591537522 -0.1363625053623823 0.0006485028331916853 0.0028002628818039896 -3.359250952932019e-05 0.00011429289046279489 -0.012420609651113605 0.08632646504304738
0.215 0.26509167901568037 -0.1476167924141758 0.000770710160904363 0.0025914898036333645 8.92106324252024e-06 -2.654791317455813e-05 -0.0077474969823903474 0.08738764631411335
0.216 0.25993273231247777 -0.15951864952975373 0.0010023082087566697 0.00271061342075434 -0.00011164436408925789 -5.302756683848763e-05 -0.0026352816528822597 0.08802284687821955
0.217 0.2542217440904243 -0.17034228489105757 0.0012103596983722253 0.0025772515859027703 4.4177806324049895e-05 -3.667610388905018e-05 0.0022808107532870416 0.08825025548520589
0.218 0.24948337778643886 -0.1820150052669945 0.0013071276740087225 0.0025673293707121243 -2.943016344655812e-05 0.00010130444286175827 0.0074485375560845715 0.08854299760511856
0.219 0.24229927760486988 -0.19319248223456986 0.001333980722726691 0.0025216956704591613 -5.2049982681011815e-05 -1.0213274695910184e-05 0.012777464162908632 0.08842177065310321
0.22 0.23483271647903756 -0.20290340901761514 0.0015625213530293574 0.0023495588864025827 1.1894399514043518e-05 -4.0407599921585894e-05 0.017884914940979085 0.08803003834366664
0.221 0.22676664874592087 -0.21254982293969021 0.0016429565473854203 0.0022714155279469064 -3.975039816958685e-05 -1.373567987099459e-05 0.02286610549551526 0.08716525214897414
0.222 0.2193726717413877 -0.22253616421317218 0.0017859151462404977 0.0021890473944407756 0.0001179772612409189 -4.1303311021389884e-05 0.02794592904619387 0.08598877772208292
0.223 0.21192487999971177 -0.23284818121668527 0.002081370254358426 0.002178237670440664 0.00012638404941024922 -4.685081934045729e-05 0.03316555660093826 0.08492493952276557
0.224 0.20287981225169782 -0.24186645360063963 0.0020983767689407764 0.0019391889878499979 -2.1024301534200492e-05 2.9969246374854384e-05 0.037731161439171775 0.08351667388154724
0.225 0.19200360811111492 -0.2502416358469559 0.002268296079537139 0.0018850835000978024 3.036103240493312e-05 8.470771891480699e-05 0.04310824783220906 0.08117492816510218
0.226 0.18358207996560708 -0.2586760020879639 0.0024330621543032912 0.0016894728710607002 -3.441875650347851e-05 2.54177362073946e-05 0.047930393989449586 0.07892010449587636
0.227 0.17443753826884575 -0.26901159689886184 0.0025007586913305254 0.0016776203016187934 7.022350848640486e-05 -6.492726274863913e-05 0.05315317923888417 0.07646961475941991
0.228 0.16244999610442223 -0.2739883021529459 0.0026280496447523634 0.001378911353859913 -8.055944304087684e-05 2.3970368976090576e-05 0.057445291126892783 0.07361968581703104
0.229 0.15199808908131057 -0.2799911754134249 0.002578050534683011 0.0011788676499729206 8.023047895698794e-05 1.991077194705678e-05 0.061618566922618356 0.07041247022101173
0.23 0.14112696084268936 -0.2887533355003805 0.0027409650028885793 0.0009529966284168267 -5.682519037861947e-06 7.188993277322955e-05 0.06567812376083562 0.06718181293820065
0.231 0.13077004227400757 -0.2949582068347068 0.0027666797835363566 0.000962888828478639 -7.309532808484357e-05 -2.4823636234930425e-05 0.06986121431231104 0.06332718985021582
0.232 0.1186966264226677 -0.2984609709082855 0.0027645450768231596 0.0006860012234258904 -6.445059910706117e-05 -4.4269796015253725e-05 0.07366666547446776 0.05950870364709519
0.233 0.10865131062245213 -0.3065561263252411 0.002953249239777069 0.0006265225737423532 0.00016164147038952574 -5.51465563712005e-05 0.07774958636582707 0.05487647163080716
0.234 0.09614155547844776 -0.3071108935266971 0.0029920041563106666 0.00041410418398507847 -3.970528211708165e-05 2.3337179905283444e-05 0.080747345078292 0.05139917565484387
0.235 0.08432538887117064 -0.31342418595962135 0.003052740894839625 0.0003887013771427937 6.382223376489777e-05 5.149876904914297e-05 0.08395029056535099 0.04601390045702853
0.236 0.07141412895355996 -0.3192430716543845 0.003075326603133126 0.00024583119090802806 4.02649254172447e-05 -1.6378357884637115e-05 0.08634093569470518 0.041424837884953596
0.237 0.05886404999721225 -0.32213488757495423 0.0029058083521696955 3.015854627307998e-05 4.6882722030877215e-05 -7.299121713913296e-05 0.08893657160687746 0.036356602176948444
0.238 0.0463616733982677 -0.32632823791314514 0.0030660713257380733 -0.0003887658198191422 -5.9034206619092486e-05 -2.7606541419710547e-05 0.09137816464782181 0.031352571056163944
0.239 0.03359335611122398 -0.32603268276800235 0.003040652826755008 -0.000512774101551605 0.0001068919967276537 -3.0175181610543175e-05 0.09355925879730624 0.025678578616355505
0.24 0.02033047835556545 -0.3294514232073516 0.0029578776055707023 -0.0006114009175450155 -3.422426210266431e-05 -1.8970818262798806e-05 0.09520841812120055 0.02072870600619491
