!Created with skrf (http://scikit-rf.org).
# GHz S RI R 50.0 
!freq ReS11 ImS11 ReS21 ImS21 ReS12 ImS12 ReS22 ImS22
0.13 0.042685780206073436 0.18775181087554485 -0.00013044354956018495 -2.8154490802553308e-05 -1.1511161044132457e-05 6.423260061670826e-05 0.055288764847430324 -0.0075604666106280725
0.131 0.05181604010678008 0.1859071256367211 0.00010609300893397791 -9.156677955347596e-06 1.883633239621286e-05 3.9353008816450405e-05 0.05508985389583512 -0.010871692892723914
0.132 0.0611963230744085 0.18460984954978 -2.5185011741029996e-05 -0.00022239394522453442 -4.6522480123584884e-05 -2.0652364268905294e-05 0.05489273205803057 -0.014192732185739902
0.133 0.07003201797220854 0.1824396441978403 7.443311028146386e-05 -6.981430764099413e-05 8.130359409678638e-05 0.00012877084025506957 0.054343146055511334 -0.017366790514432004
0.134 0.08105758230371478 0.18079628194310382 -7.857324025519992e-06 -0.00015539941049243068 6.649332537955558e-05 -0.00013955303840644032 0.05353395829607362 -0.02078251119551131
0.135 0.09040855322050403 0.17614340441431692 -5.6135903406132126e-05 -1.83497358805583e-05 6.960918202226948e-06 -0.0001511536443481734 0.052716071854296755 -0.0240968384354411
0.136 0.09911448609685537 0.17355168108892505 4.289832371222049e-05 -5.2359050811343934e-05 9.542391040273705e-07 -1.4965298505536997e-05 0.051601610402385284 -0.027271443667118898
0.137 0.10852344100060167 0.16842819927154037 -3.841586144561986e-05 -3.45708319413568e-05 -8.0655663784341e-05 -4.315377908825772e-05 0.05033057721838886 -0.03024983526918747
0.138 0.11791100083293794 0.16608230166928475 6.452888704661936e-05 -5.5429395632374024e-05 -3.222207263977651e-05 -1.4026231518272477e-05 0.04866891784396092 -0.03346632227527444
0.139 0.12596337756153364 0.1605365733020692 -1.6161298583168623e-05 -5.700599625206029e-05 -8.914948788997993e-07 1.4960770498682315e-05 0.046967364226298255 -0.03649680065418598
0.14 0.13457440480150085 0.1551516348999365 4.1062732694700756e-05 -3.5003158848986695e-05 -5.378531362848713e-05 -9.075984044950885e-06 0.04519624276883369 -0.039339916354795494
0.141 0.1434095541870357 0.148575873646632 6.019662995130964e-06 4.8971017057690034e-05 2.2741032964224278e-05 1.792130080015028e-05 0.042999218740606325 -0.04213437119570523
0.142 0.15105709642051068 0.14195480603173782 6.499461510031281e-05 -7.793114146748997e-05 2.2653498913057614e-05 -5.921944030703864e-05 0.04078118206981526 -0.044979691168687386
0.143 0.15823061129806365 0.13511372622069476 -4.6101709027319276e-05 -3.4123199230712276e-05 3.64628971351829e-05 8.784866282418155e-06 0.03840416316893527 -0.047514542992715535
0.144 0.16618377228434764 0.1278596498282931 9.698402989849989e-06 -1.719790798230927e-05 -1.5492071821526547e-05 3.9125389530115475e-05 0.03599395051487343 -0.0497944153831886
0.145 0.17360904353024736 0.12112190436617752 1.6698830559996787e-05 -4.604563935920288e-05 -7.352580665188853e-05 1.3502801488183851e-05 0.032948865212199495 -0.05218924838612451
0.146 0.17906415985018664 0.11297253702874942 4.835693751047001e-06 9.615861411308795e-05 -6.754770762774496e-05 -6.849376154475942e-05 0.02999259673852637 -0.05458100895318063
0.147 0.18528109084961253 0.10441467585233011 -4.2261653661960694e-05 7.92738754540265e-05 -4.4583735852893914e-05 2.6204540277048027e-05 0.027174096236951256 -0.056524733443821445
0.148 0.1922384230139789 0.09603070998078 -5.88546687883581e-05 -3.648038667845489e-06 6.123253193248249e-05 -3.3113681495110228e-06 0.02400520567763516 -0.05835840680983578
0.149 0.19655780422279454 0.08758142428339767 3.896306689059941e-05 -4.301268711579346e-05 -5.318137260171322e-05 -2.3003304402730907e-05 0.02078761823918149 -0.05948750417486439
0.15 0.20190555257807757 0.07645582065966793 1.081640393483058e-05 4.02794799934781e-05 -3.588528470572997e-05 8.377711541601916e-05 0.01753755440355193 -0.061176461581383755
0.151 0.20690567262559822 0.06839934172825865 -0.0001074005373995895 -2.31809656560356e-05 3.2931847713802604e-05 -8.471504203364027e-07 0.014242723787115136 -0.062233789369729856
0.152 0.21076970493894387 0.058745739018909955 5.472109578531862e-06 -3.230750888540659e-05 6.897687935356193e-06 6.498773844326356e-05 0.010314957429962529 -0.06336344239095244
0.153 0.21456934529774652 0.04827344315667007 -2.92617427338729e-05 -7.86726046040213e-05 -4.0596579064481975e-05 0.00013609717491524766 0.0066512547990426165 -0.06420873122296417
0.154 0.2176002243937314 0.03879341231459563 -1.4411696264206309e-05 3.498547628258266e-07 -7.12842490627543e-05 2.2027822434716275e-05 0.003067933864450621 -0.06479251944555853
0.155 0.22086745597175528 0.028106496581443704 0.0001007289639304491 -1.8930474435650169e-06 6.056380311576626e-05 -4.999433429588664e-05 -0.00010216157433676374 -0.06515113450138135
0.156 0.22277447931616418 0.017259589335363142 8.430259001017634e-05 4.3784755790200165e-05 6.9841748505610585e-06 1.8568026255963484e-05 -0.004049492121162809 -0.06540362656919593
0.157 0.22440816925837445 0.007016130343967097 -7.243022739104745e-06 5.110692283144545e-05 0.0001347403693122484 -0.00012419543792459843 -0.007910260340198951 -0.0653071375495219
0.158 0.22626940332382903 -0.0039051830030531727 2.269404424403278e-05 -2.25582965594447e-05 -5.961624642322855e-05 -6.497073242562767e-05 -0.01168137329047865 -0.06520799313354644
0.159 0.22689264122483827 -0.014507258721495745 -3.7853332675863845e-05 -3.1048155648135194e-05 1.4884044458189627e-05 4.486970075412387e-05 -0.014836571908943746 -0.06484894741892186
0.16 0.22722033343130055 -0.02541880786308031 -5.465768611379857e-05 -1.3461572095606393e-05 9.760216508707257e-05 -3.2931229177776224e-05 -0.018834032237876937 -0.06387034907847426
0.161 0.22666368828476086 -0.036500221823349964 -4.79437602857111e-06 3.401279835961035e-05 -5.9851780703016984e-05 2.7463512803441276e-05 -0.022754763093884956 -0.0633636812394485
0.162 0.22602027355482116 -0.0480139081874372 8.103977018513461e-06 3.2192375254608927e-06 -3.6166356762221726e-05 -4.2412172429368747e-07 -0.026320508684647477 -0.06171456432807124
0.163 0.2247617353120336 -0.058515775740699716 5.925401363988156e-06 -5.766186595022497e-05 -5.125547689945662e-05 -0.00013038021144500526 -0.03003844914111394 -0.060849187545363156
0.164 0.22259346727848658 -0.06988741520461281 -9.253243934786502e-06 -3.359726890955911e-05 -7.487493933731305e-05 5.127993867833237e-05 -0.03330645426276097 -0.05948246550483807
0.165 0.2200864127768363 -0.08164194402038638 3.9972654182560644e-05 6.681424556135353e-05 -4.661158621591578e-05 9.464905053157989e-05 -0.037036065109784626 -0.057398226997921215
0.166 0.21788816626489005 -0.09255817341829436 -0.0001287780999374617 3.1753846202013495e-05 3.953528186693606e-05 4.078945497539261e-05 -0.04043569327990079 -0.05572683160359961
0.167 0.21558936332493675 -0.10375705886075207 1.6751790381200968e-05 3.33281693163894e-05 8.39849821545185e-06 4.997810506628387e-05 -0.04368528230575157 -0.05358731327175891
0.168 0.21026158009485643 -0.11370375974724835 -9.379768685899104e-05 -7.729936794760833e-05 3.531311563950383e-05 1.556257511606104e-05 -0.0471116763961726 -0.05118871739346535
0.169 0.2060781182096795 -0.12516664001756828 5.5523803999196494e-05 -8.910654944209052e-05 3.537719933589913e-05 7.016327286093705e-05 -0.05010454427150621 -0.048849648012693946
0.17 0.2006662945704892 -0.1361188303452275 -0.0001602757023310673 4.8237511244656966e-05 3.023592228460488e-05 -0.00010169275568394779 -0.052717464153794885 -0.04629559633905342
0.171 0.19501506444394703 -0.14602888844165976 -1.204708673192566e-05 8.81814368889652e-06 0.00012865525023119737 -1.0386889541950865e-05 -0.05586695548262318 -0.04326900454871958
0.172 0.1883988270774126 -0.1564724826852988 1.177657688570815e-05 -8.833484029002768e-05 -9.201027487656434e-05 -5.648756455577567e-05 -0.058200476955603465 -0.04045744720201774
0.173 0.18223077602057822 -0.16544743871784817 5.796084074107548e-05 3.3202996093693565e-07 7.504526541115837e-05 -0.0001199882827733513 -0.06083921155640905 -0.03728231679157953
0.174 0.17494275574668947 -0.17642799797507713 -3.464993686853988e-05 3.137906438567848e-05 -3.7542641134913e-05 -7.753653311361307e-05 -0.06275499645333323 -0.03400673573068183
0.175 0.16761561991621607 -0.1855064246527987 1.448146288542667e-05 -0.00010533269244761319 0.0001025563253965446 -4.729395083313057e-05 -0.06509858414475352 -0.030550709694471125
0.176 0.15899286112928368 -0.19393549139732574 -9.099086017995714e-05 3.625853404426931e-05 1.4725411951615382e-05 -8.552216840226332e-05 -0.06679621663494376 -0.02713586339113953
0.177 0.15010833199246376 -0.20246977117749015 0.00010907437471617948 -2.2976644507584856e-05 -4.408338251908584e-05 -3.5124429161163846e-05 -0.068938979286941 -0.02338066553991633
0.178 0.14073916363858163 -0.21081767772086202 -8.710809989813463e-05 2.6320223622148463e-05 -9.109463854538525e-05 6.721445844073936e-05 -0.07013399154356643 -0.019717903451221087
0.179 0.13064942424620574 -0.21821149185916974 -3.0237209676081316e-05 2.108641515716022e-05 0.00011754662426748666 -7.048741824531627e-05 -0.07149763543416808 -0.01581996257136901
0.18 0.12141398971350645 -0.22748523862638956 -2.9645284089378163e-05 -2.4511230871925663e-06 5.663395286246746e-05 -4.358265333185062e-05 -0.07276847139253788 -0.011800176598261462
0.181 0.11034933517911076 -0.23327291740831954 -3.4861712300037496e-06 8.950674003471141e-05 1.855304981513332e-05 -0.00011470854895211971 -0.07372672972519301 -0.007840479184948393
0.182 0.09821349156785533 -0.24025268321483073 4.745866121785417e-06 6.760410390341206e-05 -0.00010773651857168138 9.896583109186376e-05 -0.07422260296853941 -0.0036869036084819146
0.183 0.08957160960804979 -0.24604378052319476 -5.183829015431752e-05 2.1513539972264078e-05 -2.638445531265984e-05 -2.6907666302795065e-05 -0.07502651098690664 0.0003785188895366335
0.184 0.07721503624105336 -0.25072375552899506 -4.385554819935057e-05 7.832224086009294e-05 -3.8448059860811e-05 8.311693805521659e-05 -0.07522784093131368 0.0043849535932021285
0.185 0.06477440403089119 -0.25578062338771346 8.984600811985972e-05 8.700034817793989e-05 -4.9091549968750453e-05 3.166198288309055e-05 -0.07514862157692695 0.008655535409885205
0.186 0.05185649349740947 -0.2621007491585896 -2.9906353395326296e-05 -5.3146369416826294e-05 4.835647873917736e-05 -0.00020919462753238083 -0.07505064965100469 0.01304360716275407
0.187 0.03979116145879626 -0.26403200421361867 -6.74003623491368e-06 5.263699231964584e-05 2.367877344528212e-06 -2.2079851027210057e-05 -0.07454586915198118 0.017146043735399165
0.188 0.026029756077698266 -0.2667076562741614 2.666539441794843e-05 1.788569813393356e-05 -4.828796700182516e-06 -2.12157854477667e-06 -0.07377903103595387 0.021319201104150497
0.189 0.014138873525817157 -0.2690837520138563 -2.833435582963058e-05 2.7874488040975828e-05 0.00012845244097852467 5.661714407154187e-05 -0.07289287299598755 0.025477635594999683
0.19 5.578594236710129e-05 -0.27275084878721656 8.394408807126847e-05 -3.6345217401660014e-05 -4.607950972845851e-05 1.830379299376447e-05 -0.07166566176640059 0.02955903387884172
0.191 -0.012566632727565127 -0.271269748884604 1.1671832438640032e-05 4.196503222209324e-05 -5.5031111098919564e-06 -5.6386308882590605e-05 -0.07043760323851596 0.03364418361180862
0.192 -0.0255749129256445 -0.26906620781836355 -3.764359952807967e-05 4.668087099713105e-05 2.718112610939381e-05 -2.616983439715445e-05 -0.06841243882507533 0.037520214131297504
0.193 -0.03991591463677973 -0.27215864752334046 9.309387798059117e-06 8.410258034264535e-05 2.9554666364588697e-05 -4.0538852080765616e-05 -0.0666281574134178 0.041671800290627004
0.194 -0.05223258183797525 -0.27048509689780137 -4.738349884171301e-05 1.1670021750861715e-05 -4.74317052486746e-05 -5.915812758492296e-06 -0.06464669901893709 0.04535812406776146
0.195 -0.06738049828485904 -0.26860951144815587 3.9699319626917294e-05 1.214839927831336e-05 8.761318336094672e-05 -7.521855068319802e-06 -0.06253625710934217 0.04935493938850235
0.196 -0.07945898705106075 -0.2661157023720825 1.544324673313352e-05 5.355371240661814e-05 2.1849318268475157e-05 3.267087667652898e-05 -0.059907652934621525 0.05256651056914358
0.197 -0.09319893751809222 -0.26255974181733976 -7.772621940130194e-05 5.82723632560895e-05 -9.836633615322076e-05 1.0569308668464074e-05 -0.05727072543956471 0.05611118057988939
0.198 -0.10545720104088481 -0.2572211322530549 7.475901864131028e-05 6.302614680354259e-05 1.552043115526999e-05 -3.9150216843605486e-05 -0.05413629043729375 0.05971382677845531
0.199 -0.11881681940191627 -0.2532690689477176 4.846591957879902e-05 9.88391301440603e-05 9.51883406799093e-06 7.362104139065304e-05 -0.051263439863094486 0.06288319237827017
0.2 -0.13126408554209434 -0.24846334307072343 -2.1110945964869567e-05 7.838085551044129e-05 -7.00607049108293e-05 1.5662429041434958e-05 -0.04766182917200123 0.06614937303610789
0.201 -0.1443924049731054 -0.24142645233437793 -2.3034384532595385e-05 -5.6811276868085494e-05 -4.139326479635193e-05 -7.970136591874019e-05 -0.044207975475671936 0.06875990166999535
0.202 -0.1556420685339572 -0.23577766579371037 4.56299155728202e-06 6.763909589924584e-05 3.93413901363413e-05 -6.685094470210608e-05 -0.04084057016550047 0.07160341025991425
0.203 -0.16746541290498412 -0.22931069647496466 9.215802975719751e-05 1.7548830241156554e-05 1.8437882725880204e-05 9.26604796965064e-05 -0.03679390054493263 0.07402450099576251
0.204 -0.1792244263814061 -0.22212766130922773 0.00012350570947975578 -9.821338445772076e-05 -0.00016796309458555028 1.8551709878904126e-06 -0.03289562380015026 0.07626539334237659
0.205 -0.19092012725388874 -0.2136145955687488 2.1268633824694647e-05 5.0058310642137983e-05 5.449110021424755e-06 5.638968178077977e-05 -0.028828426841540092 0.0780118131066482
0.206 -0.20116736518062892 -0.20448618456985407 0.00013433933594092883 4.295440321783359e-05 -6.998402208566905e-05 1.4606481808421197e-05 -0.02432033510091313 0.07985969638280987
0.207 -0.21091475580902694 -0.19786739735083061 8.982859070718152e-06 -1.893584594790715e-05 -7.854384244413154e-05 3.408818072781848e-05 -0.02059128495279365 0.0818497945138158
0.208 -0.22053696712921733 -0.18530885320408805 9.383298735971008e-05 -5.3352374931398266e-05 8.595267121221995e-05 2.227576782336178e-05 -0.015646510868334428 0.08309245903586368
0.209 -0.23012861986993474 -0.177332895378127 3.827089210581079e-05 -4.3495814255365325e-05 6.796018851501476e-05 -2.3410935296016045e-05 -0.01078738704387289 0.08415410239652742
0.21 -0.2395535979552152 -0.165266599849316 1.6781994283688173e-05 7.958303610273486e-06 1.3148951798319022e-05 1.3568850779431046e-05 -0.00672175884631811 0.08533366383056197
0.211 -0.2473451778069751 -0.15399625091161231 6.349149810481144e-05 4.5154292843645555e-05 0.00014094063024534974 -9.921847228112302e-05 -0.0016599246891190688 0.08571925060744685
0.212 -0.2551184048723312 -0.14259911848483356 9.532332913119555e-05 5.4032195210399366e-05 2.120660869447605e-05 3.962602355268415e-05 0.003356495229276554 0.08617733498829985
0.213 -0.2617269443360179 -0.13089351568113 0.00010292232353532467 -7.001058143009332e-05 -2.8108651887513495e-05 3.113310991749212e-06 0.007609650127980591 0.0861667118905278
0.214 -0.2696828245893579 -0.1188828074437424 7.644335317758443e-05 1.582141781816064e-05 1.2659406854867784e-05 6.695298020132358e-05 0.012863516433937077 0.0859915885361528
0.215 -0.27510727443172384 -0.10741544478589792 1.3798837478314725e-05 -5.450434793659975e-05 -8.445678564870139e-05 7.690814186571288e-06 0.01757578258735299 0.08549232712803452
0.216 -0.28053680451382806 -0.09390883844808239 8.351377808709014e-06 3.029850729957087e-05 9.227354255823065e-05 -3.699401546126797e-05 0.02242148402874497 0.08495101841727472
0.217 -0.28551970017840644 -0.08065098319658145 -8.216295538434105e-05 -3.4414273691311354e-05 7.157057092337725e-05 -1.5225544726423023e-05 0.027989837920721815 0.08386176241167818
0.218 -0.29087516162022753 -0.0682827372543459 3.410176395951003e-05 -3.309382686382246e-05 2.6552535733583722e-05 -8.046775666726587e-05 0.03189922127223863 0.08251128347848247
0.219 -0.29532405422415753 -0.05440193082322839 0.00010528299350924007 1.3380012364995459e-05 -2.4199718892031383e-05 2.0082076783682204e-05 0.036583493918826246 0.081138473908307
0.22 -0.2977237774152275 -0.04180095136230783 3.258080545558944e-05 6.315901521568896e-05 -3.76128103629531e-05 -8.527650781301604e-05 0.041243961674120706 0.07885444585718206
0.221 -0.3004995700223355 -0.02769467406605604 7.194541163289451e-05 7.330209747306625e-05 3.8817039041071263e-05 5.538422338207443e-05 0.04622767900698759 0.07702496269659535
0.222 -0.30309188590127084 -0.013109060156809661 -1.6018532900689503e-05 -5.700564812443021e-05 -2.9693827997542978e-05 2.1374335266305677e-06 0.05055829147296131 0.07475220144470171
0.223 -0.3044875053251778 0.0009964365881003055 7.993367454200517e-05 -7.423428242941367e-05 -6.695939241109512e-06 -1.072062134624927e-05 0.05513330281983765 0.07224295755911002
0.224 -0.3049564907690297 0.015064917520931509 6.449540142431627e-05 -2.7812343409077885e-05 1.6348346444435494e-05 1.4996911305288312e-05 0.059410288126502044 0.06919669606294322
0.225 -0.30461212109944774 0.028785941945743732 4.7264047435495256e-05 8.960425850041165e-05 1.850893594730653e-05 -7.185749279983133e-06 0.06348286620508782 0.06626982864896826
0.226 -0.3045891362809514 0.04327318453108082 3.700778903522731e-05 -9.633005865826307e-05 6.919657576328853e-05 -1.0615454433717726e-06 0.06715835426611015 0.0629221541974891
0.227 -0.3035320764473073 0.05741299501268957 3.757364515329066e-06 -1.1968029930078987e-05 -2.8094254665474854e-05 -2.7600618076782253e-05 0.07078584637666284 0.05918697432874407
0.228 -0.30216865627031464 0.07071654994125634 6.710383936928967e-06 -5.2633269853651234e-05 2.0408234105471267e-05 -2.946550645889087e-05 0.074123713093245 0.055955327128038496
0.229 -0.29958716946306563 0.08462463274926223 1.1875007636086503e-05 -6.129238380580167e-05 7.397991238803436e-05 -2.8978447492384774e-05 0.07784855036237467 0.051237286994778634
0.23 -0.29682584655891475 0.099181543933762 -1.4970308846921891e-05 -0.00012790271905852518 4.7258805647700815e-05 -3.2603568424780294e-05 0.08069682514930435 0.047040724537134114
0.231 -0.2928703429118592 0.1123765756335495 3.688138824476719e-05 7.638316641028947e-05 0.00015479936444769463 4.430378201643575e-05 0.08341077206701855 0.04285689100236805
0.232 -0.28783441145339966 0.12566764193487506 -7.442085040302787e-07 7.276974060879774e-05 -2.5285329250861207e-06 -0.0001931546536908394 0.08624948039312769 0.03844302558381447
0.233 -0.285273320095295 0.1406328783837111 0.00019326587683764045 9.592323405871548e-05 8.103056454190619e-05 -1.051932815592189e-05 0.0882563492672048 0.03356985964344023
0.234 -0.2780607276617531 0.15181027280321951 0.00015426237065264156 -0.0001707863974208327 3.0327334190493e-05 -5.570647020915253e-05 0.09053393234107983 0.028384155328415428
0.235 -0.27219473916131326 0.1681826866133145 0.00010452219475775051 -0.00016771541048443627 -5.963142017112133e-05 8.10601356565553e-05 0.09282742449918407 0.023611376662045568
0.236 -0.2661023768478726 0.18102338846932384 2.382678768775619e-05 -0.00018012827732637567 -1.2335813562200602e-05 -2.8381010989635944e-05 0.09396482939003466 0.018809837775840613
0.237 -0.25825679827251924 0.1934535283438416 -1.9222479112859822e-05 3.293036780379454e-05 5.719101499716185e-05 7.709667753940163e-05 0.09506350645495591 0.013326434309387847
0.238 -0.25011288581689656 0.20531942035734768 1.9240571304614335e-06 0.00010298630507722155 8.338658938364346e-05 -3.259263746712237e-05 0.09641677067098539 0.00823049077872146
0.239 -0.24195677334678545 0.21613256236032316 0.0001168370675162764 3.5883821429487866e-06 5.310678547004188e-05 -7.319269539611574e-06 0.09635323538682451 0.002917659751165345
0.24 -0.2328680469270915 0.23027879394434259 3.510381634789907e-05 -0.00010470070486955146 -2.8549090675928507e-05 -0.0001500374447423855 0.09692078417400901 -0.0022421860123823427
