!Created with skrf (http://scikit-rf.org).
# GHz S RI R 50.0 
!freq ReS11 ImS11 ReS21 ImS21 ReS12 ImS12 ReS22 ImS22
0.13 0.0683968522073435 0.17927500051112955 -5.67985011128316e-05 1.1450974846732664e-05 0.000154572399673062 -5.483185401870715e-05 0.03832779914487108 0.039414416040876296
0.131 0.07826605044382462 0.17672796827304274 3.354882713684713e-05 -4.4445096816839585e-05 -2.106394945716139e-05 1.762586414687199e-05 0.040794040681788865 0.03733227333395113
0.132 0.08762322731645 0.1732384696856199 -0.0001085948248451915 2.127777982217245e-05 -6.33911600515251e-05 -6.2522119077743195e-06 0.04288345621694167 0.03555218437352993
0.133 0.0973700750345591 0.1703218648553039 8.552173672305443e-06 -5.653818499608989e-05 -2.739862509147484e-05 4.269823214757183e-05 0.045127158475779194 0.033197533243707916
0.134 0.10568315218540125 0.1671817862483252 -3.704485775121294e-05 8.672918033637375e-05 -6.337972477023544e-05 -7.359636829447653e-05 0.0471029346925982 0.031373403307830464
0.135 0.1150944592530563 0.1613913898428837 3.5856742308494624e-05 -3.7505040419699876e-05 -6.706316413470634e-06 2.2950075864212338e-05 0.04922574321320769 0.029082134335076906
0.136 0.12248796919175425 0.15738477951310215 7.564796762153814e-05 2.986706167202657e-05 7.01985150429975e-05 -9.457039047145757e-06 0.05057567677333981 0.026579440728298535
0.137 0.131863129313255 0.1518374669859141 -3.396483677135339e-05 -1.1612208106789683e-05 0.00015493046922812086 -3.253454328188586e-06 0.05252748486956364 0.023690990646500112
0.138 0.1390112852187327 0.14470860838334437 0.00011633709300920823 4.2264661570965044e-05 -5.642555363110944e-05 -4.024795625732108e-05 0.054131074518520284 0.021109925985991262
0.139 0.14768587166212716 0.13968056790415942 7.537271769235953e-05 -4.72948232454144e-05 3.5208855216166655e-05 -6.9754076893118026e-06 0.05543456684196624 0.01871324186792108
0.14 0.15626385997859363 0.13369242358863065 -2.741941147350185e-06 -1.3794498978270238e-05 0.00020399353105437975 5.6099039026241785e-05 0.05691014980795691 0.015374893870464592
0.141 0.16249063190598448 0.12568969838794486 -1.6181254954317552e-05 -5.76984258054168e-06 7.825956490537179e-05 4.7933674191470226e-05 0.05817984557959012 0.012972047218475228
0.142 0.16907217513314982 0.11858327067829412 6.538688301734628e-05 9.56600509872265e-06 0.00010493254660032066 -2.7692424241566168e-05 0.05933208631327348 0.00986330376493135
0.143 0.17642481795854537 0.1110217024968064 6.552488936774619e-06 6.246566496778578e-05 -6.31054342842072e-06 0.00011779986093833939 0.06003730065948944 0.006324400588630127
0.144 0.18124621875719676 0.10307090157435177 0.00010218331808282479 -8.458503613411614e-05 3.5120783427266517e-05 -1.9034844946139368e-06 0.06072068442276681 0.0035010547567269883
0.145 0.188153620674415 0.09447556024890336 3.155845469195668e-05 -2.3330392572695165e-05 -4.9049592490081e-05 9.305427105890956e-06 0.061176709056767364 0.0004281697681781736
0.146 0.19350593077859052 0.08546765673858686 0.00010680588072563171 -8.315897444490684e-05 2.8375155843420585e-05 3.1384475855645845e-05 0.061529677812316774 -0.002814381318798211
0.147 0.19825434146620763 0.07677419576409449 6.559380589543724e-05 0.0001008850976897102 2.790499708231134e-05 -4.0688133296878344e-05 0.06152583027422134 -0.006263922231069582
0.148 0.20292499294687524 0.06707188984894324 3.8240564321665e-05 1.79916185549843e-05 0.0002165574141523284 -0.00010450039837898982 0.06192608323659932 -0.009979692506518721
0.149 0.20722578054451246 0.05847040602486609 -1.6804356564760977e-05 8.332617935711183e-06 2.8116055686308747e-05 1.3467885264873847e-06 0.061315781945040386 -0.012947350769060024
0.15 0.21048027819719564 0.047677737773646506 -1.8410801149969467e-06 4.907598018538482e-05 6.321765520915168e-05 3.707567486140864e-05 0.06110909978220595 -0.016204010481132722
0.151 0.21378489832971312 0.03785010531272328 -4.620551554947702e-05 3.82372629977142e-05 1.3669769624351622e-05 -5.1058044242061076e-05 0.06039965632627065 -0.019411287735251706
0.152 0.21676471294160926 0.027890441174846018 7.934670329505319e-05 -3.445591128426595e-05 0.00011974071637672758 6.848078567751329e-05 0.059722085705947225 -0.022886628127421302
0.153 0.21847108482409625 0.017484449658625407 -6.125945488174359e-05 -5.154529097767363e-05 6.125534008526826e-05 -0.00010295298277197988 0.05880571667612038 -0.026206015218768718
0.154 0.22060395033808688 0.006865435210821953 6.54616493167429e-06 2.063905576147367e-05 1.2843204564568878e-05 -7.228972924631004e-05 0.05761946336012697 -0.029398179357170928
0.155 0.22195021225951234 -0.0034634725286126536 -7.167382574073098e-05 -1.0848860558542743e-06 -6.311560964195116e-05 4.096328950269659e-05 0.056298899770675065 -0.03240829850802692
0.156 0.22266895205779225 -0.014907544604467067 4.8544407954150355e-05 4.57221968693999e-05 -6.932148064543814e-06 1.5836443413949952e-05 0.054858189351939576 -0.03571578796410524
0.157 0.22332690169913716 -0.025358133604637043 1.064909746303234e-06 -7.003853817285868e-05 -0.00013358948462928485 9.671025157093025e-06 0.053158215919595256 -0.03884363401858974
0.158 0.22291299007131846 -0.035845566544563445 -6.510654799090765e-05 4.00440262554489e-05 6.668569477398861e-06 -4.414678634217704e-05 0.05158620583460633 -0.04168350250646052
0.159 0.22201150657315136 -0.04687369570181872 1.4769758375448903e-05 1.3078851378434014e-05 9.132966354637742e-05 -2.5364002785449625e-05 0.0494185195356953 -0.04455157158077248
0.16 0.21970573946511568 -0.05788574086023106 -6.717710947357461e-05 -8.573933481195378e-06 2.7001320846074215e-07 4.213216806515458e-05 0.04723542053630806 -0.0473676404089897
0.161 0.2190197099430569 -0.06919621538254504 -0.00011777845981010492 -9.022159528007429e-05 2.1162229149656615e-05 -5.208958059636654e-06 0.04498495507306233 -0.049926617648200805
0.162 0.2173880030675929 -0.07909758699977167 4.427373343709536e-05 -4.4964278169836414e-05 4.286230647869518e-05 5.9253618217578465e-05 0.04235149972663566 -0.0526989170680188
0.163 0.21340901453561215 -0.09049661766288707 -3.656446060396647e-05 -6.719034324887623e-05 -0.00010593369516726417 -3.531647274499282e-05 0.0398054198692398 -0.05485034688870137
0.164 0.21011534351276193 -0.1011799139632481 2.8362301150373472e-05 -1.6339551038396574e-05 -1.4349267397405775e-05 -2.4424911559656417e-05 0.03693530274056204 -0.05726348770765283
0.165 0.20686300282737907 -0.11188868686462124 1.485735048020166e-05 3.3747171953606844e-05 -2.7917629710781316e-05 7.586512671941866e-05 0.03416821807814611 -0.05968277093606531
0.166 0.20346696837272002 -0.12261428664900113 -0.00010281386196709505 0.00015448667440808259 0.0001398248524269594 -5.094876901888678e-05 0.030712751519492203 -0.06157922093154864
0.167 0.19685281310337427 -0.1328374874217579 -3.1123909404316764e-05 9.348531000703346e-05 -4.978591543876786e-05 -5.213497591503438e-05 0.027884761803476252 -0.0634315890465824
0.168 0.19234715419365153 -0.14227867861912397 -0.00010500107181399973 -0.00010437299282443113 -1.7005280807363785e-07 -1.7564851922301106e-05 0.024686541628306274 -0.06511880927570618
0.169 0.18605200323956966 -0.15433054628234813 1.7766570108272384e-05 -9.210491896238322e-05 1.3936092024669504e-05 -1.9417021714691898e-05 0.02145063249007697 -0.06663603913124044
0.17 0.17984777045554212 -0.1627144106951112 -5.971941497793272e-05 -2.4687253434920794e-06 -2.0448573057909077e-05 6.002436037546154e-05 0.017967006561972164 -0.06809260886395185
0.171 0.17251251878623355 -0.17146891954692334 3.844775255210219e-06 -9.80264241440149e-05 2.852359686835469e-05 6.842621698928116e-05 0.014517340483072409 -0.06917951672882873
0.172 0.1643660650728745 -0.1812134022969521 2.7635201491595173e-05 -9.980784121455719e-05 -2.8040243442238626e-05 3.8777249513871734e-05 0.010818983668147963 -0.07006963964170641
0.173 0.1570803869266838 -0.18990656588419655 3.102674500181571e-05 -3.0185775899747328e-05 7.706591393965664e-05 -2.8825742320569396e-05 0.007396310570034331 -0.07102323331390847
0.174 0.14704525385229425 -0.19743642057769675 4.738392925062584e-06 -7.045371612965269e-05 4.930391463008478e-05 4.399283058846953e-06 0.00321211402655218 -0.07166343116021742
0.175 0.13892290041837918 -0.2060828756387998 1.1998408169868897e-05 2.0073959052508425e-05 6.375665561437245e-05 5.5740299236401776e-05 -0.00041831550739052445 -0.07218430427678789
0.176 0.12917309063505575 -0.21464850621906092 6.267495386109187e-06 -3.534741105557526e-05 -5.613223696514647e-05 9.440530550155242e-06 -0.004128931286892522 -0.07227748588505697
0.177 0.11957736168900455 -0.21923503576541553 4.442191959497059e-05 3.172699025157001e-05 -8.8805792933738e-06 -0.00011062050543416882 -0.008303339287096674 -0.07248203173983174
0.178 0.10867112175895831 -0.22964424749160284 9.441296220800384e-05 -2.7473481188372062e-05 7.097168341396409e-07 8.261643988297512e-05 -0.01162520719147805 -0.07206255955051971
0.179 0.09836521047261886 -0.23283649529992154 2.373016830374635e-05 0.0001242046646582961 -7.76799966086997e-05 -3.574677389085505e-05 -0.015553894190502742 -0.07177848799952845
0.18 0.08757462373789837 -0.24040529331226498 0.00010444844197919447 4.164387852895252e-05 0.00010470029002059487 -2.5122160692782734e-05 -0.019333074747767718 -0.0712573705646299
0.181 0.07697166991925364 -0.24400692983034744 -1.1658672678130435e-06 7.094654700488969e-06 -1.5487639112241526e-05 -0.00012599466776834503 -0.022737174469688332 -0.07017311997802594
0.182 0.06546984883307365 -0.250544167175513 -9.30322505198644e-06 -9.717318391818481e-05 5.108727188218925e-06 -0.0001387028150446442 -0.026507282299436802 -0.06936462162446826
0.183 0.05427944148416238 -0.25613739847829864 -5.4178680028816585e-05 -2.4387944881833463e-05 7.154730542357465e-06 2.8091530061661484e-05 -0.030499429575723606 -0.06837734204477965
0.184 0.041089923212507984 -0.25749963884553995 5.309993765521355e-05 -1.747562242600974e-05 -7.720817975166202e-05 -7.01694096958594e-05 -0.03397142915295123 -0.0669771882850916
0.185 0.02879945701611549 -0.2606666959522725 -4.7802133669780005e-05 6.629643969190321e-05 0.00014799736748734942 2.2043573841965562e-05 -0.03741352282844774 -0.06525339856009496
0.186 0.015112871899710275 -0.2645528127052164 4.4158799187823876e-05 5.255723909583022e-05 4.147917564470648e-05 -7.055509263632567e-05 -0.04145793110166211 -0.06316808766176105
0.187 0.0025193511730937316 -0.2658419443144803 -1.7407701753087946e-05 1.3915127091131058e-06 7.713460888750523e-05 -3.388042613555599e-05 -0.04522585723133867 -0.061874691149763114
0.188 -0.01059143736253971 -0.2667881347808777 8.326549341579144e-05 -3.398034955247833e-05 -4.912869924792193e-05 2.0174979852499873e-06 -0.04755702196684869 -0.059570320536719644
0.189 -0.023069165121242182 -0.2666124513279819 0.00010979787483065397 1.9757108269738167e-05 3.393223518502073e-05 -7.25096184552925e-05 -0.051228383263538714 -0.057019844103016845
0.19 -0.03655837630128087 -0.26685559406660575 -7.361403108692469e-05 5.3575795119205145e-05 6.988543055300514e-07 9.318551628821828e-05 -0.05432766446212284 -0.054684406904932543
0.191 -0.049955486982647096 -0.26669343452041294 -4.564565778027516e-05 7.291551231211729e-05 5.58469326203562e-05 -2.6953790979337995e-05 -0.057715532771637344 -0.05158382006598729
0.192 -0.06291966413339442 -0.2640611909663298 -1.340665938775636e-05 9.871172671755503e-05 -5.5798157330482243e-05 1.5564363942089182e-05 -0.06002284156112103 -0.04925947303448106
0.193 -0.07618680391107406 -0.26245040311732115 0.00011942577238127244 -1.6564226447671804e-05 -4.102536276125901e-05 8.133763319416123e-05 -0.06356219260056578 -0.046207125187770974
0.194 -0.08894177354483897 -0.2598585951292594 -1.7377075054220217e-05 1.341383362828707e-06 -5.639147729080488e-05 -1.6846200206170264e-05 -0.06555535072331822 -0.04323605029745619
0.195 -0.10242154571645916 -0.2545508921550774 -0.00015050261148282963 -3.211903272621252e-05 7.6695264323423e-05 -5.1769656600456364e-05 -0.06799975637635541 -0.03960659977253322
0.196 -0.11515228752863346 -0.24973983695264276 -3.094157748540805e-05 -1.8862505995340344e-05 -9.982000557337788e-05 -8.072002809521867e-05 -0.06986928818919648 -0.03619021239356028
0.197 -0.12800843726198716 -0.2453299182738136 7.076285414160857e-05 -3.334002426986071e-05 -6.088865394096184e-07 -9.302968203983568e-05 -0.07216069334259176 -0.032956846555059115
0.198 -0.1395205249318467 -0.23976538105057446 1.7588088016858208e-05 -2.2313512108984712e-05 -8.46224202490292e-05 5.241382613398311e-05 -0.07400661091344396 -0.02922194311151441
0.199 -0.1504222396307787 -0.23561903412313082 -1.4733529849573819e-05 3.6055622207447274e-05 -4.2208326931700306e-05 -1.386081247775153e-05 -0.07585879969309825 -0.025543125549991438
0.2 -0.16368132074591343 -0.22766217525162838 7.817646500126749e-05 6.464088405452409e-05 -4.546370324032888e-05 -0.00011281438623256875 -0.07748189853485467 -0.021897783610630495
0.201 -0.17292932796927976 -0.22133944629505217 -1.9055401950782303e-05 1.4160609742058487e-06 5.891447807873575e-06 -4.925862639557432e-05 -0.07843359831797321 -0.017770197346374687
0.202 -0.18519225406672235 -0.21274620608577338 4.6043541124896085e-05 -6.630872817197601e-05 -3.507305988537588e-05 3.904053239134315e-06 -0.07989335724554529 -0.01378427323089382
0.203 -0.19564195948630073 -0.2044260514877988 4.670778283492723e-05 3.826019783000299e-05 -7.538051880096107e-06 -4.0303538412794245e-05 -0.08096128975911207 -0.009593594322038141
0.204 -0.20515743727188518 -0.1970398455171579 -4.2719768657897364e-05 0.0001364297643874863 -0.00011319857306520211 -2.9390441850186845e-05 -0.08144685726572423 -0.005360616062687351
0.205 -0.2167437212963859 -0.18506552000399584 -0.00010966818087910353 -8.179998456462223e-05 3.5309433225829624e-05 8.256803962107959e-06 -0.08189289040642882 -0.001429445719203616
0.206 -0.22441822288361568 -0.17656999965142658 -2.7146931129041587e-05 -4.009349448881179e-05 3.5106098197679486e-05 -7.570258040373437e-05 -0.08263725854963824 0.0031904017210047523
0.207 -0.23429920641660362 -0.167123999750733 2.446929064882087e-05 4.7040300279430156e-05 5.573999721029414e-05 -2.9044184075139973e-05 -0.08260619817376008 0.007295210095791613
0.208 -0.24299755675237536 -0.15700483980469845 0.00010912548980968765 -0.0002192273368934811 2.7996183254820363e-05 -7.403445251143888e-06 -0.08226665232075067 0.011653349549893837
0.209 -0.2486084207711809 -0.14498414582909644 -0.00016131421946991739 -2.923851301853836e-05 3.432501719215219e-05 -3.580747743028446e-05 -0.08194094879342186 0.015719093910792462
0.21 -0.25672338479547196 -0.13315271252035754 -1.7424266403214773e-05 9.232572599500373e-05 6.677817419675779e-06 -1.4204153112433471e-05 -0.08121839818243604 0.019920972064568592
0.211 -0.2639153398745025 -0.1220158846048596 7.864569788427336e-05 1.2592979377181749e-06 -1.4107271049741764e-05 -6.9688971197965935e-06 -0.08080055613371472 0.02443841091948285
0.212 -0.27039804072553286 -0.11096723921128746 -5.507212367835196e-05 -3.810486814480624e-05 -5.654874283739021e-05 -6.28554291909468e-05 -0.07971883754288002 0.02832782332428887
0.213 -0.2750967853499572 -0.09729025630767214 3.190979404694409e-05 -3.760750193059382e-05 5.593981997671545e-05 -4.593415935160933e-05 -0.07839007959172961 0.03282142668169296
0.214 -0.28154423857118516 -0.08490269348828106 3.0862243395441995e-05 1.1219834175297262e-05 -6.453414117580758e-06 5.801186614210439e-05 -0.07687591988649581 0.036565049398529344
0.215 -0.28501841786979853 -0.0716412586772111 -0.0001466902089441002 -3.672272849399578e-05 5.8581678796030154e-05 0.00012545013184564122 -0.07545182482394892 0.040953678220901076
0.216 -0.28998751459420796 -0.05846350995932561 0.00010953946678381232 -9.133065372644306e-05 -7.056227454519987e-05 -1.0270340841594965e-05 -0.07340756220066284 0.04526003726046379
0.217 -0.2926348390006963 -0.04593986475431465 1.8573725921695096e-08 9.081139970615683e-05 -8.480108552344671e-05 -2.2871165392060868e-05 -0.07106924662343392 0.04925944032487687
0.218 -0.2957323673449793 -0.03238796171552663 8.31131106318851e-05 -5.4917705237861215e-05 -2.180123883967112e-05 -5.605047974712177e-05 -0.06902969179525195 0.05292349625490778
0.219 -0.2988137726621818 -0.019094308293135548 3.1795190899783336e-05 4.3920088604966925e-06 7.041911271439468e-05 1.2847295056534568e-05 -0.06645733703876869 0.05683833271433599
0.22 -0.3004709367136954 -0.005531624534528068 -5.1260083691927466e-05 -8.667067346023693e-05 6.86638023283786e-05 -9.440606524722755e-05 -0.0636846462986356 0.06050052122654462
0.221 -0.3012257973975425 0.008504430895626348 1.331807511696431e-05 1.2952675526908761e-05 4.808980330718904e-05 -5.3673474066350147e-05 -0.060598228933754036 0.06404933384545278
0.222 -0.30171011247725027 0.022545037678746327 -7.27175531945246e-05 4.8073682503510886e-05 6.328234998290375e-05 9.782599348381672e-06 -0.057695046075836406 0.06736600041973106
0.223 -0.30144170742241094 0.0365535254063203 -6.282696822251604e-05 2.5823278071172086e-05 -2.8108455476200744e-05 4.44629822613717e-07 -0.05442212410496494 0.0707743135728616
0.224 -0.3013146902126212 0.05046502333366034 -3.932573268803359e-05 1.0181768510671999e-05 -7.5082918189397555e-06 -3.146322097596245e-05 -0.05039399123017967 0.07374299707341801
0.225 -0.29881061481619625 0.06385491443515366 0.00015225464901461738 -6.11529288845065e-05 -4.772905934008645e-05 6.581600476376642e-05 -0.04695780301315803 0.07633581600282785
0.226 -0.29703399186841767 0.0769478589921043 7.793674657915849e-05 -9.590916084741115e-05 9.810162591149814e-05 -2.2454897818600774e-05 -0.04324638316724706 0.07959815644535696
0.227 -0.2945486728890013 0.09137173111198432 2.081220568137743e-05 -5.033243903996561e-05 1.0533025436029699e-06 6.490836305314295e-05 -0.03917870408674521 0.08205346445615101
0.228 -0.29140381436574825 0.10547772011568841 6.063877137055522e-06 -7.745392094692134e-05 -5.580411282897985e-05 3.07539205251985e-05 -0.035121539601948026 0.08391574350427074
0.229 -0.28734734584901434 0.11769414199558345 -1.8914897104104465e-05 2.2686005831735244e-05 2.1743345419931873e-05 3.651894138131704e-05 -0.030176534051648392 0.08641232282754695
0.23 -0.282536478714182 0.13151448869041601 7.93143395748286e-05 4.919718907014058e-05 1.557679261323111e-05 0.00011569553232573029 -0.026783548200893344 0.08775480411976606
0.231 -0.27924405785843187 0.144978321394411 -4.656425030980489e-05 9.483007889731575e-05 4.342461276951388e-05 8.384311246621393e-05 -0.0215635549129429 0.08971088634089647
0.232 -0.2716082723615742 0.15602402538852447 1.0917257806176562e-05 6.224923884300266e-06 2.1101965220090818e-05 -4.83116853738401e-07 -0.017137394286061577 0.09100995389188643
0.233 -0.2678296539393138 0.1722738222877508 2.256530513366925e-05 1.9195562428575197e-05 -6.142537537820654e-07 -3.3365496813233886e-05 -0.012178574125328988 0.09250545449959575
0.234 -0.2592732216466638 0.18175588917479804 3.2322775281701386e-05 -9.888088544836564e-06 4.0876447268076864e-05 -6.406192342550624e-05 -0.007097628226625059 0.09293768494899157
0.235 -0.252554169419636 0.19659699566226851 6.720435254403661e-05 -3.3473966313755083e-05 -9.209531869532952e-05 -3.1514440711679976e-05 -0.0024272530953254475 0.09416504162821489
0.236 -0.24443630951052206 0.20761815876257944 0.00011157059130069762 -2.8482127628322105e-05 2.6594515595586648e-05 -0.00013716638199314386 0.002182881801742537 0.09387721256831273
0.237 -0.2353069674719243 0.22032880223892246 -1.213256851504136e-05 1.0981456125576526e-06 9.558273227349876e-05 -0.00016133525805775762 0.007466878262897461 0.09438206741333031
0.238 -0.22649044279657843 0.22972524878431766 4.7484966058504034e-05 5.2654318492082494e-05 0.00011303262050190741 6.360535124078685e-05 0.012452517551318118 0.09418925842957375
0.239 -0.21794050523997252 0.24218023641691352 -3.844361061995686e-05 0.00019900637940558908 -7.639810052496747e-05 3.1803904356666505e-05 0.017028910787367423 0.09319111176129273
