!Created with skrf (http://scikit-rf.org).
# GHz S RI R 50.0 
!freq ReS11 ImS11 ReS21 ImS21 ReS12 ImS12 ReS22 ImS22
0.13 0.06518157529893137 0.18096362230673732 -9.180005823653182e-05 -0.00010467790426581838 -8.309763928873844e-05 -7.562546216740086e-05 0.0539310253743493 -0.014598657730276049
0.131 0.07435941063804707 0.17834905512334073 6.671260551639491e-05 0.00010835866540498448 1.7266487616164806e-05 -0.0002431110043798194 0.05335807658506784 -0.017627127524627955
0.132 0.08356451705564719 0.17421748049617275 9.700225729174796e-05 -3.755281583248522e-05 0.00012886449363305592 -1.4891434216096603e-05 0.052720805946571976 -0.021082440244129145
0.133 0.09332752123887601 0.17116367634856977 1.8961785345312328e-05 -9.877175336523568e-05 -1.8765118652979925e-05 -7.524092667817822e-05 0.05158113276046569 -0.024016295899629357
0.134 0.10199244366485807 0.16824641168232013 8.751301734333514e-05 -1.0559819949344978e-05 8.019917092724836e-05 -4.214596856263572e-05 0.050295900309853946 -0.027349528869455107
0.135 0.11157030825031121 0.16442861335997871 -7.137714793603281e-05 -0.00010467790474517196 -3.017458800712801e-05 7.666395832505722e-05 0.04915595620972981 -0.03030866611613616
0.136 0.1203529094456153 0.15863095377998152 -5.44036619337918e-05 -9.151531568466167e-05 -9.765813501148419e-05 -6.347674505414582e-05 0.0476551345711454 -0.03340481190874794
0.137 0.12820929981811768 0.1542511620977615 3.621795031768048e-05 2.4225070216186987e-05 2.0133163516054113e-05 -0.00019193186880137454 0.04587803268387412 -0.036413945195739615
0.138 0.13613250972462113 0.14815648003120843 -6.38006578264982e-05 -3.7289096616426524e-05 1.8673265147879342e-05 -2.1257669894281e-05 0.04415555197137568 -0.039275329221172384
0.139 0.14513702016231203 0.14352324589262783 2.1309728506756614e-05 0.0001007949108613213 -7.97353654376445e-05 7.850546613569755e-05 0.0417796308351047 -0.04223500009268831
0.14 0.15252363533355784 0.13545215552348466 -1.3637759679038407e-05 -1.5857982442124575e-05 -7.394982405142102e-05 -0.0001011003508206391 0.039705313560004105 -0.04463590061721496
0.141 0.1602298099039081 0.12891262963173486 1.5715124662257612e-06 0.0001092365597343109 2.8236743785448717e-05 -3.177369157535502e-05 0.03745607177835432 -0.04721083754509655
0.142 0.16695047361597806 0.1238453762871295 1.2067763302166012e-05 3.559831874962145e-05 -9.413195343249052e-05 7.684484320391347e-05 0.03494761615452953 -0.049557182769959136
0.143 0.17362501993102183 0.11471572806246783 -6.787036714912359e-05 3.0997391684552415e-05 5.282632541117808e-05 -6.247435490539656e-05 0.031931766141173344 -0.051845718180147
0.144 0.17898785505893344 0.10682556771289452 -1.8444424797561908e-05 -9.386296914900293e-05 0.00014236774671650603 -5.572725857487533e-05 0.02911962454502823 -0.05392062181999742
0.145 0.18609656539840325 0.09794254079674504 -4.4432263970320894e-05 -9.899620970120189e-05 1.8776258120276185e-05 -2.1231447758647034e-05 0.026085252334747146 -0.056039721664274934
0.146 0.191883399024764 0.08986321709889654 -8.029386982175679e-05 -3.246630311035121e-05 1.5064240538133308e-05 1.715386825902638e-05 0.022871663094836143 -0.05759049437768657
0.147 0.19717068004053595 0.0807117360163138 1.7747333008402478e-05 7.687214475878221e-05 1.7482473115252202e-05 -3.5726849204511516e-05 0.019695143338701433 -0.059211176308611
0.148 0.2012140651360364 0.0709026061613001 -4.4166407287020635e-05 -9.929045127100672e-05 -0.00013308175978163757 -1.459318723899261e-05 0.015875882493661012 -0.060737904267043556
0.149 0.20582830813720596 0.061503741682266 0.00017153750842549044 0.00010076783523239096 -4.822729609399061e-05 -4.2997272425342974e-05 0.013118261972777937 -0.06177869938647642
0.15 0.20992743235921507 0.05135564304773967 -2.3420583502993678e-05 -1.655203195475654e-05 0.00011028822790094146 -8.545120823646012e-06 0.009600571589235605 -0.06288912131588355
0.151 0.21276770005779896 0.04156299823524223 7.031249772890315e-05 -1.4021535236144248e-05 -4.6544142862634835e-05 -6.793945092934461e-06 0.005953894145704397 -0.06337296867873225
0.152 0.21615151682702624 0.03156996992929162 -1.3807284724798268e-05 8.45618627920542e-05 8.731831202646954e-05 -7.322312447726911e-05 0.0026708759025452157 -0.06387087742293553
0.153 0.218533688538021 0.021269859542816984 0.00011955181432210349 -0.00011011266950878328 4.07635763851453e-05 -2.1270534822706536e-05 -0.001624340379924752 -0.06437923078368984
0.154 0.2202867689090916 0.01093820164182906 4.696688472417852e-05 -3.106598521128721e-05 -6.786648332294069e-05 -5.1504713912748634e-05 -0.004810616788948713 -0.06467500480693901
0.155 0.22178538899909517 0.0007016948006657385 -2.065450121037123e-05 -9.23024194342313e-05 -2.1079260090527687e-05 1.4466224491596662e-05 -0.00849334287956755 -0.06468372336118362
0.156 0.2231254799614087 -0.009852368537801798 -7.196140614421311e-06 4.266287511646839e-05 5.3631134230500225e-05 -1.1566472887632612e-05 -0.01230083179851044 -0.06419309042282553
0.157 0.22320263929973574 -0.020769387756216555 5.3979119341450614e-05 0.00011003504430942843 8.694371269788092e-05 1.4153598059716359e-05 -0.016419638783523538 -0.06390324263039836
0.158 0.22344707255537297 -0.031101535870274827 -3.3707950480866804e-05 7.548757855125433e-05 -2.609547424640552e-05 1.6079559583509128e-05 -0.019840469497598934 -0.06318117315879528
0.159 0.22289650980301143 -0.04250718390527971 -3.9429735903869626e-05 -3.0771267917511975e-05 0.0001819795980523495 -8.887617565386645e-06 -0.023169577431521805 -0.062021406111884225
0.16 0.222030107843401 -0.053112632706068384 5.554150638519733e-05 4.4216816307920854e-05 7.959544482429204e-05 -0.00014653700624169693 -0.026936505827052776 -0.06120654622040024
0.161 0.22028519787119663 -0.06429690824178438 -7.198901610178255e-05 6.822792617033079e-06 0.0001919432324917237 5.483885207652661e-05 -0.030369684484139896 -0.059855849774189965
0.162 0.21869521414376683 -0.07484445931244435 3.119529750054394e-05 -0.00010876294467678028 -3.509798374721495e-05 -0.0001288417508038849 -0.033704899190675076 -0.05800355764982172
0.163 0.21616926673923195 -0.086336766073899 -3.4626485496947566e-05 -6.219754480562405e-05 1.671349343224438e-05 -8.002478472376998e-05 -0.03743551203581391 -0.05632497842738717
0.164 0.2121919247099816 -0.09693301887983609 -9.871397208704522e-05 -0.00011754504750180116 3.8447622112877584e-05 -2.8261558249845675e-05 -0.04041990357171147 -0.0546555303754157
0.165 0.20925769867058772 -0.10786055280653306 4.902109353081046e-06 -9.60433471436182e-05 -5.834076973661387e-05 -2.4923946247951483e-05 -0.04401961915977801 -0.05250414181282653
0.166 0.20505230519641454 -0.11834972697634645 -0.00013062587197443828 6.360028951666374e-05 6.550529162227233e-05 6.711656790652214e-06 -0.04736174435631617 -0.05027828843402421
0.167 0.1996968481532967 -0.12835311213254605 1.094355627973726e-05 1.8155610424298e-05 6.154424172035618e-05 -2.0827133839435732e-05 -0.04987477834268151 -0.04743290303706928
0.168 0.1948699018519624 -0.13886909758396304 1.8715348571479162e-05 -1.5694260073070118e-05 -6.361764177509968e-05 0.00010980829806591925 -0.052946214918124124 -0.04479749853236792
0.169 0.1887208576574517 -0.1495489821363576 -6.294794125796785e-05 -1.4594043785992925e-06 1.4980672041381939e-05 -5.065328067368312e-06 -0.05592185023773311 -0.04222388240323768
0.17 0.18228405662841707 -0.15933193192429504 -1.9615830883175787e-05 -0.0001116921368639757 -1.1039943961433265e-05 -3.3349670618456385e-05 -0.058268688943587874 -0.03940685233296112
0.171 0.17619423165363596 -0.16936125730333804 -2.8001877924872057e-05 2.3607191492648174e-05 2.0112326057127454e-05 -2.2001394974666063e-05 -0.06041557075724597 -0.036110997131402985
0.172 0.16851953563864763 -0.17673600915264323 -1.3549814297182562e-05 -8.896214315517584e-05 0.00012966974392969387 -2.179016414382449e-05 -0.0628175975231231 -0.03307181279405756
0.173 0.16130551148140487 -0.18735919199113604 5.638540075462255e-05 -0.00010301838536620147 6.623952074899064e-05 -4.4860041872809826e-05 -0.06490084295488155 -0.029523597748117896
0.174 0.1525296743245463 -0.19610946580488386 9.560691849424117e-05 -0.00019358875798904587 7.54312552061036e-05 -8.471100890004151e-05 -0.06692180979794726 -0.025929968608406514
0.175 0.14401899304406462 -0.20453568605734923 5.661853551950163e-05 -4.8852950836463106e-05 -0.00012484550229441505 2.008781141536159e-05 -0.0686427923218154 -0.02232409274348957
0.176 0.13455783855777975 -0.21207396562716327 5.53634491390757e-07 -3.707740646602996e-05 -2.780187633773723e-05 8.318527586989453e-05 -0.06997544624608482 -0.01857612201575199
0.177 0.12553063149439156 -0.21852504999628602 2.4262774542660246e-05 -5.761766927520302e-05 0.00011172185670085976 -0.00016530607104472289 -0.07105361192989612 -0.014304741492112189
0.178 0.11459980115098385 -0.22592290416749797 2.9000778885778035e-05 5.782063432512208e-05 -8.716922811943647e-05 -0.00011122724815235433 -0.07218538200931802 -0.01114062262223642
0.179 0.1039296682243662 -0.23321586944161218 -7.891108855701028e-06 -0.00010314243928279888 5.097571804574443e-05 3.414641094577206e-05 -0.07276321316112457 -0.006736029749929717
0.18 0.09333905713698128 -0.23876717659700405 -1.2451000186841407e-05 -4.439109349835158e-05 0.00013709852482208555 4.029843936641024e-06 -0.07344794189721945 -0.002905838451344796
0.181 0.08218621720622829 -0.24479646963365176 0.0001172145361070203 -0.00014458658303679854 -9.3958461062187e-06 -0.00011516841696773781 -0.07403097903612368 0.0011205649486056245
0.182 0.07054865731727458 -0.25008140632984316 -7.6624547696269e-05 8.463266183390061e-07 5.666491199725255e-05 -4.118422650079112e-05 -0.07434040433880312 0.005116904331387933
0.183 0.05776613151886599 -0.2537620337397399 -5.048203171171682e-05 -4.8656898980603287e-05 4.916394164776863e-05 -0.0001059600409247476 -0.07426988583273436 0.009468905319302666
0.184 0.04716146753123578 -0.25749650851371286 -2.483433516779762e-05 -3.3966787879864804e-05 8.158664033090965e-06 -4.724899131913073e-05 -0.07397685479289484 0.013460545931334316
0.185 0.033521630073332226 -0.2619322959848957 -0.00010060516151820989 -2.3906653375474988e-05 7.674240083918359e-05 -2.5807160259736853e-05 -0.07344401682596069 0.017876139136388466
0.186 0.021053705436096883 -0.2647433955981103 -4.350457507618446e-05 1.9043427114923928e-05 6.013569540849173e-05 -7.312293978336764e-05 -0.072772947915422 0.021977944952084643
0.187 0.008311379932883082 -0.2660903206806083 1.2340687313165555e-05 -2.8583919790985825e-05 -2.712474742002312e-05 -5.763486274658537e-05 -0.07186480874567729 0.026101179206656833
0.188 -0.003507083261676653 -0.26790612301440414 8.746634784990328e-05 0.00012622916793305264 1.401350113920486e-06 -2.2809786958940197e-05 -0.07065907012469555 0.02995888994303149
0.189 -0.017624729801909725 -0.2672264242357659 7.668436189600128e-05 1.7246823526449095e-05 -5.318057532671968e-06 -2.0414055051861678e-05 -0.06923800242698765 0.03396852912013717
0.19 -0.030953573322978056 -0.2697140006890255 -0.00010813998012853273 4.44479314612118e-05 -6.458229356716968e-05 2.2316297461692967e-05 -0.06747779446285566 0.037813557362528165
0.191 -0.0437626555633108 -0.2675628689909489 4.539164189640069e-05 -1.1336720712614186e-05 -5.862036859677391e-06 5.379699095726049e-05 -0.06569793224324572 0.04204335426939315
0.192 -0.058414425164373264 -0.26667212507449867 6.395171544789518e-05 -2.710345145131017e-05 5.7516745289131885e-05 -4.489677850559594e-06 -0.063407279567852 0.04528017212557124
0.193 -0.07175658469006725 -0.26562488666828515 9.931313978088574e-05 -4.777992616841389e-05 -1.1262161278087234e-05 -9.23474753666669e-05 -0.06140654626281609 0.04935283369722975
0.194 -0.0833428962305925 -0.2614678068731831 -7.899865450617646e-05 3.1230440382745655e-05 -1.7126463634114304e-05 6.494295631407727e-05 -0.058690817191235596 0.052787514637824565
0.195 -0.09679454846283812 -0.25964400417427874 -4.268074731135785e-05 -9.346151661401558e-06 8.011221523989483e-05 1.7516355451724826e-05 -0.05620671765066587 0.05634483926076111
0.196 -0.10865502955098158 -0.2550078918481174 5.364414408282841e-05 9.084137752099073e-06 0.00020156528370904984 1.290208568457691e-05 -0.05303972278979329 0.059279393233933296
0.197 -0.12055707093418887 -0.2483809118698833 -3.880623632487204e-06 -4.2518830302091914e-05 -5.864833236733037e-05 8.096602283110965e-05 -0.049929875079697664 0.06254257604543297
0.198 -0.13495749630157244 -0.24464851161390375 6.773303659607813e-05 6.7119222040825795e-06 1.353196609120251e-05 3.2487232780667594e-05 -0.0465420500476345 0.06563686337318442
0.199 -0.1460296179118157 -0.23808001822348457 -0.00011479766835075055 -2.987246744437597e-05 -6.558388291891361e-05 5.225543771969189e-05 -0.043461805125910954 0.06845802088383093
0.2 -0.15830596283334047 -0.23185727703052 4.1504738097030666e-05 -2.649915327644822e-05 -0.00012388172494818742 -9.925907049044514e-05 -0.03945132029155584 0.07093237257157858
0.201 -0.16965193882362223 -0.22619274746542584 1.2791081615535033e-05 0.0001260797439941018 -2.339112998484035e-05 7.649636235529855e-06 -0.03566444863630133 0.07342764734098219
0.202 -0.1801916138899986 -0.21701776294959818 2.765386687019573e-07 6.43835983403974e-05 1.3509502323903055e-05 1.7735763313880103e-05 -0.03161603480300903 0.07583021282014035
0.203 -0.1918144454968888 -0.20909965686898774 2.4797540060549083e-05 1.5412483209384886e-05 -2.365021897673597e-06 -6.592130467128283e-05 -0.027625198917495153 0.07785929532783206
0.204 -0.20198336389062546 -0.20176315430360361 5.896124083118429e-05 5.972184734397155e-05 -0.00011598721148673112 -7.027461802975802e-05 -0.023787354874270132 0.07974543352415157
0.205 -0.21189083326683358 -0.19146855621384898 -9.492352537424427e-05 0.00017358359677117208 1.892753459337794e-05 -9.552950543777201e-05 -0.019181390962234365 0.0807690400691887
0.206 -0.22210635591170466 -0.18167060119463432 -0.0001230472443890441 -7.829542305604942e-05 2.4094847167377434e-05 -0.00013460847627704247 -0.014703361593861023 0.08230367417132568
0.207 -0.22959719927494868 -0.17281764549183007 -3.246778482164252e-05 1.837523349038368e-05 3.191686882334712e-05 -6.297967775515196e-05 -0.010471449533467375 0.08344819483410414
0.208 -0.2386206303547797 -0.16062048156099543 -8.234093866742637e-05 -2.151056383462189e-05 -2.4129926333308348e-05 3.789920109374556e-05 -0.005789850334630262 0.08411722929766384
0.209 -0.24779268582068634 -0.15161527254766646 3.4232472376986982e-06 -1.207801038601841e-05 -5.195120508066945e-05 1.0658145246788513e-05 -0.0009282596780861615 0.08509320368020379
0.21 -0.25452074102589023 -0.13913861316806156 2.702327246178114e-05 -3.2546076982324706e-05 -5.498136850490236e-05 -3.2048075074342272e-06 0.0040136261676051435 0.08513340734450552
0.211 -0.2615721350155763 -0.12713603973810111 -7.810589067265049e-05 6.665349568916501e-05 3.3435235078309704e-05 -4.19545328808846e-05 0.008695493357458128 0.08530472511345434
0.212 -0.26794376830885136 -0.1154641223777921 -3.444972242673405e-05 -3.472325188754627e-05 -5.340044699870169e-05 -4.0457452428534275e-05 0.01318523446238452 0.0853561824666691
0.213 -0.27426580621685775 -0.10450916524108696 1.1838657870665558e-07 -6.431330275097334e-05 7.249160636345637e-05 -4.8084272651878826e-05 0.01738412539576519 0.08453084806920802
0.214 -0.27966657770295356 -0.09129096146883542 5.612063243496013e-05 -0.00012171323640011122 -3.0052944941744013e-05 -1.2008913733478338e-05 0.022686528903212166 0.08407089832405332
0.215 -0.28457698745716403 -0.07829372561471212 9.682478945207545e-05 -2.978285912583098e-05 -2.840488370986166e-05 -3.491133280816802e-05 0.027378755332458784 0.08312395175317984
0.216 -0.2895094805143215 -0.06488714027347844 0.00010172416888466715 -5.049069735705004e-05 -4.104760634407726e-05 -7.556802292426121e-07 0.03242572414906713 0.08150165498001
0.217 -0.29221740688575537 -0.0525535296749816 -1.3631772785926058e-05 -0.00010727132445206032 -6.308555243022651e-06 8.396234655483387e-05 0.0369543471685056 0.08036183062793965
0.218 -0.2960585703933633 -0.03827889897709082 6.638072594197141e-05 -1.1338164858386088e-05 1.6448431192153974e-06 -7.5147183108434e-05 0.041372754404685824 0.07851971229458123
0.219 -0.29860059599556976 -0.025262813789998 -1.1771163059153055e-09 -9.038042036667695e-11 3.514849888691373e-05 9.199588524064041e-05 0.045918618798401485 0.07640961468211224
0.22 -0.2998985313006716 -0.011660181020038667 -5.202992558837819e-06 -0.0001065019677879348 3.071568690797639e-05 -5.54081115229774e-05 0.05014134071428484 0.07416840958347698
0.221 -0.3014164449544144 0.001849491353750536 -6.886981681879203e-05 -3.3242010140318955e-05 8.425743230874584e-05 -4.563468953792563e-05 0.05463559765325824 0.07168702389226263
0.222 -0.30209737085159033 0.015708339154390984 -8.090742309683533e-05 6.100271649330975e-05 -3.6226896776364954e-05 -6.186702326182774e-05 0.058904709495516294 0.06882115492925635
0.223 -0.30265807244507864 0.029184309489999866 -0.00010802627252783671 1.0624786695189166e-05 -2.187096528659978e-05 -8.893268187432959e-05 0.06316057646087847 0.06563265443205671
0.224 -0.3021267462271642 0.044311160132647465 3.346372114610465e-05 -5.713476837332348e-05 -6.4290539086449665e-06 -7.96745901173955e-05 0.06689059958278758 0.06214668426653043
0.225 -0.300697327192935 0.05704669329711446 2.6061339838447724e-05 3.2642368440842584e-05 1.7488715725430653e-05 4.601857555795069e-05 0.07024025038948488 0.05849520250713579
0.226 -0.2993421176336854 0.07100286649437351 9.154635427199394e-06 1.0484916837154589e-05 -3.4267991818242114e-05 6.35366791174239e-05 0.07405127663135275 0.0549123446197717
0.227 -0.2968238941520844 0.08502528708909024 3.373094303560552e-05 6.292030285328363e-05 -6.146352806621645e-05 6.704633500853056e-08 0.07736622904076554 0.05142024869401213
0.228 -0.29411737870804433 0.09818737989337076 1.2906355012794706e-05 -5.718275399089175e-05 -0.00013486355982232593 -2.079513837224551e-05 0.08007537107881577 0.04689448802328007
0.229 -0.29050883382394166 0.11197062034115216 -3.862776426694329e-06 -6.0972524689954826e-05 4.3662831015287545e-05 -8.229137412126669e-06 0.08275671275722817 0.04266892010592543
0.23 -0.2853485832841164 0.12578865833433928 5.765548311724598e-05 6.005195629683222e-06 7.558497172378873e-06 -1.0161740064877161e-05 0.08548402788310734 0.03827662854648087
0.231 -0.28203967419040454 0.13956499421009358 -6.33734530764755e-05 -0.00014778342490967986 -1.0057204609750132e-05 -7.072090447832394e-05 0.08743381503613835 0.033584926741493666
0.232 -0.2758171191586493 0.15126952860679171 -4.3931486876182766e-05 4.7798673453070015e-05 -4.430636725290618e-05 3.786211383219386e-05 0.089782153886247 0.02840918078410641
0.233 -0.27144894377254125 0.16619142760815467 -2.8738951436071453e-05 -7.712217518997795e-05 -6.224163324879412e-07 -7.210493814519393e-06 0.09123192156502587 0.02411083493895759
0.234 -0.26331881693883463 0.1767761759446036 2.3121275482697815e-05 -1.0537448232893752e-05 -4.6593577459551604e-05 1.57951353865268e-05 0.09238305136846 0.018818502195763594
0.235 -0.2567532909222863 0.19031270839801775 -0.00011835235253079223 -1.7259148557825813e-05 -6.73360177683803e-06 -0.00011647789401963242 0.09470276721786519 0.013507185159859247
0.236 -0.24797657047585153 0.20390552311489724 8.017606475302899e-05 -1.4005496322913673e-05 8.152127623878722e-05 -7.354814179215775e-05 0.09512907800526424 0.00863322935631462
0.237 -0.24057179352684407 0.2137187198355365 0.000147536930360793 1.428682184206622e-06 5.553363846711602e-05 -4.248927707974573e-05 0.09580371236571716 0.003038928136212088
0.238 -0.23164830610568424 0.2256617890302211 0.00013127513381199494 -0.00016033780028958434 5.1766042510657773e-05 4.637872497143993e-06 0.09639142593021809 -0.002197577722801341
0.239 -0.22193890547295894 0.23741553993831174 -4.556837544097614e-06 -5.2651976046162e-06 5.668846695519471e-05 3.986384414830975e-05 0.09595004426177249 -0.00702220792217593
