!Created with skrf (http://scikit-rf.org).
# GHz S RI R 50.0 
!freq ReS11 ImS11 ReS21 ImS21 ReS12 ImS12 ReS22 ImS22
0.13 0.1505171866720449 -0.10847376240444233 0.00011279990303013864 -1.5526688214883167e-05 -5.649742546578147e-05 -9.097969009921037e-05 -0.030189381358374793 -0.04508173076576397
0.131 0.14704742014244496 -0.1156305194922003 0.00018810314244556295 4.157198110803498e-05 9.448314725726935e-05 -0.00012162363286858669 -0.032598640955160546 -0.043717012890997706
0.132 0.14308742553712972 -0.12375169070672407 0.00012234178496672385 5.157700021719742e-05 -8.095293103854275e-05 7.750320671838836e-06 -0.03500610548648803 -0.04213699284814909
0.133 0.13848872953213057 -0.1300726734711974 -1.2364039078754984e-05 -0.0001521907950494828 4.4852504332297506e-05 -6.021879361139568e-05 -0.037157433570652744 -0.04043938201064182
0.134 0.1338308098332696 -0.1371190816197963 -1.5608218289445929e-06 3.757067315355817e-05 3.202438060349305e-05 -6.664869660517757e-05 -0.039692644191881434 -0.038984580880146114
0.135 0.12856408694931376 -0.14338335045713332 2.4039710187215115e-05 -0.00013206700647897822 1.3042434107345055e-05 -1.1788620509701392e-05 -0.04163956875947922 -0.03707303031388493
0.136 0.1223883223223367 -0.14940042151519456 -2.740937750541369e-05 4.782770950639176e-05 3.5620841277939965e-05 4.337999163660114e-05 -0.043775580031739834 -0.03523186333259925
0.137 0.11722140299992669 -0.15596695642961303 -0.00011475759625805953 2.738542000527721e-05 1.811633385023074e-05 1.1946584519763809e-05 -0.04602959530834642 -0.03300334366304642
0.138 0.11153351734938886 -0.16146733991702003 -8.840416437758279e-06 6.492502436140289e-05 -2.0017032023678456e-05 -5.7698852577088486e-05 -0.04782331594407096 -0.031066096277887006
0.139 0.10477561473658933 -0.1661847999096361 -3.97596807240527e-05 -9.205822923807708e-05 -1.551441231182823e-05 -5.266572397749511e-05 -0.04959085333012975 -0.028604251289689707
0.14 0.09890922598647552 -0.1725088325459291 0.00010525783332319102 -2.823740391435138e-05 -1.299261898439889e-06 1.1837278900522303e-06 -0.051096628413815674 -0.026413536757227463
0.141 0.0921070760245254 -0.17737870104165893 9.182431835439601e-05 2.906225680708728e-05 7.383329425481592e-05 6.588969150923713e-05 -0.05292543775024256 -0.023572570714870324
0.142 0.0856195270823834 -0.18250596184153875 -5.5318362466177964e-05 -0.00012958435615038343 1.5093117267702953e-05 -0.00016574528247930524 -0.054496598702674495 -0.021064351607257212
0.143 0.07872067991115468 -0.18733344713471436 1.4371749362617922e-05 -2.9543094797593134e-05 0.0001609613567072953 -9.938220092951648e-05 -0.05580188145563386 -0.01831637732864708
0.144 0.07024301657698379 -0.19282746853550262 -0.00015583775708667024 -2.6121987113996407e-05 -0.0001227644561766103 7.333212401224628e-05 -0.056896797886704216 -0.015770524084188366
0.145 0.06267562514847272 -0.19625932998012033 1.7818096553374438e-05 0.00013613069875513715 -2.622062830200734e-05 3.3669565704051514e-05 -0.05824598574371923 -0.012787894557738447
0.146 0.05586789417092522 -0.19970726533046176 -6.260751133164202e-05 1.742696989667362e-05 2.347686216176231e-05 -3.1472886665639896e-05 -0.05898338147797884 -0.009878700970350865
0.147 0.04648370229053531 -0.2021603246198941 2.3660239588593845e-05 -8.039869255070285e-05 -1.4937208260507682e-05 -7.240743667074202e-05 -0.05978827879382692 -0.006927653869914176
0.148 0.039011084780862654 -0.20647576420745858 6.337426693181551e-05 -4.299209341412057e-05 0.00013883732679974376 -0.00011798203482049467 -0.060178506057844625 -0.00404320822745767
0.149 0.0309990964366411 -0.20897893323848535 -4.1467506611356355e-05 -0.00010558792836526097 -2.175307462419695e-05 -6.578725723409974e-05 -0.06047559244138556 -0.001113346517129691
0.15 0.021930432748764047 -0.21100636234714018 5.5340386731051644e-05 6.212718419146461e-05 -2.4960883517160022e-05 -5.318757541869153e-05 -0.06097030427505899 0.0019293838881884729
0.151 0.012038948072416018 -0.21303901370818434 -2.3951754954355516e-05 4.002294314476818e-05 4.867269086105156e-05 -6.722315019684721e-06 -0.06128112933722933 0.005167799438267213
0.152 0.0027245342690977985 -0.2148417337735733 -0.00011703405284217504 -5.6470197865179976e-05 3.478336357719232e-06 6.3376081791559034e-06 -0.061141906994067116 0.008142799024408785
0.153 -0.005568930339066452 -0.21604609680496034 -9.224851827484883e-06 1.1646041423125673e-05 8.743433147907392e-05 -7.904521948996837e-05 -0.06103788129228717 0.01143326640128377
0.154 -0.01535980515854503 -0.21647388762542696 -2.7717495007303264e-05 6.057953822077871e-05 -4.773607390371693e-05 -1.350513531626192e-05 -0.060709794006193134 0.014592643437179049
0.155 -0.024125597958427544 -0.21727736973853687 -9.146075093023497e-05 -0.00010963470062104003 -6.142378253562836e-05 -3.8978368070111125e-05 -0.060500039336489696 0.017652055286961607
0.156 -0.03381207676490637 -0.21721753105901154 5.046386213099775e-05 -3.7381240849646196e-05 9.164518753251193e-05 -4.5433505503890446e-05 -0.059653960849593214 0.020622426507260483
0.157 -0.04247627367945709 -0.2176499057686027 7.91040974262832e-05 -4.4532731524661104e-05 -4.409431439007526e-05 -5.490969463455201e-05 -0.05887471105251349 0.02387101308738357
0.158 -0.0521424780185347 -0.2158917851884683 2.802592884213555e-05 -8.700107957653265e-05 3.67744513906344e-05 -2.4822924035244385e-05 -0.057964714465542494 0.026885192824058445
0.159 -0.06169011841124251 -0.21552715887178897 5.016566538091102e-07 1.403631402586714e-05 3.910143412238206e-05 -4.547654118688384e-05 -0.056982091555581274 0.030128695907527942
0.16 -0.07228711320419016 -0.2141494365355375 3.462724548799188e-05 -3.63353944025454e-05 -4.381532881696258e-06 0.0001647485890823171 -0.055525011692518576 0.03309544554179948
0.161 -0.08041677108026443 -0.21230012493324632 -7.95021855615013e-05 -2.264444930087727e-05 6.461950075277929e-05 -1.676209063452053e-06 -0.05420592148051666 0.03602711412685754
0.162 -0.09082178208574652 -0.21004960813533388 4.836535306990337e-06 -3.174003425082457e-05 -3.201429842981479e-05 4.824674049147418e-05 -0.05266519984283812 0.0389924285003655
0.163 -0.0993553258122854 -0.20591315226179543 -5.77977021457818e-05 -6.659861503468159e-05 3.4874205970532e-06 -2.2214709825642784e-05 -0.05104070277610304 0.04171361006011687
0.164 -0.10980252548743086 -0.20342013046545737 0.0001660505093742359 -2.2743351251141768e-05 -4.369849835025339e-05 7.759439125262443e-05 -0.04889676866418794 0.04453653100553129
0.165 -0.11983075725134489 -0.20023499712671228 -3.1994913555629676e-05 8.080348905347592e-05 -3.417604952508728e-06 5.0660560342165123e-05 -0.04684066602247874 0.047302795369721734
0.166 -0.12896775542804498 -0.19430170001558972 6.611426084705469e-05 -1.201301858927138e-05 -5.529351797314787e-05 -1.6263936721640907e-05 -0.04482835290384228 0.049759633888013
0.167 -0.1363717871829541 -0.1916280076550098 -6.715128622478318e-05 -0.00016337630389595375 -2.5155938223211906e-05 4.253372117832197e-05 -0.042298150884972636 0.05243822759119456
0.168 -0.14712655497427174 -0.1862109925005667 6.030642387493403e-05 -2.1858991661858572e-05 3.2869158229424964e-05 1.725397829183361e-05 -0.03993329819250301 0.054884741888737404
0.169 -0.15554620036324462 -0.18066965071251406 -4.64017638530881e-06 -3.3974020736767796e-05 -5.915398207145801e-05 -4.1096343842741695e-05 -0.03725438203072663 0.05730682460949472
0.17 -0.16315063244435812 -0.174575449757911 -9.938990898832231e-05 -9.629450145946199e-05 1.7647749955307696e-05 -0.0001011333316921762 -0.03447426257191611 0.05960789310153677
0.171 -0.17247669154759251 -0.16737884218828378 -1.901948778202233e-05 -5.790397641124401e-05 -9.118478796221864e-05 -9.698526685982582e-05 -0.031615752091226856 0.06151966358354931
0.172 -0.18002177431176544 -0.16142684857618955 8.676955178193585e-05 -4.508857366231469e-05 -2.6468439128357003e-05 4.354497175055878e-05 -0.028404917088098697 0.06347212242660746
0.173 -0.18814113498543883 -0.15504850179496762 0.0001161788262935506 -0.00010278634282836063 2.0615760720675046e-05 9.559440058740252e-06 -0.025630361620584782 0.0651837265553393
0.174 -0.19565702748593183 -0.1469785581683166 -1.0381849398060914e-05 -0.00025197346546198434 -3.721957520434361e-05 2.4409479967577597e-05 -0.02237077348825936 0.06678352963171279
0.175 -0.20256018461557992 -0.14043919153624476 7.700053474506895e-05 -9.983367423663089e-05 -0.00012511371742790535 9.643752946034956e-05 -0.019026831187221097 0.06804971755785649
0.176 -0.20939553586384374 -0.13128196615578208 2.1417989639944163e-05 -5.054056546126676e-06 -4.4814567247735506e-05 2.9864005690797094e-06 -0.015657740933576806 0.06957175762589515
0.177 -0.21620250687965784 -0.1229059186400004 -9.5982488897146e-05 -4.9086998252751095e-05 -6.132278353966567e-05 4.7494548020309514e-05 -0.012150522345135958 0.0706253244173328
0.178 -0.2215610247386095 -0.11319558121546971 9.023880182657477e-05 4.045365922900327e-05 6.741720545748944e-05 2.3836189239494053e-05 -0.008856771376505262 0.07144792623423979
0.179 -0.22795437033875415 -0.10474940094580303 7.535683597608525e-05 -7.601215194027979e-05 -5.314792633998267e-05 1.9475679052573315e-05 -0.004806671142974596 0.07205589129213068
0.18 -0.23326709451163502 -0.0946532591182541 -0.00011259462142744608 6.899807275105624e-05 -0.0001326966435621753 -3.0578265180704114e-05 -0.0014858554123993344 0.07287990501718976
0.181 -0.2373764268630413 -0.08581193792160204 -1.85648216921147e-05 4.9850631987052784e-05 -4.3039873136041745e-05 -7.952690457582243e-06 0.0023319029844740356 0.07306002406597273
0.182 -0.2424493992459304 -0.07571771654756844 8.272715949806497e-05 -2.50288140808118e-05 -3.3152742308854945e-05 -3.642840047331653e-05 0.005763850386078833 0.07304565242499231
0.183 -0.24683455481123856 -0.06505809966314585 -7.895493916060983e-05 -3.530791556472762e-05 -5.538802510899384e-05 5.108822975475031e-05 0.00990659984611828 0.07331596642506202
0.184 -0.2502125005728348 -0.05511294126245246 -1.062716534874187e-05 -4.268521460092616e-05 6.062526145543974e-05 9.576682842920136e-07 0.014042400142784083 0.07320063087393333
0.185 -0.2541718040657647 -0.04496029991747186 -5.079118403571601e-05 -8.096318024833537e-05 1.6678906583134413e-06 -1.1067194250654872e-05 0.01730364140284313 0.07240095274012892
0.186 -0.2563751085613715 -0.034357190768063955 3.573050297456656e-05 5.7590573971120675e-05 -2.4575812168157845e-05 -5.836373206962242e-06 0.02148925712830125 0.07213097857075197
0.187 -0.2589600003658343 -0.023510243130620882 9.050997762935096e-05 -7.841408376648625e-05 -6.13049700202543e-05 1.846893593356245e-05 0.025136134627793613 0.07139967429788806
0.188 -0.2599638953723824 -0.012913341564290231 6.49052643147492e-05 -2.742148960972492e-05 -1.6032117741774565e-06 -4.599989478467632e-05 0.02886484973328021 0.07040438450315174
0.189 -0.2619257889100771 -0.0018571897590230237 3.2254163693465216e-05 -4.0387713070159646e-05 6.69852512358252e-05 -2.3118522075405857e-05 0.03253852304656351 0.06942041395428326
0.19 -0.26285801330621184 0.009538075492777326 -1.0568273379836436e-05 6.19846935934781e-05 3.7040731516716936e-05 6.101309554978262e-05 0.036405908256063615 0.0676329911085266
0.191 -0.262830261343493 0.02046884467840185 -3.488456788851178e-05 -7.048432862318828e-05 1.95257360020199e-05 -4.636845622668659e-05 0.04019971234589674 0.06671281593598453
0.192 -0.26318265184932293 0.031877729927658284 2.6402925830847184e-05 4.2980349690925785e-05 0.00011660285943760736 -7.027863796910148e-05 0.04301957669530353 0.06414166806259974
0.193 -0.2630569840197637 0.04295201828913433 -1.0088404218451941e-05 -1.627043494537191e-05 6.017966541191841e-06 6.0973588882537216e-05 0.04681633217549015 0.062224407415274866
0.194 -0.2613430836632771 0.054062092062298665 1.793468651168657e-05 -2.3786633663588895e-05 2.4821699505569277e-05 -3.24833318050852e-05 0.05043524557893836 0.059948507530102266
0.195 -0.26014194725889245 0.06557698831056297 -9.05117881954841e-05 0.00018436288021681259 -2.189121876675622e-05 4.8774189969168784e-05 0.05371470241352976 0.058191754099278854
0.196 -0.25807375447151193 0.07598582749305349 1.9855500871241898e-05 -9.89037696506594e-05 8.099423064565813e-05 -2.5588994844151733e-05 0.056374841090637694 0.05519954724247325
0.197 -0.2558326353954305 0.08703803966006686 5.206825222877284e-05 -0.00013874357722740317 4.8141656975497156e-05 -6.184851017966558e-05 0.05984861558998142 0.0523560356530086
0.198 -0.2526445809009464 0.09773289603100574 0.00011089493557014729 -0.00015076686987662208 3.127256114975515e-05 2.827397214879954e-05 0.06262488635569814 0.04976530533824619
0.199 -0.2490103132960575 0.10891934532521287 -4.5945674379294407e-05 5.860985624831059e-05 3.530210541907192e-05 -0.00010051690954683486 0.06597465672774738 0.04642087097763015
0.2 -0.24490923633897807 0.11973971848039196 -6.424637576029241e-05 -6.1957411349442e-05 -2.6848687412089163e-05 -8.022409146843436e-05 0.06814993191644451 0.043292289658996244
0.201 -0.2415423656258766 0.13016764318274315 -0.00010445404827397438 3.034550808599522e-06 8.039514187514827e-05 -2.6284159624012343e-05 0.07087659833060737 0.03974677484305639
0.202 -0.2371660971115786 0.14066150770260133 -3.9008978415309055e-05 1.6195450344733422e-05 0.00010007537509179085 -5.431220370016519e-05 0.07270306605656515 0.036553723174705274
0.203 -0.23179137681541065 0.1503923118281779 1.6824656465832615e-05 -1.2510048557137981e-05 2.246101068902625e-05 4.5948492400597646e-05 0.07534007846438663 0.032910071742888194
0.204 -0.2263344930183636 0.16023522130414766 1.3615912851342013e-05 4.891604353397999e-05 0.00013528047072001127 -7.550950354437304e-05 0.07695352378344661 0.02895876330522711
0.205 -0.22048376279832532 0.17052450057602284 -7.208861085162108e-05 -0.00013144268480486516 -3.942355847757176e-05 -6.85099409820778e-05 0.07885192553228353 0.025268855223996533
0.206 -0.21469940835844165 0.17975546048932137 -7.11340360684818e-05 -7.205167298303457e-05 -9.273944591026187e-05 -0.00012447617757684124 0.08032976939435364 0.02115565172683732
0.207 -0.20789126062561372 0.18904216824068382 4.7987121573325205e-05 1.089879407976162e-05 3.909790406037399e-07 1.867730771746915e-05 0.08181830623012876 0.01712592035817656
0.208 -0.20026324515912935 0.19760491373780045 2.2496549484699023e-05 -4.2751833787590265e-05 0.00012323860639215588 -4.768804690214469e-05 0.08248209617793463 0.012973106089242115
0.209 -0.19388753829957778 0.20701161778728291 -3.137392049572258e-05 -0.00011763425227584612 0.00019597921899085915 5.72169718381841e-05 0.08332935937250552 0.008772269588986274
0.21 -0.18596134381072218 0.2161165444459009 -1.7628693195367262e-05 -2.8007438662419144e-05 -2.192293504949699e-05 -3.692357755601376e-05 0.08420634597685735 0.004798501394697603
0.211 -0.1776066398065501 0.22422195205851753 -2.6040943850271677e-05 5.0859391684395965e-05 1.8191804292456592e-05 -4.509709658774525e-05 0.08487672449734629 0.00022174612722993708
0.212 -0.16895252795062807 0.23277673783863012 2.5699844043804608e-05 -7.731641437480189e-05 -6.147289431026374e-05 4.7409975884265595e-05 0.08487340369760445 -0.00425530398678069
0.213 -0.15983764563683597 0.24066753904986862 -2.676601409476353e-06 2.2098030772210966e-05 -1.6143847166407467e-05 3.416945357907529e-05 0.08491205439965618 -0.008597709828852648
0.214 -0.15131357750274746 0.24726174274394302 0.00011216802512521716 -7.005580792701502e-05 1.3296619974617588e-05 4.5250926632322586e-05 0.08484871753935964 -0.01297139418196337
0.215 -0.14189413745726398 0.2550398245883005 0.00013518235717953732 -3.319859687113923e-05 3.38711322491483e-05 -1.2568573997959217e-05 0.08429234257026537 -0.01781780799407645
0.216 -0.13276506250518305 0.26206609395684843 0.00011428789547076495 -1.3073754347174583e-05 -1.1600000784726109e-05 -7.602124416785401e-05 0.08381874843823434 -0.021987451984832797
0.217 -0.12179264401952963 0.26787848320009067 0.00012865911426275433 -1.6918773705273805e-05 4.6289114975398577e-05 2.4032447599541774e-05 0.08271217645643024 -0.026006221440568352
0.218 -0.11130789932828378 0.2730283285935746 2.0599256311206673e-06 2.9574207226994592e-05 -5.294031820641251e-05 -8.695995612378965e-06 0.08164164209051994 -0.03034071431163238
0.219 -0.09994445132891017 0.2800481264175736 -1.497342927861352e-05 -5.0047851728800265e-05 1.0763827468481159e-05 9.136845740133632e-06 0.08024399613691269 -0.03498707485540524
0.22 -0.09087861438842107 0.28571502872550647 -3.9867405015953456e-05 -0.00016977769040327779 5.9242930116875914e-05 -2.651470140454134e-05 0.07891371430937391 -0.038981171457483005
0.221 -0.07828280468184355 0.28978331691096415 5.277260885310462e-05 -2.0635095586137626e-05 6.396009612538054e-05 -2.1144072157792185e-05 0.07695048402222851 -0.04309434167255248
0.222 -0.06593838433273064 0.29391815183361814 3.3185023948647795e-05 7.766324510866232e-05 2.2662695118136863e-05 -1.1721460513919343e-05 0.07501543142164807 -0.04721688553494173
0.223 -0.05475376670513784 0.2978037700286734 5.80526519843381e-05 -0.00011550723532123653 6.715669678295488e-05 -0.00014900095048334176 0.07293152045696281 -0.05138277046178907
0.224 -0.04218168282628207 0.3022311203409988 -4.616002971561213e-05 -7.718069600744133e-06 1.6588817920716766e-05 -4.387570048311097e-05 0.07034625952539929 -0.05509193999801325
0.225 -0.030032107205468412 0.30492110155605645 1.5613911623387182e-05 -2.7894026222630835e-05 -7.229135706140647e-05 4.8532003157715194e-05 0.06740942881336383 -0.058921634296524195
0.226 -0.018578128245722917 0.30823274157476427 -8.127176564699809e-05 1.2966710093757646e-06 1.540569654490069e-05 2.3992160890197466e-05 0.0648539356273801 -0.062330334124095256
0.227 -0.007385671720438287 0.3112374544981554 6.344309469520952e-06 4.9519725710276376e-05 -0.00011041467976261104 -3.825618214882594e-06 0.06193206814271288 -0.06582223822733257
0.228 0.007493603298023163 0.3113111906049252 1.0800800419708125e-05 -0.00012755942603868815 0.00012523614348319037 -2.9175092331807084e-05 0.05860297539569894 -0.06937315538149749
0.229 0.021142455556546917 0.31213573142660767 -9.875937722652276e-05 -3.808022646943732e-05 3.4015278372792955e-05 -9.920481258879312e-05 0.05518005196576002 -0.07212562150768832
0.23 0.03292289617385186 0.3134459975812398 5.202237942496379e-05 4.399516899796725e-06 1.1855806246017701e-05 -5.903501594275214e-05 0.0515172629796323 -0.07530402575802875
0.231 0.04634911300536348 0.31172817039005346 5.700030092052344e-05 -8.23881304881232e-07 8.540511768317452e-05 7.35187668518136e-05 0.04809281092039699 -0.07794851559725426
0.232 0.05924476275434451 0.31077912116430745 -3.7108026616280846e-05 -9.978880597198757e-05 -4.0148440923962085e-06 4.196563543418405e-05 0.044168896029876864 -0.08054181697587673
0.233 0.07338139648005365 0.3124989953061976 0.00013214832157433214 1.2030867888564053e-05 3.2950739831341455e-05 1.7125953674605177e-05 0.04027234641888128 -0.08288584444147483
0.234 0.08524356591019763 0.3081123851519216 0.00016800445593010468 4.700419415340618e-06 -5.939380589035875e-05 -6.917749877707217e-05 0.03585512764944843 -0.08535787397048293
0.235 0.098687111306302 0.30721604050679346 1.69643007916662e-06 -8.917476563416837e-05 0.00013251676369347362 0.00012562499667966929 0.03149615820823035 -0.08731207523043313
0.236 0.1128580688769261 0.3031119377569435 -3.155695701558707e-06 -5.758481656069752e-05 0.00010849407688227963 -6.323966424389084e-05 0.027446997754703436 -0.0889717514924907
0.237 0.12513700875970982 0.29904656137901414 5.095403377658536e-05 6.861064192016714e-05 -6.056505583650403e-05 -0.00011630566717454302 0.022994239195609986 -0.09054003340491867
0.238 0.13871139283298378 0.2947349873354098 -2.320401736164421e-05 2.0587851362132325e-06 3.6912753456776915e-06 9.187349137524085e-05 0.018413303356482492 -0.09194729369478433
0.239 0.14982382538342312 0.2915109691850272 6.243791078537123e-05 0.00020482438789241314 2.827883273833464e-05 -0.00014176315594587206 0.014065513300055388 -0.09290105984702914
