!Created with skrf (http://scikit-rf.org).
# GHz S RI R 50.0 
!freq ReS11 ImS11 ReS21 ImS21 ReS12 ImS12 ReS22 ImS22
0.13 -0.04023023218591379 0.018003752923138543 0.5985481646641867 -3.7674467909904163 4.704083315852073e-05 -0.0016661799775111788 0.008067826840403143 0.007858257004079688
0.131 -0.039881961786057595 0.019809779810889855 0.33709140394890513 -3.790460416253794 -4.857375602319565e-07 -0.0017811655335908123 0.008633114212122166 0.0074044779598830684
0.132 -0.039328313408557566 0.021743991878533767 0.13573448581517106 -3.812403797501403 -6.993057335281438e-05 -0.001779851944388018 0.009061195437690631 0.007074905991731132
0.133 -0.03871320106486658 0.023397956191010143 -0.08810895228693624 -3.8003703662875816 -0.00019200244977946441 -0.0017846355658310466 0.009514522968301492 0.0065697587751739955
0.134 -0.038059909395966485 0.025513473749167653 -0.31139869757902405 -3.7882482589347313 -0.0002175103562922495 -0.0018019407907834799 0.010001993224456433 0.006115636888072165
0.135 -0.0373884564808916 0.027148728490575782 -0.5533880320923221 -3.764227498251565 -0.00023490425522903149 -0.0018876027597705192 0.010420761333431002 0.005552897773384903
0.136 -0.036504124029417204 0.02883406951172236 -0.7618269956569185 -3.7288814514948743 -0.0004487322396553672 -0.0019144712422888425 0.010674525360864287 0.00509126409086872
0.137 -0.03559699569087617 0.030723114511767943 -0.9672123938648669 -3.688023599033019 -0.0005188916678161622 -0.0017829511627526528 0.011110358978588435 0.004520628181586821
0.138 -0.03439386568920693 0.03224860328122853 -1.1878059341164473 -3.6104092805704613 -0.0005540582470928937 -0.0018695331581464738 0.011332048975945919 0.003985521590232533
0.139 -0.03334043050144068 0.03412236450722793 -1.3831364994003312 -3.5438489132530337 -0.0006212018613469472 -0.0017067380869739174 0.011666739436138112 0.0032490754257611543
0.14 -0.03223179663797638 0.03567945948310927 -1.6001611673013336 -3.4623221131413815 -0.00061476545170282 -0.0018933710895064077 0.012093672353247717 0.002827021854580217
0.141 -0.030935602684668377 0.037216658824703375 -1.7872078281396475 -3.349670739251086 -0.0008018095491702807 -0.0018540515497339376 0.012226797488201012 0.002094619394560499
0.142 -0.029540412350666345 0.038573992698879005 -1.9873880919642428 -3.2480912034837655 -0.0008547592546782466 -0.0018408953341625086 0.012440141502860087 0.0014188249079859897
0.143 -0.028154376371024546 0.04048998662106143 -2.1863353784439643 -3.132399601629181 -0.0009266752133817568 -0.0017695092167960764 0.012587423219563144 0.0008439052548734801
0.144 -0.026812407809337396 0.04152260018743677 -2.3329366137657193 -2.9965361480935657 -0.0008685998656003532 -0.0018690355934012253 0.012675225661655807 0.00022331339970021517
0.145 -0.02533755572420538 0.04306833171410003 -2.5098701339887297 -2.855668495089334 -0.0011745245455289344 -0.0018997467697999377 0.012890687002544648 -0.0006586917650258661
0.146 -0.023491206733453937 0.04415874314526801 -2.667129657339213 -2.7081752918002833 -0.0012100877354050633 -0.001736234048236423 0.012783437288299367 -0.0012854087068086078
0.147 -0.02158756641205602 0.04558677319517631 -2.819870815709412 -2.537630978397387 -0.00122697949293765 -0.0019049831719536302 0.012849808672789547 -0.002029372923992583
0.148 -0.020019287701119996 0.04678070857743145 -2.9797988349341753 -2.3715660755188006 -0.001358536041279407 -0.0018252635492937994 0.012758267327170022 -0.0027054902541168687
0.149 -0.01833118102472001 0.047686324918458825 -3.0984805733469987 -2.1828283371061934 -0.0013693511810560907 -0.0017018934980628012 0.01269899751205977 -0.003493322921045361
0.15 -0.016288078307384456 0.04843836921357494 -3.21922249858914 -2.022596634999644 -0.0014761055836965435 -0.0016892067094080167 0.01261197752559918 -0.00417382694296719
0.151 -0.014188353233073143 0.04977511212763563 -3.324498970483351 -1.8209349628615432 -0.0015040288417825873 -0.0016436077397994641 0.012284657109005899 -0.004665257621804304
0.152 -0.01225843958684079 0.05052860931278992 -3.4286683704425416 -1.6056495711972867 -0.0015417338388393983 -0.001758977930548879 0.012088487719307064 -0.005498842440252897
0.153 -0.01029291557811901 0.051379739346583325 -3.5096819133606494 -1.418560245210417 -0.0017241143907151682 -0.0016754391334317005 0.011919840102057327 -0.006220577466870734
0.154 -0.008265264476963066 0.051864385099185846 -3.5822829067125697 -1.2100320644254938 -0.001839160737506149 -0.0015681912400761899 0.01167324575343963 -0.006814836624996735
0.155 -0.006327109710333103 0.05247638986998545 -3.6406113808657303 -1.0080273036518186 -0.0018834620912024959 -0.0015500200817714226 0.011324832012653148 -0.00748797286579658
0.156 -0.0038783190531483307 0.05262599271118646 -3.6999996916043805 -0.7948999893117166 -0.0018511498947901843 -0.0015149800368421903 0.011039115161543222 -0.008219291566150163
0.157 -0.0016874119957916431 0.05309475960127783 -3.731679655972953 -0.5847824917854859 -0.0019927887743250417 -0.001260016970083217 0.0105387861449794 -0.008756510809845663
0.158 0.00010876690808095876 0.0531786760005083 -3.761699686359613 -0.3487553956292165 -0.0021542451539842303 -0.0013960616411818148 0.01002418051581249 -0.009299899392154061
0.159 0.002394647115100004 0.05358879651897987 -3.7751228218904016 -0.1493560850180023 -0.002208029166618886 -0.0013563973010413649 0.009648753445971707 -0.009875719372551715
0.16 0.004646375005145178 0.05374124186343712 -3.7604521749118094 0.08769650605271061 -0.00232582907197103 -0.001212362743649979 0.009082323811174593 -0.010455934246222515
0.161 0.006844112496958661 0.053507698295078295 -3.7527944029389393 0.2907178729596966 -0.0022615355855061 -0.0011886705007682571 0.008643956150885224 -0.01096480610519366
0.162 0.008926473059793797 0.05343200870550412 -3.7300307331762537 0.5138525840871311 -0.002444785906187403 -0.0010200919329585378 0.008033690571881382 -0.01148996370556074
0.163 0.011360538955933282 0.053250733536828854 -3.696457139982807 0.7247973257548662 -0.002415999426868393 -0.001121789941606097 0.007359792604967953 -0.011967010838442524
0.164 0.013268754312377113 0.05309468298226687 -3.6434722868588074 0.9337903051248699 -0.0025944299199029686 -0.0008625805007747707 0.0070163683017258165 -0.012414221918865495
0.165 0.015706619288294046 0.052550682221309146 -3.5855691426980485 1.1536816083993986 -0.002520477301959507 -0.0006702055645211184 0.006235595528939321 -0.012811456907562625
0.166 0.018042623765595615 0.052087909210653316 -3.501716451437641 1.354053244895075 -0.002622131439778718 -0.0007306479073898019 0.005595277791003868 -0.013099628019281368
0.167 0.020176641734214712 0.05156127854298205 -3.415633911000523 1.5599700817544502 -0.0027244205390884783 -0.0005438521186396823 0.004768689800355138 -0.013414026679248934
0.168 0.02216619750158549 0.050845992549064335 -3.3240148046130407 1.7511642676108623 -0.0027803645752842066 -0.000581481506032836 0.004183933192760963 -0.013718473059343653
0.169 0.024328708375169466 0.050097781832634886 -3.2193033635590074 1.9433253300685496 -0.0029233685484454 -0.000460973251693181 0.0034964237994543563 -0.014043782637969756
0.17 0.02627553253074507 0.04917822399009936 -3.0983500157502277 2.1257068930334952 -0.0028209036511507783 -0.000392138437513459 0.0026467632076394394 -0.014221127778660645
0.171 0.028402888311893252 0.04839945399905362 -2.971118159342856 2.3017817477706943 -0.0029148262862057845 -0.0002310015108676826 0.0020269047218191595 -0.014457935442849899
0.172 0.030347401229857074 0.047571438784338255 -2.8337362621060707 2.470801176770072 -0.002915738877666659 -0.00014921965089424475 0.0013458315052969482 -0.014451916404115367
0.173 0.032295794721107676 0.0463312767167626 -2.686976903170658 2.6203947996341865 -0.00305206774542517 1.706278617495272e-05 0.00044837739796239293 -0.014708362003674437
0.174 0.0342257757283493 0.045159162991579446 -2.530944083453063 2.779491035467987 -0.002982941405918042 3.009945134893866e-05 -0.0003542460692751801 -0.014716653818899528
0.175 0.03635901022831462 0.04376548983855492 -2.3642702576249865 2.913939370722966 -0.0030170626599769026 0.00021138697688173882 -0.0011426982216499251 -0.014737718374130512
0.176 0.038043528414130015 0.04241707381038873 -2.1918534221351633 3.0490583808710876 -0.003098749485903175 0.00035477005968799995 -0.001831105526402959 -0.014648878173256273
0.177 0.03956748087101049 0.04115542798205154 -2.013563447080849 3.168760095188621 -0.0030581065052121643 0.00048051022874100006 -0.00261354790694172 -0.014646923742061689
0.178 0.041387289891022784 0.0397225799537859 -1.828591389543757 3.2677972972033476 -0.002984519677092011 0.0003929194695878914 -0.0034240358031276895 -0.014492634598274295
0.179 0.04296573888206133 0.0381017420173386 -1.633641359747347 3.368675821957097 -0.00318421398159084 0.000683181308976186 -0.004191725141397004 -0.014229365241120546
0.18 0.04446888548625129 0.036206389460996094 -1.4545084340039376 3.4606671826687516 -0.0031298162882936634 0.000772649318535262 -0.0048086667959709156 -0.014121578772153722
0.181 0.04609303361398937 0.03514676683999102 -1.2272187038543978 3.5351079096644593 -0.003076606161286166 0.0009811307495230825 -0.0057783382269253405 -0.013950142515422061
0.182 0.04733898357429607 0.03314470830578923 -1.0359625303360929 3.6035565438581947 -0.0030895284296638937 0.0009247910867685836 -0.006335358519930579 -0.013794365649021496
0.183 0.048864089169996024 0.03147991313424614 -0.8237215690309259 3.656535685497716 -0.003056294750346081 0.0010776030305714357 -0.007055799674812158 -0.013578918782237007
0.184 0.05007226544965849 0.029475279137972276 -0.6155841280359291 3.694055306714893 -0.003140736513528217 0.0012421186889440784 -0.007652054830558165 -0.01311092299835994
0.185 0.051468552682792386 0.027815793022213958 -0.4031765458000374 3.7235977429269953 -0.0030621059631582683 0.0014365342468614373 -0.008478937770475321 -0.012537326842180193
0.186 0.052742194478764055 0.02607554121511555 -0.1907675650514199 3.7425777524745816 -0.003103165897403632 0.0013907545609630973 -0.00921067124140911 -0.012252493838282724
0.187 0.05381324828197918 0.02388560471377473 0.04014754361030806 3.750639624958016 -0.0031137831052644913 0.0016387826834239876 -0.009803746906089192 -0.011690123448119852
0.188 0.05478625704516881 0.021700703658591534 0.2378920973729297 3.7348630409639707 -0.003006557647534468 0.0017086132226977115 -0.010323752669141805 -0.01144056730065957
0.189 0.05600569818426696 0.019799361515619413 0.4506774153513314 3.716549035150923 -0.002962769590665103 0.0019171600860639253 -0.011017193215028323 -0.010659520655667342
0.19 0.056867628797262856 0.017611119423585085 0.6846839536032897 3.6760382032863115 -0.002987244851731094 0.002068707457357461 -0.01157145992434852 -0.010282655307937547
0.191 0.057570224283581085 0.015491118382083842 0.8997491925631838 3.641466265518083 -0.002879841710807908 0.002157828467153005 -0.012201410240762654 -0.009768072864486539
0.192 0.05848673283665807 0.01332801617401532 1.0829195666697415 3.543798471026867 -0.0027207365994081512 0.0023781576220048705 -0.01255225184392166 -0.009151162312941141
0.193 0.05910464386550547 0.011073228928633772 1.315885425115682 3.5194954415594393 -0.002683798858117622 0.0023336333075694373 -0.013174876320165459 -0.008451525967695469
0.194 0.05961907893501796 0.008796926833549703 1.4808727059420517 3.4223509699654744 -0.0027087635578749367 0.0025614104350022504 -0.01360997667128794 -0.007791057279418894
0.195 0.06004623363319814 0.0067361969456562415 1.6917962950667222 3.3473725973136443 -0.002626257151095426 0.002513408107312023 -0.014112073843936533 -0.007076911475076668
0.196 0.06047964746783684 0.004385334680864867 1.874100992624192 3.226957025435787 -0.002530669377568909 0.002603480613372039 -0.014458718984940888 -0.0064705369580519995
0.197 0.06082478190825756 0.0018841777746365297 2.0610260676588865 3.1065027642315446 -0.0024015562944396936 0.002920615805802762 -0.014751069142388256 -0.005646256633524706
0.198 0.06119442599800037 -0.0005911128019516574 2.227769455474346 3.001660321275567 -0.0023361832877454723 0.003038992591136896 -0.015278843703699717 -0.004969004207398382
0.199 0.06126442663316282 -0.0028111430415062874 2.3953032160972874 2.8530307594073325 -0.002317022342482954 0.0031868226070529107 -0.015412912031419554 -0.0042472321874348455
0.2 0.061492551775721827 -0.005247911119436129 2.563772718809673 2.7162652483203784 -0.0022230073500147953 0.003347677321733903 -0.015617765542945342 -0.0034534395176980663
0.201 0.06139612530674049 -0.0076936290129347865 2.7221981417819454 2.5672677764815015 -0.002039019375995869 0.0032890021262646204 -0.01594680078544069 -0.002610495697191174
0.202 0.061424376608946625 -0.010199289776948742 2.8429450704209303 2.4140600321134555 -0.0018276373967885747 0.0035225776390088804 -0.016157432392057948 -0.001883322327371184
0.203 0.061179430056017885 -0.012478047474659802 2.9781073861675087 2.2433691542685685 -0.0018201998422459151 0.0035006493124118475 -0.016275344602317905 -0.0009664882295899957
0.204 0.06088450107580935 -0.0149720542797276 3.104432492947032 2.063922630443737 -0.001774139238905686 0.0036526814614923847 -0.016332608250749173 -0.00017816818525396308
0.205 0.06039097235126977 -0.017535377256675436 3.211356053218238 1.869361627467029 -0.0016904404249239121 0.0038333077475879926 -0.01641336712094861 0.0008175545338094883
0.206 0.060032067381112164 -0.019873915109337496 3.3213364227766324 1.6756534873652227 -0.001434895271877968 0.0038234911763952765 -0.016451766930747073 0.0014303018029569194
0.207 0.059321118979221744 -0.02231996261973663 3.409962780384324 1.4964669720408612 -0.0014588725592619657 0.003945332886389376 -0.016333330899354754 0.0024023394344173266
0.208 0.05869013536885136 -0.024736769097464372 3.490782790058864 1.299253575068624 -0.0010079103173395478 0.004088791483521698 -0.016226933184411013 0.0032737657567356556
0.209 0.0579791820927044 -0.02728679474433742 3.555198557454154 1.0836211611420161 -0.0011707668773493231 0.004012645608798413 -0.016116460928890266 0.004062662638908015
0.21 0.0571321993986232 -0.029619955349931858 3.6164489704218425 0.8844168072690127 -0.0009441992802209448 0.00420739385711048 -0.016059978981529943 0.004989157100047634
0.211 0.05609013186348242 -0.03196689711948023 3.660660617093242 0.6623096628046699 -0.0007995590809441178 0.004304207872600584 -0.0157562591021494 0.005932688896511996
0.212 0.055049617944959564 -0.03440142842408586 3.6858036291231002 0.46554231022700293 -0.0005711189764912287 0.004354135556358858 -0.01550020979859462 0.006734657434974215
0.213 0.05405644626891818 -0.03683000193349342 3.710147709865859 0.24365224452086898 -0.0004178853629020997 0.004349229240831905 -0.015148836178737333 0.0076304619677390025
0.214 0.05263248228478958 -0.03947047190256726 3.72339356145246 0.029540374406462643 -0.0003892424996254764 0.0044490621291767545 -0.015031371828403174 0.008294554333249176
0.215 0.051101300559171156 -0.04168764721271931 3.718506012555835 -0.19993147976653822 -0.00016209666215824772 0.004442119451123819 -0.014532094556050519 0.009235694988435841
0.216 0.04953500250854784 -0.04362958231606537 3.695289934122248 -0.40039823775558697 0.00012797774534459115 0.00445754433775916 -0.014074110339772159 0.009972518382519918
0.217 0.04805738784326452 -0.0460992167660359 3.676467061754303 -0.6193530536289025 0.00012160930860790226 0.0045032773445847106 -0.013591263355380783 0.010844302475085615
0.218 0.04630666878815186 -0.04819137501522134 3.6254345999913253 -0.8256477277310488 0.0004650708082123217 0.004577915927014291 -0.012952478762447818 0.011595479568169602
0.219 0.04470595530846097 -0.05057950932430294 3.579601482550987 -1.0322471854349704 0.0005140442224651718 0.004572675762484429 -0.012439127693204915 0.012384969827833488
0.22 0.04251295730587726 -0.05238219344584925 3.5124696996557185 -1.2456501698338354 0.0005844700672502236 0.0045719001553608625 -0.011886056034216398 0.013017605217567734
0.221 0.040551762993926356 -0.05438656353748046 3.4340749146729586 -1.4399583006753527 0.000798096234232304 0.004731575131222554 -0.011288609589839687 0.013618341061821948
0.222 0.038423106434348486 -0.05608189674137122 3.33931245190435 -1.6420285717688994 0.0010397997162072095 0.004601082294344723 -0.01043688830674593 0.01428511484910988
0.223 0.0362413276576819 -0.058267506997438455 3.2441264899016704 -1.829603509041406 0.001123914073568087 0.004646535604487207 -0.0097083079907875 0.014860603228797809
0.224 0.03357469244899056 -0.06001429522117818 3.127013887850552 -2.0201144936311244 0.0013261309542717161 0.004719343214188752 -0.008933887968525931 0.015564488229649398
0.225 0.031139132387526296 -0.06137754584167344 3.0028555340120446 -2.1942388275462053 0.001606380603511964 0.00465289850657978 -0.00795443563156721 0.016063685371876725
0.226 0.02865880042757059 -0.06345836422005659 2.864758089768868 -2.369407684434005 0.0017698232217970167 0.004530051191990637 -0.007198235484730921 0.016481010250794324
0.227 0.02611896403964188 -0.06469749657089995 2.725679411217005 -2.529777324146875 0.001958292208790885 0.004556335490720248 -0.006482733219878781 0.016939856576788797
0.228 0.023465321776315304 -0.06594949544475484 2.5851657107098003 -2.6782961300408754 0.0021585926077185296 0.00461514401342561 -0.005467973462487872 0.017371098759974703
0.229 0.020787191038761112 -0.06696181538453048 2.4169148609059605 -2.826720351501016 0.002378617752234341 0.004415985675335765 -0.004468365057961111 0.017685168693558462
0.23 0.01744850720564424 -0.06825487540633228 2.2496468695455256 -2.9592732038831095 0.0026184358277523668 0.004408716007950151 -0.003535223175496336 0.017958256747142305
0.231 0.014957249654910748 -0.06895693248721346 2.0871772230154613 -3.083245923703822 0.002749150841791868 0.004446303350026518 -0.0025527770786340385 0.01822706517967731
0.232 0.011934366215073655 -0.07005470961869283 1.9052856556297335 -3.199269899958151 0.0028398957234634886 0.004260257210559441 -0.001621709165049101 0.018406136039829865
0.233 0.008890185481146798 -0.07124003355868531 1.7130220823226674 -3.298642416434055 0.0031158029612649 0.004182669358951027 -0.0005389042423935938 0.018593609568098912
0.234 0.006015373973040544 -0.07092762600041538 1.5146287350648675 -3.390707290403723 0.0031575623088588756 0.004169193777870789 0.0005301121178937137 0.018596724497777353
0.235 0.0024891293263862636 -0.07184104686439498 1.314410533977878 -3.4721850276317414 0.0033873117233848846 0.00396849720831816 0.0016613608767970893 0.018638145342168545
0.236 -0.00044374123069257045 -0.0723176693764021 1.1172422553106813 -3.5367124334531983 0.0035106654169845637 0.004046352330863855 0.002597499221520611 0.018527992782952564
0.237 -0.003674060716460056 -0.07237078842328672 0.9120933195985235 -3.594457354601634 0.0037788554177694443 0.003849063890289468 0.0036092860474082624 0.018453950672803265
0.238 -0.00665683146267514 -0.07266324329788652 0.7121705798787786 -3.6425815734988465 0.003924863547857198 0.0037654528780138416 0.004758592826692348 0.018317659743486377
0.239 -0.010030163178038783 -0.07229797279727165 0.4861470116018854 -3.659869897868457 0.004047891179209477 0.0037549038051639017 0.005554837814016499 0.01788950133230978
0.24 -0.013429399788497942 -0.0718568981484821 0.2763924722449595 -3.69206148429863 0.004204919893624281 0.003531278891193847 0.0067381192029150995 0.017639615996114133
0.241 -0.016573312721941555 -0.07147558420707063 0.07011009267053 -3.6986763956496778 0.004442263784464933 0.0034183025943176804 0.007439869783243627 0.017320021599318097
0.242 -0.019465710092195047 -0.07056457462623192 -0.14356126659995516 -3.698875244598146 0.0046361254942941955 0.0033121648034432297 0.008740566865889077 0.016810054961553248
0.243 -0.02314194980048887 -0.07042223749561309 -0.377093385263881 -3.689396870167878 0.004702536996838883 0.0029992280071932742 0.009658859580168825 0.01655972563437761
