!Created with skrf (http://scikit-rf.org).
# GHz S RI R 50.0 
!freq ReS11 ImS11 ReS21 ImS21 ReS12 ImS12 ReS22 ImS22
0.13 0.010054921758851101 0.19337279375065225 -0.00011708441161041118 4.368510767511363e-05 1.985730506289199e-06 -2.5430584579668576e-05 0.05548798035689311 0.00025934425854343276
0.131 0.02126449261522192 0.19379841716199403 -0.00010531960814615152 3.536724243801528e-05 -5.389348120984698e-05 -1.968222610902766e-05 0.055940354454166154 -0.003173056101500733
0.132 0.03126089546974401 0.1942860830577518 -8.071639655067906e-05 2.214776742678723e-05 -5.949990875422174e-05 -1.1212377555703505e-05 0.05612805991450453 -0.006281870250958641
0.133 0.04010097434868686 0.19352068218232613 -1.9659905480419495e-05 -1.5559565274289187e-05 1.3088371856879647e-05 -6.122229826812323e-06 0.055940079787105856 -0.0096623331959493
0.134 0.04970520061815254 0.19350134381343503 3.354433416091088e-05 -3.1252817444472184e-05 8.551078705828843e-06 -0.00013887658296161221 0.055785317339375445 -0.013073494774957088
0.135 0.060533106727246475 0.19103237598496864 3.771238980216575e-06 -1.0476812112538534e-05 8.532119779488829e-05 -1.0593731609844806e-06 0.05531596443027703 -0.016330995885493423
0.136 0.07012341139233587 0.18912427244452418 0.00016413928560120216 -5.781325877249409e-05 -3.401592623470552e-05 -2.7057489465808225e-05 0.054697543142495926 -0.019623691545988694
0.137 0.07928945516777881 0.18693597210077692 -6.34937801458917e-05 -5.753164027836349e-05 -6.570320249398743e-05 -4.2388486013602486e-05 0.05393226230142511 -0.02297103783043628
0.138 0.08833883305747987 0.18433221430021976 1.8126597507098814e-05 -1.1585304854801955e-05 9.107543903752635e-05 2.872450901047349e-05 0.052802314456376315 -0.026087347462799126
0.139 0.09838737563335782 0.18004902575868073 9.525267633084875e-05 4.3595548710275965e-05 -3.330506995838676e-05 1.212719724702116e-05 0.051665171114674974 -0.02943452412498634
0.14 0.10672266557517181 0.17604937074746885 7.888941277314979e-05 -2.699245841103772e-05 2.4999902413895558e-05 1.8143968676493543e-05 0.050062340080464215 -0.032622585192103974
0.141 0.1153336883513554 0.1720498655773374 -4.725154716416039e-05 3.4173004793401034e-05 4.3306605958341645e-05 -7.232537214951797e-05 0.048398413662775655 -0.035716014293571734
0.142 0.12523600093118775 0.16635891186568852 0.00010653503561465288 -9.737924934341774e-06 9.490030724295759e-05 1.1282219563624385e-05 0.04663104634964524 -0.03877187664931214
0.143 0.13379282075591292 0.16132647771978328 8.327781204433422e-05 -5.737747901172071e-05 -0.00010569191486430565 -2.6382570896786844e-05 0.04464726151095892 -0.04155748427017549
0.144 0.14290193442293495 0.1553642891524786 -1.3164710658916073e-07 -2.1942496266360906e-05 3.4812830690224626e-05 6.423731197362448e-05 0.04229209962025039 -0.04428757763447801
0.145 0.15075040488186855 0.14953229333568532 6.621400745468338e-05 -8.399206804329972e-05 6.18011478519237e-05 2.300810442828359e-05 0.040013633096965665 -0.04706719757767347
0.146 0.15724240989280389 0.14162052966652142 1.6392972615552416e-05 -5.893947052822025e-05 -4.293275930805726e-05 3.527320985870525e-05 0.03734544126800164 -0.04950287594202349
0.147 0.16577121186394106 0.13518652829708777 -0.00016459500239131075 7.683389555205993e-05 -1.7383874616597035e-05 -1.6241774072976008e-05 0.034833684201976634 -0.051745729843298734
0.148 0.17401408897778695 0.12720972819473636 1.9415972638994695e-05 5.77663422313456e-05 0.00010303320449394172 -5.593791806018661e-05 0.03187050667068994 -0.05421097491854641
0.149 0.18018571993203017 0.12052956259607923 5.6580116781933994e-05 3.7808415262985295e-05 6.154164745997424e-05 9.124595373061241e-05 0.028975925094898713 -0.05603948429883751
0.15 0.1866182285973094 0.11227445384633089 1.1086156646806102e-05 -7.686577752635064e-05 8.650041302289494e-05 -6.711265709603013e-05 0.025663328712654285 -0.05812000633573251
0.151 0.19315945272472052 0.10349575153933137 -8.710229674950968e-06 8.375101642759773e-05 1.772561157394367e-05 1.7964069967097843e-05 0.022579201328959887 -0.05985530041336413
0.152 0.1993535689718747 0.09412926393971476 -5.5996409963331746e-05 -5.809684962944511e-05 9.68260550121982e-06 -2.3290499098687664e-05 0.019191026939748255 -0.06118601096460179
0.153 0.20423228381644293 0.0846814372453128 7.134614649395855e-06 -5.770483906916942e-07 -6.500297820737945e-06 3.114638844779924e-06 0.015916004382076517 -0.0628309843799458
0.154 0.20948270758132875 0.07592215301104561 0.00012895849465032098 0.00016211170387949838 -9.90368705218124e-05 3.9464752111927094e-05 0.01246855034166988 -0.06402859348997131
0.155 0.21352327650109323 0.06598963009071199 -9.726153112400109e-05 -7.17442389361238e-05 -8.279227368351712e-05 1.4377451466769019e-05 0.008749456283303583 -0.06491903126094986
0.156 0.21749444058610315 0.05617670315283178 6.213655967583908e-05 -1.2002853372641105e-05 -0.00014686545471016466 1.4363891861639898e-05 0.005044668199522254 -0.0648331776906733
0.157 0.22138319930416292 0.04536126547378047 -1.478049419632167e-05 2.1527754903574594e-05 3.2318237741385224e-05 -8.712649971743366e-05 0.0011320780884930203 -0.0656259174376533
0.158 0.22414648450144473 0.03443491643397724 6.101328644451393e-06 1.8079157670838084e-05 1.5593332479014377e-05 0.0001164788827597898 -0.002440032513550801 -0.06612473493452221
0.159 0.22741499161833406 0.024838329477951858 -2.3223452374837193e-05 -2.5212502414786256e-05 8.851585612612604e-05 4.998828824209484e-05 -0.006278083014872508 -0.06643451818263314
0.16 0.22836247624283365 0.013732852576800432 -1.7757544496261802e-05 -5.4702857522235924e-05 -5.445677691341931e-06 7.951259637717814e-05 -0.009864537059522307 -0.06609763402843494
0.161 0.23052545360779927 0.0023483497774287217 -7.477984634869805e-07 0.00010648852285719729 2.225245499688629e-05 4.738032368309555e-06 -0.013920463327061431 -0.06571088732127832
0.162 0.23138199926657693 -0.008467017064051001 2.4350245728819182e-05 -5.647491558827992e-05 -9.278481565465788e-05 0.00011057663739463002 -0.017884639607719608 -0.06517964700120037
0.163 0.23231728207883695 -0.020095724397006593 -2.336014105624919e-06 7.966089151741532e-05 -5.0718267006014796e-05 -3.770105624118777e-05 -0.021246009103036076 -0.06423905851759365
0.164 0.2328717183615232 -0.03069650433743754 -9.69099400659662e-05 1.6556959451534073e-05 -2.0227696912455e-05 4.142990303210925e-05 -0.025113840633390314 -0.06350114282498219
0.165 0.23241719986727138 -0.04247802901608613 6.262999323856179e-05 1.174143638915449e-05 -8.745134787895676e-05 -9.143285582748747e-06 -0.028670474169220264 -0.06222453672015928
0.166 0.23119672284631887 -0.05396568552032007 -7.325808140747994e-05 -4.3004433827007965e-05 -8.81576093032328e-05 -1.3876551401078674e-05 -0.032332590920815314 -0.060311874785759584
0.167 0.22880382841353022 -0.0651823877917535 -0.00010566740662741553 -0.00014257755785806282 -3.285828102967202e-05 1.3942225489024969e-05 -0.0357679148804598 -0.05935351747854372
0.168 0.22759744723332775 -0.07729353415803869 -5.9179420729467464e-05 -4.61970584752869e-05 7.466733366347262e-05 -5.701170124250495e-05 -0.03971638954674294 -0.057043095138770164
0.169 0.2249396429132018 -0.08866366135525218 -0.00013060775057639943 2.694357458982434e-05 7.618378712914241e-05 6.148628908781209e-05 -0.04289769859494059 -0.055247360198225216
0.17 0.2215057840182415 -0.09955863011521435 -2.9639726053118437e-05 -8.974850749224897e-07 8.314941751412474e-05 -1.1260570554197101e-05 -0.046357825304302776 -0.05297743342309291
0.171 0.2191498227547346 -0.1111547508668922 5.023913613531893e-05 1.7514515135642688e-05 3.954947061995532e-05 -1.6713023599742746e-05 -0.04901818266283977 -0.05069060777471712
0.172 0.21343720150919082 -0.12142538258151206 -9.494030276071305e-05 0.00013108713630458454 7.473514721582602e-05 -1.8311877354154084e-05 -0.05266567262891213 -0.048035087510211454
0.173 0.20838908384287597 -0.13221983480155103 -4.475508618062584e-06 7.476312364487476e-05 -3.169324386747211e-05 -5.068902762121268e-05 -0.055466993203906724 -0.04510443736159499
0.174 0.20299883852113018 -0.1434446435552821 4.738326037133362e-05 -3.37177937220112e-05 1.37085334032304e-05 -7.566187833898206e-05 -0.05811507813147964 -0.04212629546468193
0.175 0.197140868191661 -0.15393676671298945 -8.57609859425912e-05 0.00016346431795173194 -3.9627080028360205e-05 1.644573475777017e-05 -0.0609557238484476 -0.03925505684740816
0.176 0.19054970435541302 -0.16434664907733176 -3.2967286694336895e-05 -1.0985732000518726e-05 -2.506900872023832e-05 -8.96832238403458e-05 -0.06267391812810172 -0.03556079943466015
0.177 0.1829703432894846 -0.1744521274864531 -7.081560845974204e-05 7.579725057362292e-06 -9.004017209913522e-05 -2.2893430819270967e-05 -0.0651884489691946 -0.03215843654162929
0.178 0.1759105528059004 -0.18417286876179675 -8.795553565479569e-05 -8.333003337493604e-05 -1.3548110815823086e-05 -3.303884016380643e-05 -0.06705453441892033 -0.028754763216236857
0.179 0.1673554197609382 -0.19371751595429648 -3.6217268214017574e-05 1.4229803436542353e-06 -6.882233440321752e-05 1.2106208654952099e-05 -0.06885869123731199 -0.02514761154929565
0.18 0.15736196613552425 -0.20269285293404252 -3.295608670941931e-05 7.68373281010789e-05 -7.309780244041573e-06 -3.420629325424122e-05 -0.07084624247358667 -0.021364446454515306
0.181 0.14914889728994993 -0.21047706052586787 -5.4886249677217224e-05 7.713663471317742e-05 -5.116483802767049e-05 9.944258279590165e-05 -0.07190513551157947 -0.017792641030087868
0.182 0.13948481487831657 -0.21883205326510383 7.598309625048421e-05 -5.5908501973260675e-05 6.023208375862958e-05 5.449028632173376e-05 -0.07332461595762714 -0.013527874482907458
0.183 0.13069253437319484 -0.22817677790896884 -3.109827075944454e-06 3.399662151714845e-05 0.00011347278245628539 -3.947897484338905e-05 -0.0745135304580227 -0.009427699633525894
0.184 0.11906665280934456 -0.23459012241665503 2.0392623947182997e-05 0.00017070091923519193 1.4249285069196389e-06 0.00011741250399683601 -0.07503282032129036 -0.005277649923056631
0.185 0.10743002504783042 -0.24204638829149988 2.7600469712741223e-05 0.000129632695635688 6.734615834793374e-05 -9.335494380349846e-05 -0.07562474346181079 -0.0009074753319326198
0.186 0.09601954470406837 -0.24836643518464813 -3.821953563079432e-06 1.044751011040943e-05 4.416028190431804e-05 -0.00010624339269862807 -0.07601998758431021 0.003215256680204006
0.187 0.08367942271686811 -0.2551689224536726 -9.92990153259552e-06 -7.651800069848319e-06 0.00011917245360978369 -9.472073372789502e-06 -0.07604273074086594 0.007772330212465878
0.188 0.07272354711232691 -0.25955077749021155 -2.4106320690791863e-05 1.5362041453372276e-05 3.486466511736536e-05 -3.7739603985794625e-05 -0.07586957004365358 0.01147631002837004
0.189 0.060204783197638216 -0.2630656784878208 2.37841564701627e-05 2.671748094289522e-05 -1.1035820859651353e-05 -1.9180985108868556e-05 -0.07544391194483178 0.015907121179578165
0.19 0.043746804408464506 -0.2670088358576895 -6.070225871458708e-05 -7.089685226821934e-05 -3.037083889339483e-05 -4.3913494917988134e-05 -0.0748671418636901 0.020159094833935538
0.191 0.033490549813510816 -0.2704716724484555 7.604783322844148e-05 -3.498940263987896e-05 -3.87647433162569e-05 5.7378228445467375e-05 -0.07405639172987079 0.024375360258357705
0.192 0.01969197648976701 -0.2725286248507926 -1.9004179400489066e-05 -5.777764233428014e-05 5.3300566193189373e-05 -5.654419255443607e-05 -0.0724127068107757 0.02850131459729161
0.193 0.007189229073595467 -0.2759836485670324 -2.7965356979598958e-05 7.005408715160187e-05 -2.817235575435668e-05 -3.538778246990953e-05 -0.07149051619439237 0.03298122180000433
0.194 -0.007421504495558394 -0.2755195706651486 -6.967450965663335e-07 -6.767748771450551e-05 -3.0328143913197196e-06 0.00012929161228275634 -0.0697106355353194 0.036773687068338896
0.195 -0.021250790763201674 -0.27701812482297905 -2.0962167855824594e-05 4.579029429301912e-05 0.00011248601064509046 -8.91891618954985e-06 -0.06821749749662968 0.04124282297561415
0.196 -0.033461097864567385 -0.2756252544981681 0.00015456572618920608 4.288047381636383e-05 3.558548863767043e-05 -3.582404516035073e-05 -0.06573192953144184 0.04459803824079995
0.197 -0.0483954968337044 -0.2747931464801501 7.137716740231371e-05 5.626922166072327e-05 -4.786347798910557e-05 -6.608664687938731e-05 -0.06363857373192386 0.04877647210151536
0.198 -0.06295433492793884 -0.27370661631984156 -1.3751510856331275e-05 6.70757131059405e-05 6.206417180251702e-05 0.00013785263730193935 -0.06117509468621827 0.05250868384312351
0.199 -0.07607413912876464 -0.27236657818981125 4.115538110707207e-05 1.3839852599952281e-05 -8.140470105800208e-06 6.426930605485125e-05 -0.05825578981353249 0.056164928633323064
0.2 -0.08982788632031062 -0.27036487625616484 3.843036440297055e-05 -1.625091471764079e-05 -8.165542738581275e-05 5.4062561592701045e-05 -0.05546477936268303 0.059429935565213726
0.201 -0.10168231234428189 -0.2648914799608683 -8.410997937773737e-05 9.697089748310262e-05 -3.508986843267538e-05 -3.416439104110475e-05 -0.052077710542050085 0.06293017009025215
0.202 -0.11630937859374012 -0.2607087760018748 4.649459863425514e-05 -9.992133593800851e-05 -2.538388194750617e-05 -9.30320155912107e-05 -0.048802864142154685 0.06589689347189542
0.203 -0.12917160635434458 -0.25588101670256036 -6.737168185508332e-05 -6.874517267612475e-05 1.9743826829299805e-06 -2.5352066748257194e-05 -0.04534547950552314 0.06882515119966799
0.204 -0.1423813427388484 -0.249985267977811 5.859623052578383e-06 3.833125869252586e-05 0.0001350428131059816 -2.787323938128906e-06 -0.041560068469944374 0.07151048055567336
0.205 -0.15436602470554533 -0.24424926268999073 0.00012522373346471652 -1.9654124076638902e-05 2.5568375187774494e-05 -5.135673613810046e-05 -0.037738606106656976 0.074241279188491
0.206 -0.16705670432675548 -0.23610643993744687 9.868461435277244e-05 9.882600387401375e-05 -8.58550224706787e-05 -2.587955845407429e-06 -0.033690765998505595 0.0765680901550688
0.207 -0.178213264907366 -0.2286161717206444 9.631887843192154e-05 -3.969478347503613e-05 1.238987609192426e-05 2.605358327811373e-05 -0.029466271318770276 0.07899166399348909
0.208 -0.19012244075462736 -0.22070880434832071 6.730651762322148e-05 4.672278617587218e-05 9.12552502091247e-05 -7.646940994129157e-06 -0.025065923959248847 0.08051221466224338
0.209 -0.20099024727215575 -0.21266898250797078 8.601149526187357e-05 1.4266825813256789e-05 2.3579668600726157e-05 -5.849947595567782e-05 -0.02062009500425792 0.08205888923941755
0.21 -0.21101776852338838 -0.2015098807546074 7.462096739704164e-05 -0.00012350251849955544 0.00010070818223249762 -9.85078194235852e-05 -0.016073828782813628 0.08360526864104445
0.211 -0.2212860131644529 -0.1929975888890985 2.7387620746634142e-05 -5.8070272465490285e-06 8.831270298748966e-05 -5.571695707678338e-05 -0.010954815521661184 0.0844556002952295
0.212 -0.231652162929483 -0.18129190487212277 -4.8200319130800375e-06 -7.916109771049044e-05 -8.989836521577648e-05 8.707480191032845e-05 -0.006717923868062784 0.08603419778537848
0.213 -0.23978411236450897 -0.1716784545088571 -2.8011246424507593e-05 2.5865011547776367e-05 1.3691993348971257e-05 -2.809614120726564e-06 -0.0016242971690093911 0.08631131660750387
0.214 -0.2494101629921154 -0.1603779334899978 7.733930398144131e-05 7.623987680840899e-05 -2.432110049160788e-05 8.911299317798079e-05 0.003231470824321072 0.08676998710892875
0.215 -0.25675149428692584 -0.1481888692766473 5.520708131460845e-06 6.053433988298883e-05 8.474245255475273e-05 3.124673280744199e-05 0.008069241205122186 0.0866497766489264
0.216 -0.26501723211047135 -0.13644712521711286 4.371628043241663e-05 0.00010646310167290286 -6.3018197420325305e-06 -0.00010044868441012016 0.013166635480152067 0.08632773994854472
0.217 -0.273121628944702 -0.12334604512079902 3.739912331318299e-05 1.6486081423318875e-06 2.978221849090117e-05 6.743830639748764e-06 0.018020163349909576 0.08663527612771947
0.218 -0.2788410956634552 -0.11137855697101857 0.00016727966354230747 -4.751341558809476e-05 -2.8543566464505e-06 -1.3676076224625105e-05 0.023187499106452285 0.08557934111372524
0.219 -0.28498154296163486 -0.09795318541961616 -1.7998944636463814e-05 1.1699121837603634e-05 3.5012265115902006e-05 -3.761797992717304e-05 0.02799130214841746 0.08436382160716545
0.22 -0.29059752869021993 -0.08513153085810485 0.00011359066311715788 -1.0550277711867282e-05 5.654497250407599e-05 -2.7793255086009284e-06 0.03292757354252198 0.08339137866999104
0.221 -0.2941176900905141 -0.07184263743532715 1.0460608471463796e-05 -9.874883005830267e-05 7.854231481806288e-05 -3.536302073530109e-05 0.037540005680716915 0.08159144986797012
0.222 -0.29876432143074794 -0.05651117567882762 -2.1890663001019905e-05 2.2010384833713373e-05 -4.564097162461143e-05 2.1609422695238836e-05 0.04235070334679814 0.07971563186287439
0.223 -0.302649563019847 -0.04303972923981762 -5.060747751060059e-06 -1.4762840127929161e-05 -6.604345088302793e-05 -0.00011305166726039279 0.04728438317058417 0.07815634426474644
0.224 -0.3047898965878821 -0.029012407388314246 0.00017242828219493465 -5.4266281924026325e-05 2.2378175092084455e-05 -3.112550654166783e-05 0.051789027385983406 0.07505714097637047
0.225 -0.3070607618831052 -0.014833118194711573 6.492458528888578e-06 -6.487597397381821e-05 5.962261314822792e-06 2.9112371513677263e-05 0.056193998931873095 0.07180891906477259
0.226 -0.3082719283999593 -0.0009247521732750449 1.2532991008132386e-05 -0.0001315702695652849 -1.4791651051194123e-05 -2.2023799439206736e-06 0.06047284530514054 0.06933659077976763
0.227 -0.3097121963982746 0.013649261657161134 7.660384475758945e-05 0.00011285479644739485 -4.539188574783002e-05 -7.790796699817421e-05 0.06426592970389637 0.06577764584053993
0.228 -0.3099698875181976 0.028354368931786764 4.061719544751793e-05 -7.584011710780802e-05 -3.0838125450971675e-06 -1.544283678184051e-05 0.06831746386453584 0.062195618494746134
0.229 -0.3091898902476302 0.04220772473697057 4.528039121447821e-05 -4.0519796001981976e-05 -3.892827178542791e-05 -1.744021892103705e-05 0.07249654942304207 0.059261017932170076
0.23 -0.30778135991376154 0.057521532883155535 0.00010346153474894354 -4.0502198578542925e-05 -2.538590162402874e-05 -1.9883857547270457e-05 0.07526918248216635 0.05534366330830449
0.231 -0.30780982707383353 0.07225813792182735 -1.723068518609406e-06 3.73603388749115e-05 0.00010540269606615483 9.826273783230764e-05 0.0791445920075801 0.050987646014975865
0.232 -0.3037247662311512 0.08552513428110078 -7.896153688468396e-05 4.741557502877023e-05 1.8373511992601356e-05 -8.239889208324344e-05 0.08200466812495498 0.04645691695237795
0.233 -0.3018294210273531 0.10158598604666741 6.265783486560476e-05 1.1632827912869022e-05 -4.860663397380877e-06 4.399433875515194e-05 0.0851359918396751 0.04169797608784757
0.234 -0.29655575413014024 0.11341973065601572 -3.934332453003105e-05 1.3721250064616334e-05 4.277706181103585e-05 -3.5619263594865776e-05 0.08736710493851967 0.03702012902001329
0.235 -0.29384597111566074 0.12996542670310204 0.00012868889885517143 -1.005741536037803e-05 2.0875648989076878e-06 4.408784389834385e-05 0.08987112463080808 0.031942305702227156
0.236 -0.2877394733140816 0.14287423904348645 9.517087224660171e-05 2.1227399986958213e-05 1.0505688904800503e-05 5.4987202396669364e-05 0.09132111078623925 0.027245361689867565
0.237 -0.2820161194545219 0.15743185753708955 0.00015502345738500502 -0.0001466204202358829 8.07989539934597e-05 -6.0228254990179606e-05 0.09328832830106505 0.02198662466989246
0.238 -0.2758354246206865 0.17105645289509253 -9.705691718311466e-06 -6.85508448902425e-05 0.0001906739219247673 5.846904202219641e-05 0.09484448584253875 0.01680115942576903
0.239 -0.2683764454770607 0.183159807550149 -0.0002350431936618639 -6.760570537274367e-05 5.6083239060757604e-05 -6.3027457157309095e-06 0.0955849978019017 0.01154044279343182
