!Created with skrf (http://scikit-rf.org).
# GHz S RI R 50.0 
!freq ReS11 ImS11 ReS21 ImS21 ReS12 ImS12 ReS22 ImS22
0.13 0.15193312485083604 -0.11121096376663782 3.929109304014594e-06 -9.049827576038208e-06 5.324067335569234e-05 -7.111570058297817e-05 -0.028468700436830183 -0.04716837993644236
0.131 0.14866976523600559 -0.11852228477797619 -8.95335795485142e-05 -1.687203087921249e-05 0.00013666633429892252 3.055857279887524e-05 -0.031123386553944345 -0.04573762227074571
0.132 0.14490292155154666 -0.1257109126105491 -8.108074389898143e-05 -7.274559965338825e-05 -5.286642448865496e-05 4.2146090756859824e-05 -0.033694341587484196 -0.044410771352614266
0.133 0.13933609141913111 -0.13284020846227956 9.127969439312443e-05 -2.088684782436728e-05 2.618367011383845e-05 -8.581029021846594e-05 -0.03567325914859239 -0.04309523472747458
0.134 0.13542700327505 -0.1399616114346517 -4.31728964122127e-05 2.383118311336607e-05 -5.2858387297871306e-05 -4.4501041505368424e-05 -0.03842725319904321 -0.04127583469246243
0.135 0.12976653285739653 -0.14548093541564142 0.00013581829108010265 -4.5758421693558034e-05 4.139038106004372e-05 -6.794262489460208e-05 -0.04092131969262733 -0.03957121075392084
0.136 0.12349448096794018 -0.1522587421576637 0.0001242635210577544 6.394365360465981e-05 -5.850398401718217e-05 -7.877119336996667e-05 -0.04256104186510679 -0.037675525774449825
0.137 0.11830977582142163 -0.15815468523672443 4.9827586016092344e-05 2.9868531421723587e-06 6.347241778787856e-05 4.1921300376432475e-05 -0.04505503060943526 -0.03558830458165019
0.138 0.11256779370840889 -0.16442275781643084 9.40557098441173e-05 -5.189518986808046e-05 9.047851851214148e-05 -2.9620055580655242e-05 -0.04700460489043825 -0.03349905666942049
0.139 0.10487471882023439 -0.1706434233453658 -1.2183708614449743e-05 -4.025320236400233e-05 -1.3587159357723398e-05 0.00011217563606254182 -0.049084582701642475 -0.03106371905268756
0.14 0.09989307134584241 -0.17594413971792972 0.00014421177795982847 4.86848156315745e-05 2.557341951891578e-05 -7.870689224264336e-05 -0.05098993008018838 -0.028958955143194975
0.141 0.09079855451314715 -0.18015631031933424 -5.280021841510411e-05 1.2996462769537443e-05 2.4006973630812492e-05 -1.3233028421109269e-05 -0.052560901222415614 -0.026781116821183597
0.142 0.08545657406059781 -0.18566919733448214 7.991565946323338e-05 -3.0900438878604376e-05 4.324215029482181e-05 -6.838476857027093e-05 -0.05435585354227038 -0.024049966540304876
0.143 0.07834886764504571 -0.19143565455463096 7.119146219792815e-05 7.714100624275456e-05 4.83539006066503e-05 -6.962074998037425e-05 -0.055872077656534874 -0.02137738279855004
0.144 0.07067691525521763 -0.1944719504985142 -4.576324166837898e-05 7.049025306256758e-05 -4.585800316888447e-05 -9.033610388851735e-05 -0.05687310903792166 -0.01913300953508481
0.145 0.06306588234185258 -0.19902539285877816 0.00011696492755068379 -4.571023490730865e-05 -5.24155836170207e-06 -4.2119203074463015e-05 -0.05821578905604084 -0.015624400060968364
0.146 0.05407920812839097 -0.20282162391782518 5.350912291527432e-05 -0.00014820867938584588 -2.378652796329985e-05 9.318023553367031e-05 -0.05935561223401618 -0.013158822430185391
0.147 0.047104132505785296 -0.20582219416912928 2.3269374188244284e-05 7.338213412278515e-05 0.00018452447188523055 3.983536166766631e-05 -0.06018062761368222 -0.009969583020597583
0.148 0.03677067797211868 -0.20886994384729451 0.00015017635453417553 2.523879972435446e-05 9.240467807300911e-05 -7.848344127902215e-06 -0.06098195227898862 -0.007049111547259488
0.149 0.028673568453155017 -0.21090461365671234 6.475758675220858e-05 7.98575767131818e-05 -8.656940640228359e-06 -1.9558532333981076e-05 -0.06161534773518275 -0.004333893272853888
0.15 0.019202658824220044 -0.21410642633210858 -1.5334720119507962e-05 0.00012653123796138103 -4.1897822585748475e-05 -0.00013415753114062308 -0.06216392493948198 -0.0011105121477862478
0.151 0.011593107761820532 -0.21641028188398118 -9.610257035891538e-06 8.585702783869484e-05 0.00011413337074427015 -6.814252148640243e-06 -0.062407455757690244 0.001983380097455573
0.152 0.0018776341044122295 -0.21684978138680736 -2.431367821192646e-05 0.00011461738763469994 1.1795586210975705e-05 -0.00010460630873222186 -0.06254526734792434 0.005179936987116415
0.153 -0.00826762576033011 -0.2183952010687802 -6.035087855635167e-05 9.213086745850012e-06 5.953417275002763e-05 -2.9285874483036407e-05 -0.06253639460397228 0.008406632734491335
0.154 -0.017105072191247878 -0.2208045158272084 -4.718358076879945e-05 -8.601821736834144e-05 5.470617975992788e-05 3.703016585181141e-05 -0.06267086373870656 0.01162419720696817
0.155 -0.026360740673339864 -0.22027582657377667 2.6498411079815058e-05 -4.745281930131332e-05 -2.3820383654100787e-05 -2.3110024676232073e-05 -0.062383767691483655 0.014842135337528565
0.156 -0.03395010828911411 -0.2213804005869497 6.132450998649715e-05 6.621810731740249e-05 -5.3308585302675886e-05 -5.163424823364578e-05 -0.06186606381205133 0.01799570961705551
0.157 -0.044338379708008836 -0.21907663161449106 -3.0405756502179867e-05 -7.787376214865844e-05 -2.9324023710334937e-05 -3.599086161117699e-05 -0.06103769736960433 0.021184677362353126
0.158 -0.05555691514537491 -0.2211558244252461 4.536886229331027e-05 -4.090074196857836e-05 -0.00010405059868472801 -4.634331239724329e-05 -0.06046000127024504 0.02441783698174132
0.159 -0.065558020938258 -0.218256740255883 6.134209592451568e-05 3.5521901872249056e-05 0.00013424734129094677 -5.58994939670762e-05 -0.05940692057500445 0.0274655803222983
0.16 -0.07602762401723626 -0.21619318381290262 0.00010681714929501654 7.881536121877346e-05 1.9343059709675437e-05 9.662426926681341e-05 -0.05822297798638299 0.030531298328474538
0.161 -0.08506918568553459 -0.21394772852032085 -3.06890881775361e-05 4.1806798704988045e-05 1.879314387473642e-05 9.884688623287466e-06 -0.05708083989403664 0.033424295945160845
0.162 -0.09421486831988804 -0.21161005889501197 -0.00012817577383540373 -0.0001073142000041855 3.167913351560886e-06 6.46642682976107e-05 -0.055652568612245344 0.03666127700013452
0.163 -0.10328208992682106 -0.20918363380326 1.1904482960416402e-05 -6.474805514195683e-05 8.530993886156141e-06 -2.149965015364037e-06 -0.053862885234895665 0.03943746483814353
0.164 -0.11148235228574518 -0.20639749928659004 -9.620635611234322e-05 -5.9534299602014147e-05 -5.288519980106084e-05 -2.3123870651285976e-05 -0.05213131593333727 0.042380136675873835
0.165 -0.12214180298990104 -0.2026204251075168 2.3265109613655384e-05 2.0790565530173126e-05 -0.00015509333184984567 9.464688037892405e-06 -0.05048137635115392 0.045366463478151424
0.166 -0.1310055176033444 -0.1963822740403229 0.00010976320573556191 4.7846573013806186e-05 -4.796834859266154e-05 -6.770701094335485e-05 -0.04830225068729408 0.04793482462744261
0.167 -0.14108111500862702 -0.19175161387983208 -7.070348055549369e-05 -0.00015982792530806785 -1.3464994765703979e-05 4.688562372666678e-05 -0.04615360555527341 0.050880812799595096
0.168 -0.15046552274930555 -0.18742379725357142 -5.843184847276462e-07 -9.739223672810823e-05 -1.3694266137849427e-05 3.2659864233886815e-06 -0.04353554603610098 0.05347804178022802
0.169 -0.1600945296631786 -0.1814518971689368 7.822569896684621e-05 -1.5213837755414899e-05 -5.119897678457928e-05 2.7384377288041355e-05 -0.041026392160926524 0.055904967721251725
0.17 -0.16860289157902167 -0.1752617149595662 -3.333791901924244e-05 -7.710283442168167e-05 2.9211022584954376e-05 2.877614191688734e-05 -0.038610598619846496 0.05827380768772413
0.171 -0.17631622067147745 -0.16869393990272233 4.0226457125131026e-05 5.9245287138930545e-05 -8.592833753777485e-05 -9.441849071400374e-05 -0.035682757318777784 0.06049239312435306
0.172 -0.1841146831884182 -0.16164197866633354 9.908299050369715e-05 -2.396015136147484e-05 3.9186212330083346e-05 -9.85468368066466e-06 -0.0329596664071129 0.06276019882896094
0.173 -0.19219854539644504 -0.1551192946665978 5.8229608733302156e-05 1.4688110984820032e-05 9.387067995057376e-05 -5.232867047621098e-05 -0.029353493110466554 0.06477279225532008
0.174 -0.1998253827687525 -0.14866569631677526 -2.8888933515597734e-05 -2.6219300119586234e-05 6.4773917586238135e-06 -5.9708814386162895e-05 -0.026713346548094548 0.06645677368121686
0.175 -0.20790387102793906 -0.13842540186152308 1.548431005223924e-05 -5.1296620507553764e-05 5.2949323119949116e-05 7.754836009321156e-07 -0.02368174123788969 0.06830744735106278
0.176 -0.21453091938796437 -0.1303407044514792 6.790145847279843e-05 -5.6500462433016085e-05 0.00012326458214220826 -9.032965371514211e-05 -0.020295293379360306 0.06952412313262225
0.177 -0.22031283194029266 -0.12271112685591798 1.9013824105715363e-05 -3.747766142455354e-05 3.7193416794638964e-05 -1.708494571015437e-05 -0.01686969608685377 0.07131605621104235
0.178 -0.22616428980793368 -0.11276135529670181 -6.123257884855054e-05 -0.0001405108155293919 9.226591910957694e-05 -2.2290847907773895e-05 -0.013090708807901794 0.07202793492454222
0.179 -0.2322764955923094 -0.10315062118182304 2.356241004409194e-05 -8.427127632055476e-05 -1.3861258060236762e-05 1.7749082806905354e-05 -0.00910844630588234 0.07290812567598694
0.18 -0.23828599538025336 -0.09393842329175754 2.3483972644823575e-05 -0.0001439495535566607 -4.9641788852882926e-05 -2.3462253653306848e-05 -0.005765377328577289 0.07351236319308237
0.181 -0.24201178076954571 -0.08410725121095508 9.633197603564338e-05 6.943285852704696e-06 -2.57761312893005e-05 -2.9643882565665773e-05 -0.0023908771796068784 0.07411534667831494
0.182 -0.2467647197113489 -0.07445126415903436 -2.996200097798161e-05 5.688250073240095e-05 9.574322983456924e-05 2.6886150128973584e-05 0.0016367373531932024 0.0747768587435216
0.183 -0.24991096216917982 -0.0651769904553332 -6.472764960894927e-06 2.550709512396405e-06 2.2122023635064933e-05 -0.0001285325716466709 0.00586615262832716 0.07519190061557536
0.184 -0.2547140418657685 -0.053560602721987066 7.880740535635783e-05 8.97021202623625e-05 -4.279216050275513e-05 -7.631323903518214e-05 0.009194895039441651 0.07535355237013852
0.185 -0.2575791429031257 -0.04259865039309514 2.938528595165856e-05 -8.650812716075779e-05 -2.559724941706728e-05 -1.529026175071683e-05 0.012690542292127151 0.07495640162544208
0.186 -0.260137455364612 -0.03226496174371768 -3.354185861836923e-05 4.333211518517217e-05 -9.02917233787919e-05 -6.433018679023042e-05 0.01679852638086104 0.07464058900957277
0.187 -0.26267708187704814 -0.021430123830205365 -2.390055128489727e-05 -6.573593879271782e-05 -2.91095916231247e-05 7.938801488513126e-05 0.020731580630456405 0.07432260014169982
0.188 -0.26442056777825484 -0.010605781936298346 -6.358556941909968e-05 -8.040955103494563e-05 -2.7650432370415703e-05 -5.846192735665655e-05 0.024835728847236536 0.07331145359331602
0.189 -0.2658666097424023 0.0011600692898166146 2.3036465168724504e-05 -0.00013640335081986917 -4.100920351608946e-05 6.092399859753026e-05 0.028637878558425953 0.07246956568982435
0.19 -0.2668672059502873 0.012307984752541452 8.350831243294618e-06 1.1726870858885302e-05 4.571839235037062e-05 -7.688149016098446e-05 0.03240165376864657 0.07102193633084772
0.191 -0.2667859583515759 0.02301088059311416 -3.8757790403582864e-05 -2.2088846241710162e-05 -3.332742563199814e-05 -0.00013627843017346644 0.03661246714923068 0.07009253869626035
0.192 -0.266365237873994 0.03469822056633437 -9.44654120957115e-06 5.649762771010984e-05 3.8356781045084846e-05 -0.00011896004561801349 0.03977243892263112 0.06819892736705846
0.193 -0.2657041244617903 0.046514672728808576 -4.3885576117219975e-05 5.511000685058847e-05 8.031043571959522e-06 -5.2849332599516954e-05 0.043681774806442 0.06664559573461665
0.194 -0.26531449488218506 0.05718885614522129 -7.472729125986111e-05 2.8989495094802395e-05 -1.4868923974627087e-05 0.00012681187104093578 0.04701916602843111 0.06426836282672158
0.195 -0.2632515528543888 0.06850290215213012 -5.079351374162688e-05 -9.686509814437289e-06 -3.0825155864816995e-05 -2.1031191246016415e-05 0.05118050034752541 0.062251030204177465
0.196 -0.26097142276847274 0.0797091562473453 -1.743599667812583e-05 -5.309531813893775e-05 -8.672263653184276e-06 -7.019467913370165e-05 0.053835156603894804 0.05964673212666141
0.197 -0.2586097010348767 0.09173726619343592 2.1784126264531644e-05 6.641241316192835e-05 6.980897769087693e-06 -5.953764436176747e-05 0.057161636314313584 0.05729429167629675
0.198 -0.2554772395900176 0.10257172730230567 -6.693583341491288e-05 -8.690079173214318e-05 5.3120975125631785e-05 -4.952257055066536e-05 0.06082695033167484 0.054975681116477736
0.199 -0.25185272665998026 0.11316233788519146 7.31943034591592e-05 -7.449830230849848e-05 7.273106052832978e-05 -2.6443867298277366e-05 0.06338865543777192 0.05163954329657207
0.2 -0.2481719462263862 0.12415676642420903 -2.403563702722182e-05 2.4572519501249623e-05 -2.65421652133598e-05 7.220328550186946e-05 0.06642447709130037 0.048788051709218315
0.201 -0.24331243760585441 0.13422046666746418 -3.3464245523142395e-05 -4.670602568075916e-05 5.269375699563866e-05 -9.324711762439607e-05 0.06900043753669391 0.04546771355590071
0.202 -0.23954842439472712 0.1456745692258086 -4.548835784895061e-05 4.0879351440035154e-05 -1.8216474807354522e-05 5.5421003828107275e-05 0.07157875380399266 0.04219104933113998
0.203 -0.23387780539852973 0.1554432090940537 -0.00014543732804906095 -7.94803313594265e-05 5.791714401273382e-05 -2.9082550609516884e-05 0.07363159279597462 0.038430727669356055
0.204 -0.22725552584144923 0.1644016943609546 -6.029457512407103e-05 6.751729176021829e-05 0.00010809309643374406 -6.459333354880843e-05 0.07619591866526737 0.034542707136537475
0.205 -0.22362659932025225 0.17619413212131937 -3.663417407296191e-05 7.426122796711295e-05 -5.66910212287167e-05 -8.715335603787119e-05 0.07817655280362235 0.0314428708617202
0.206 -0.21567613256315604 0.184153964813913 1.5931102615694066e-05 -2.131613995574759e-05 -5.986790730286101e-05 -3.523191345079033e-05 0.08002716778302321 0.02665846515888386
0.207 -0.2090814740940441 0.19359038675928444 0.00011556137545408823 -1.6675515982276692e-06 -0.00011911198459202482 9.194575838955607e-06 0.08168936234104306 0.023653254228164135
0.208 -0.2014111803469589 0.20373140120851801 -8.837038145289706e-05 -0.0001142767129242413 1.7494902564531477e-05 -4.751176547799893e-05 0.08301250900705409 0.01910311052073921
0.209 -0.1945909813131132 0.21381755179499576 -3.493103504886185e-05 8.165699073270237e-05 -4.250872986448299e-05 3.386337588029276e-06 0.08420429967239294 0.015277015446645623
0.21 -0.18695408744141015 0.22120581338459613 2.8786694566587955e-05 1.1111017818887017e-05 3.5636829973776036e-05 -5.283765828673562e-05 0.0851833721994926 0.010396204748511283
0.211 -0.17698132751543272 0.22880003781042466 8.727691547301294e-05 3.2039858948638326e-06 4.813456694156038e-05 4.5802898520114086e-05 0.08604443546139788 0.006278456701566281
0.212 -0.1694797198013166 0.23818525249015765 -3.4557975603410566e-05 7.375505150494851e-05 9.496910354916188e-06 -6.05218160651604e-05 0.08685433325313369 0.001936360985912069
0.213 -0.16169608860318802 0.24593216476555546 -2.7865214800050117e-05 -4.133011163835251e-05 -2.7250308410950734e-05 2.8645348544922146e-05 0.08697001325245181 -0.0028610153167839204
0.214 -0.15038629439171936 0.25199403097928846 0.00011153658998863845 -0.00011987843162966435 8.167342651568387e-05 8.732384053141381e-06 0.0872912377458823 -0.0069841294864561995
0.215 -0.1394377536402988 0.26065592311813124 -2.492344364771856e-05 3.225716607737885e-05 -3.265771567065165e-05 -3.50306876745382e-05 0.08717567716370099 -0.011599735241302514
0.216 -0.13186187752500714 0.2674813743975458 -0.00011868520250021995 3.15242445107469e-05 1.2088450439815001e-05 1.1356153925759135e-05 0.08682360394067566 -0.016198209151618657
0.217 -0.12048889664641728 0.2734272041805019 -6.305341821376896e-05 2.5375279387023885e-05 2.3976963560949927e-05 1.5638306898387412e-05 0.08603832837610796 -0.020037360104130757
0.218 -0.11111796028729456 0.2801272957814514 1.352741863344604e-05 -1.3005474715181075e-05 3.233431546777113e-05 -8.247824496009478e-07 0.08536735435495775 -0.02488547199574678
0.219 -0.09908044671985802 0.28578694150276857 3.107076061795317e-05 -0.00013988033303708055 3.553005670110387e-06 3.5357475153696486e-05 0.0843362508566559 -0.029317745403643052
0.22 -0.08625267295887845 0.2898050776745909 -6.918796640859295e-05 -1.6860211476550963e-05 -3.062091358995341e-05 7.182797535842598e-07 0.08300856737029355 -0.03385074486620686
0.221 -0.0757938444330947 0.2953145498790825 6.742372333374913e-05 -0.00013937081088643175 3.3984770873712464e-05 -3.7522113685436496e-05 0.08143517351352872 -0.03805836918916477
0.222 -0.06358886325467153 0.29986569539455943 -2.942151169799932e-05 -3.348094081600089e-06 9.941653675749119e-06 -2.441455200459125e-05 0.07971877526158229 -0.04254770383356324
0.223 -0.05299339857629544 0.30393209833413437 -5.987609647792552e-06 7.695169332930306e-05 0.00010323346642829394 -2.8103090579783066e-05 0.07797427331661902 -0.046535690391262485
0.224 -0.03850580673579576 0.3060128113111873 -2.659988316431524e-05 5.564084930607697e-05 0.00011335975936496424 -2.9994971842585957e-05 0.07542192837601049 -0.05066352117439394
0.225 -0.025408600373181447 0.30858706142432724 -5.769182439503402e-07 4.524928626095373e-05 7.831096479577918e-05 1.6313006072150887e-06 0.07284483366830741 -0.05464764249985493
0.226 -0.012319310891139785 0.31192112611939193 0.00011019016000569897 7.642260790749204e-06 3.4118279531599907e-06 6.374715517285098e-06 0.07054821415975691 -0.05864992435412456
0.227 -0.0024492949984079955 0.31513025229217123 8.942154377721367e-05 6.104570620963679e-05 -4.2470612029596215e-06 8.082787935248935e-05 0.0678316551969036 -0.062488868556888455
0.228 0.010616336390128586 0.315098306786551 -0.00011917153149428434 4.023594146618475e-05 -2.1107153173997743e-05 -6.727905913819122e-05 0.06485723972294494 -0.06591375707854838
0.229 0.02384191042502533 0.3161646956978484 -5.266031566945177e-05 5.117360781082996e-05 -2.871501446541136e-05 -0.0001667029417120408 0.061677146157527646 -0.06930763426303052
0.23 0.039146605219313645 0.3166814142521147 1.5886470442560677e-05 -8.102079713852336e-05 7.29128584072931e-05 -4.8027974629214085e-05 0.058221499786605506 -0.07269973228052075
0.231 0.051483749603613196 0.31517393626061113 0.0001282967502791865 -4.9811337512307695e-05 7.309542935549903e-05 -0.00012881637111269775 0.054631821454689825 -0.07566513392474504
0.232 0.06511442870230451 0.3131567714840394 1.985593652614641e-05 -1.581292076095697e-05 7.232604220000591e-05 -4.8634014967888795e-05 0.05133669294485663 -0.078540647090303
0.233 0.0792541344789291 0.3176864267919131 4.39612241839147e-06 -1.6842135472850435e-05 2.0071516521129502e-05 -2.7090318158350536e-05 0.047310902545791816 -0.08120165473335929
0.234 0.09028349138274631 0.31252258010886425 -2.1916235066835144e-07 -1.4881386658469598e-05 4.9162139262589824e-05 -3.461887096528326e-05 0.04332169997027776 -0.08381924893597614
0.235 0.10501842688745304 0.3127328795083889 6.672116488809347e-05 -1.1900807078281549e-05 5.962705052079483e-05 -8.057702323775582e-06 0.038512501121817956 -0.08631038744793144
0.236 0.11782486162762797 0.3056356227285322 -1.7318352106262003e-05 0.00012764359092808916 -3.106105099674678e-05 -6.459869446154577e-05 0.03480687919818155 -0.08836241063110536
0.237 0.13024690839862924 0.30196514165524274 3.0401683118366994e-05 3.282993333970188e-05 3.4412004275740916e-05 4.9127611564528286e-05 0.030495887903625167 -0.09038425713107492
0.238 0.14576815300551046 0.2986622598696032 -4.683898290205918e-05 -5.645854196219308e-05 5.945555282052158e-05 -1.561162869014956e-05 0.02584455935983059 -0.09219099941386386
0.239 0.15631036753909977 0.2937837396686693 7.790971773374484e-05 2.1507636354353847e-05 -0.0001016055867890659 -7.473488711254073e-05 0.02158831348643629 -0.09339305335291959
