!Created with skrf (http://scikit-rf.org).
# GHz S RI R 50.0 
!freq ReS11 ImS11 ReS21 ImS21 ReS12 ImS12 ReS22 ImS22
0.13 0.07831333591091935 0.17384915918791655 0.0004514594098733019 -0.0004575015899462154 -1.8076076272418852e-06 -6.341221018953973e-05 0.04125631589392114 0.036751982426114875
0.131 0.08698582587182771 0.17061863565119734 0.0004869248343160885 -0.0003727873816078961 8.21597997212232e-06 -5.057840916123079e-05 0.043476920307975335 0.03440439779631764
0.132 0.09667663869761067 0.16693592389394016 0.000672031999583631 -0.00047645829211102945 8.753599724457196e-05 -8.726785128894857e-05 0.04588348397589458 0.032366300472834494
0.133 0.1069393048144084 0.16309742130246685 0.0006926641015329794 -0.00043325149438650597 -1.0567478287579591e-05 6.485887821789732e-05 0.04758269931014923 0.030322644780257806
0.134 0.1158947239204797 0.15825269502478465 0.0003841884590163316 -0.0005856799479142462 -3.581604813795146e-05 2.5547338856266232e-05 0.050028055396015174 0.027832527717535693
0.135 0.12694247751429358 0.15219855652875672 0.00044821270414988567 -0.0005344180278963932 8.995305913946729e-05 6.035341119047899e-05 0.0516460779013475 0.025004492527477776
0.136 0.13340820785792246 0.1463990172479346 0.0003646067199370032 -0.0006058714505253926 -1.2019432280156523e-05 -7.65632343280468e-05 0.05357360301682914 0.022756811738270613
0.137 0.14254758776083845 0.13936653650828273 0.000342001923169987 -0.0006455460484957928 -3.774212200737446e-05 -8.035108165567821e-05 0.05502345252469512 0.019956830867978222
0.138 0.15019236280190978 0.13321706596158764 0.00028169442981817777 -0.0008073562633963401 -8.543650039685351e-05 9.616269673818613e-06 0.056171235760442466 0.01690040265554797
0.139 0.1590489100394057 0.12590355587665525 0.0004039388259052852 -0.000729193836490419 -4.14534062803423e-05 0.00013225902060653785 0.05755808901196434 0.01416966555286625
0.14 0.16698559293486015 0.11865506384930392 0.00017541155325766317 -0.0008047208952235311 5.5334520854723944e-05 7.17328758907491e-05 0.058801782214361116 0.011011819657124864
0.141 0.17213906261899564 0.10884972447821306 0.0003440838947820356 -0.0008681228110298586 6.849514175520863e-05 4.190806507785474e-05 0.059610662356655894 0.008109033199994491
0.142 0.18039535216275124 0.10009930735192488 0.0003147472510435667 -0.0008738328645589768 -1.3948370176722743e-05 1.5922578223912518e-05 0.06034195929579425 0.004859760443404737
0.143 0.1854319450518214 0.09212171238773752 0.00025772526624635086 -0.001082930867619435 0.00012245905706506 -1.4436843244143574e-05 0.06101081892374164 0.001582601017607046
0.144 0.19089818383731652 0.08305519278883496 0.00016088036030477933 -0.0010734716228524297 0.0001204794110331848 -4.283277341668526e-05 0.06132524530811716 -0.0018040846298660218
0.145 0.1962613196441725 0.07233622396263754 5.264281284000125e-05 -0.0010671155622842996 5.358806930458052e-05 -2.706905234512883e-05 0.06143954170533763 -0.004844616571927728
0.146 0.20115948235922063 0.06284156007421925 -8.143749228387496e-05 -0.001091844840780173 1.1756885874937428e-05 2.6998707611698025e-05 0.06177010920964138 -0.00832318471128535
0.147 0.20558760629733344 0.0518322984112704 -0.00010501445482584796 -0.0008567226812324127 -0.00012321953101023103 6.361110932140775e-05 0.06150380345643048 -0.011700214080263543
0.148 0.20827695897924817 0.040794486208862404 -0.0002454879223425761 -0.0008973046392935896 -1.7770973316937817e-06 7.80283229448122e-05 0.06115900657963586 -0.015037899531909904
0.149 0.21183557920441462 0.03001275083582449 -0.00018550708672616402 -0.0010085797395750656 9.669416615946345e-06 -0.00010034902029417575 0.060649396827716695 -0.018420372618992386
0.15 0.2141818869216531 0.019043841194961435 -0.0003534896662759554 -0.0010663659323005296 6.021943865472534e-05 -4.2858166609543905e-05 0.059888833137345124 -0.021841690363227573
0.151 0.21601762451452733 0.007733354264408839 -0.00033331090623876385 -0.0010830761870051328 5.478774126507726e-05 0.00014243661566578158 0.05887346401197041 -0.025251255253306102
0.152 0.21685301029582094 -0.00391944010412005 -0.0004504141868121479 -0.001139568027057299 3.6282966799785915e-05 0.00011595636976818834 0.05787384655599485 -0.028421368032945184
0.153 0.21761706811116957 -0.016052399318802552 -0.0005180889514021785 -0.0010805031351227776 5.8470738933453896e-05 7.845232775577113e-05 0.05651770268162868 -0.03172233579992054
0.154 0.21788935939993356 -0.026774183157432765 -0.0006017936971710159 -0.0009239205354148749 2.984739238364478e-05 -0.00011616243100857378 0.055139570412863374 -0.03477471260678461
0.155 0.21743136479367353 -0.03856641659221444 -0.000734809645435669 -0.000832379060997987 -0.00010677994211256155 -7.932889527904504e-05 0.0536416852000925 -0.038094197612972364
0.156 0.21621925366296102 -0.05056682279996232 -0.0007847281979793601 -0.0009419645005408261 8.630199923868821e-05 9.533707969067712e-05 0.05171899596638247 -0.04078340488319461
0.157 0.21453562725433992 -0.06182588464272105 -0.0009534479963529982 -0.0009265302194474657 3.127624194513844e-05 4.6144652142236104e-05 0.049817858756335064 -0.04402972671370302
0.158 0.21154000637543866 -0.07331529166977495 -0.0009731324387697167 -0.0009975867722181136 -1.3744738927150087e-05 -1.2660396997802216e-05 0.04755438219756326 -0.046661509860235255
0.159 0.20830896338445617 -0.08534166796517084 -0.0009597873606325045 -0.0009610969606774715 2.7288425298421325e-05 -5.2846484876764426e-05 0.04518987462798509 -0.049498714796330376
0.16 0.20521074806392905 -0.09616015581184714 -0.0011081313079911715 -0.0010007795531431028 -3.2288373359162244e-05 -3.3001957889438274e-06 0.04262569051427945 -0.0521132022797883
0.161 0.20013153434629594 -0.10826538654425186 -0.0012082621451383472 -0.0008710755629151586 3.1480245448674837e-05 -6.716259577308174e-05 0.039909808775434805 -0.05465639758468562
0.162 0.19601682793296216 -0.11873119012275266 -0.0012832772352635417 -0.000804072020117877 4.4515974045582354e-05 -1.2440207283659178e-05 0.037534887361801106 -0.0569956424527147
0.163 0.19029495819022532 -0.13089118898544652 -0.001341755467696972 -0.0005658744031382591 -9.008179247032063e-05 1.7318995945502365e-05 0.034158826584540586 -0.05923941664531787
0.164 0.18416128644824506 -0.14091337915291094 -0.0014961440529076698 -0.0005069625896809504 -2.911631295648744e-05 -3.916385432409482e-05 0.031336008486251433 -0.061144414506581174
0.165 0.1777730345183552 -0.15222071229290773 -0.00151218137279968 -0.0004060718895471421 2.715508423782948e-05 -1.0182422620331802e-05 0.027924713127182123 -0.06321805753789723
0.166 0.1688961183165446 -0.16189262674074828 -0.0015560681150154517 -0.00039609452668202085 3.898835718424494e-05 5.9132456191316414e-05 0.024796565801740382 -0.06500758999536475
0.167 0.16237189867925741 -0.1718418765590003 -0.0017024819384781691 -0.0003427491349623197 1.8396365872281123e-06 -1.4374606306923482e-05 0.021311266457487273 -0.06642038289273951
0.168 0.15499723670638413 -0.18214377953601255 -0.0016665470887966122 -0.0002807535090413706 5.912961987572369e-05 -5.628070914249591e-05 0.01783646725610465 -0.06827675311860493
0.169 0.145652213022717 -0.18884278706500138 -0.0018140304607005726 -0.00015895634689329239 -1.859296530821752e-05 2.3387649620208525e-05 0.014272641629065498 -0.06942515026393713
0.17 0.1325423965796134 -0.19883289941521923 -0.0017950972393729028 2.6436899980373993e-05 4.947033148558108e-05 7.200080911138023e-05 0.010227181130043976 -0.07003124256454779
0.171 0.1247914718837047 -0.20730352988476877 -0.001949603820264232 0.00026424647664810926 2.662274434393995e-05 -5.980663593883696e-05 0.006536039436823291 -0.0712378067277723
0.172 0.114174552307048 -0.21529734172566162 -0.0018817734715922223 0.0003091007838044122 -5.1639185550865855e-05 8.399731237613267e-05 0.0029218610856552567 -0.07150786565883713
0.173 0.1021499744311653 -0.2213819045049393 -0.00191756731480089 0.00039176749526832636 1.3336867186462107e-05 -8.62209059694967e-05 -0.0005655050204705065 -0.0721260790094982
0.174 0.09110824464200334 -0.22777785443049228 -0.0021692949017564113 0.0005301961213389977 1.6910414404714346e-05 -6.546136027429426e-05 -0.004639147501384632 -0.07198277356042308
0.175 0.07749740562263716 -0.23518000072588954 -0.001870260121618041 0.0007405473652023766 3.174331552180019e-05 0.0001094617370925837 -0.008581793927547514 -0.07250721079298893
0.176 0.06659069052403298 -0.2406278362514936 -0.0019424230847938677 0.0008182653253209609 -2.5798853894361685e-05 3.822588332381298e-05 -0.012265358240261244 -0.0720569788586801
0.177 0.05462886813187847 -0.24381763897456377 -0.0019689712005056125 0.0009790125581363854 4.6517450645078886e-05 -2.6717501105287817e-05 -0.01633609466402172 -0.07171798211510384
0.178 0.038718168736149236 -0.24851256596287294 -0.001976705072899215 0.0011333585989688202 3.666176955803314e-05 -4.16094073935791e-06 -0.02009082482372561 -0.07116240207839422
0.179 0.02938848710081972 -0.2509399941319233 -0.0018436432092252737 0.001235886878553242 0.00010786174151179597 0.00012945609370108816 -0.023994030493398964 -0.06994697545675585
0.18 0.014874387786439068 -0.2545859878517661 -0.0017772701446356512 0.0013656734736553133 2.1374634188381347e-05 4.701272914661625e-05 -0.027478779182478243 -0.06890340020739878
0.181 0.0016367634409241675 -0.2553963666038362 -0.001798396576745843 0.0015963404189570968 1.811175288891646e-05 0.000125275427197089 -0.03134306630228461 -0.06804936910098759
0.182 -0.012774149124489355 -0.255754181672285 -0.001842337748713248 0.0018303189648193484 0.00010031789440803788 -9.680319488561391e-05 -0.034905313390155165 -0.06656419492083696
0.183 -0.028527665407086917 -0.25724258461273136 -0.0017216926447140874 0.0019332344579672497 4.86845049032232e-05 -3.448151493882265e-05 -0.038486523941205046 -0.06455974305437695
0.184 -0.0424884821003008 -0.25745815279474843 -0.0016458033388480082 0.0020076490821662758 4.097133930671039e-05 2.6127369943428503e-06 -0.04215009034764864 -0.06294262880872818
0.185 -0.055440597241626983 -0.25509226968605814 -0.0015044633800250496 0.002178809279620427 -2.7852883557515523e-05 3.2119127219669216e-06 -0.04543219881702255 -0.06071148693936844
0.186 -0.07067821585776347 -0.25218479672878263 -0.001314392360345437 0.002355295964502385 0.0001336556295175269 -4.25726364911615e-05 -0.049168363714184996 -0.058531711253265714
0.187 -0.08429206414896233 -0.24954547028116378 -0.001108341029375563 0.0024635647675980516 -9.830345789894258e-05 -0.0001302497462800863 -0.05221191191709442 -0.056282051269704016
0.188 -0.09757073603375668 -0.24641591505897362 -0.00111629990240283 0.0025687506396649394 -8.547677277263114e-05 -0.0001945485163973415 -0.05578877844902622 -0.05372778061195989
0.189 -0.11303747524897705 -0.23946213111317483 -0.0008339483185621561 0.002587622367842497 9.046842620093037e-06 2.706268674473257e-05 -0.05836335750324513 -0.05100055393694779
0.19 -0.12581554030198988 -0.23643014990272798 -0.0007857341997642649 0.0028983854217552066 4.563584842406171e-05 -3.362212281276892e-05 -0.061224684584256374 -0.048319818556661516
0.191 -0.13820787904113593 -0.2284261842868292 -0.0006558450827975192 0.0030436492392061872 -6.380181212684849e-05 7.765632485482062e-05 -0.06439320567032102 -0.045101694410313524
0.192 -0.15382446264799193 -0.22225432176490598 -0.0004815456913654652 0.003036340349521359 0.00012157543203090251 2.8173776704928614e-05 -0.06601486278960336 -0.04116310419936809
0.193 -0.16314442286940162 -0.2122242270056994 -0.00016600139887930487 0.0031716326552080096 4.657330324785219e-05 -4.0795968368509943e-05 -0.06893035090220578 -0.037694298508784765
0.194 -0.17612632084116986 -0.2055354752331374 -5.151576813961185e-05 0.0030838716956848333 -1.8047727713374994e-05 0.00010816605617194597 -0.07087872383575455 -0.03458182787477597
0.195 -0.18819171554868863 -0.19685613218747397 0.00013325881380074324 0.003311099342580984 -8.242281963889531e-05 -6.837939673310977e-05 -0.07322487589397948 -0.031294440157120594
0.196 -0.19941780097431644 -0.18692834433985547 0.00041402833651041316 0.0033104005963803832 6.696162243608345e-05 -7.859709306980403e-05 -0.07457230124448465 -0.027038506936042445
0.197 -0.2083217085601818 -0.1756757662435541 0.0006181057666926325 0.003373492704746794 0.00011417959443939161 7.150437320891038e-05 -0.07664467692813805 -0.023524081007930565
0.198 -0.21989152708543006 -0.16579418763614184 0.0007714585535905967 0.003633080828108124 9.829525326622054e-06 9.083993061242932e-05 -0.07838487537996588 -0.01943005796331137
0.199 -0.22890625501057565 -0.15362840769252142 0.0010921775757723742 0.00346559237235141 -9.115888183799423e-05 -3.867998099976639e-05 -0.07916407419886196 -0.015231164736847703
0.2 -0.23767819180307687 -0.14171099446306895 0.001275109929025517 0.0035167578584145796 -6.028649153309472e-05 2.8112052685178558e-05 -0.08053641633780241 -0.010681032703955233
0.201 -0.2467597288335154 -0.12922573231059603 0.0015692076353019922 0.0032939568826759634 -4.863784215312836e-05 -7.278093274347423e-05 -0.08094013448426005 -0.006992384845580762
0.202 -0.2531866575376494 -0.116385935775819 0.0018646788653749863 0.0031891683557778864 -2.4520468100150834e-05 1.704514456620962e-05 -0.08188166474198068 -0.002646998069880666
0.203 -0.2592145356179043 -0.1031294276102278 0.0019509274303198825 0.003226922346529093 -7.917878447243842e-06 -8.366499335928885e-05 -0.08208386845565734 0.0016231169396952463
0.204 -0.2652228458933876 -0.08970849331117432 0.0023246204580717887 0.003106412814128095 7.89718813448221e-06 -8.04939925529237e-06 -0.08234898510820757 0.005972827937334964
0.205 -0.27084771633392934 -0.07527182936762311 0.0024540645047785112 0.0031335665171973487 -1.1336338071219165e-05 -1.9734417124306813e-05 -0.08210236283634743 0.010103630829641524
0.206 -0.27467264955868964 -0.060539915643214856 0.002725280694860399 0.0030871486239117947 -6.165444004920366e-05 -5.591096022880035e-05 -0.0818336481874241 0.014360458493826672
0.207 -0.2781583765880219 -0.04600206097680999 0.0030896972519393606 0.002968457828281335 5.9162527979849315e-05 -8.438260019518594e-05 -0.08122317927559293 0.018950266763081862
0.208 -0.281493149831848 -0.032033212930628094 0.003206608315373505 0.002868297799942849 -8.836908345428635e-05 4.617062714316397e-05 -0.08047089029840429 0.023252881871892343
0.209 -0.2840948682833153 -0.01706494842426917 0.0035831800882787077 0.0027170104889359015 1.737762141041853e-05 2.618484778483e-05 -0.0795586018844505 0.027539917211368888
0.21 -0.28523625193480645 -0.0025670112918576844 0.004049122423081224 0.002492045271805473 1.2921500625159411e-06 -3.5476629984855024e-05 -0.07824037559456454 0.03204635089914142
0.211 -0.2863906061269316 0.012582334641598195 0.0040976565203630225 0.002207423889638317 -0.0001399727365680068 -3.293906100353508e-05 -0.076930644378815 0.03624438555810269
0.212 -0.28599253039789774 0.02745923513215011 0.0043384962179087135 0.002124178814261653 -0.00011704371721982915 -5.6140759675878906e-05 -0.07524977451558826 0.03985321494706193
0.213 -0.2852370723053121 0.04294711306832745 0.004575696297515454 0.0018256081206547115 0.00011128940589655417 -5.632302714537645e-05 -0.0732840116994179 0.04449717860623753
0.214 -0.28431576419318894 0.05832932471955724 0.004837902711957916 0.0014833341252980781 -9.999059633899275e-05 4.767633310384611e-05 -0.07124814427801872 0.048953190369203724
0.215 -0.28148986198125325 0.07288013259740855 0.004806430546174577 0.0011946367864450783 1.6201219942150992e-05 -8.688491789906342e-05 -0.06880170309822413 0.05243657728046965
0.216 -0.27890417851659466 0.08777093718752078 0.0050471120870964285 0.0008999240308589685 -7.336994733447692e-05 -8.975036513221092e-05 -0.06634388999036411 0.05624194051827059
0.217 -0.2746948732299428 0.10189384685688892 0.005185837329952112 0.0006869776360876889 0.00011249557662601348 2.1293397641477357e-05 -0.06329392211153301 0.06001450153614655
0.218 -0.2686598070119031 0.11672950174748604 0.005306475464211704 0.00031439140665789314 1.7964526422880389e-06 9.179965403116217e-05 -0.060701233984045116 0.06370429871603295
0.219 -0.2649009115964397 0.13211982470827618 0.005450609215831023 6.218860131201022e-05 -6.239678425416751e-05 5.6661722434977175e-05 -0.057172740855631066 0.06733012419565655
0.22 -0.25942066441741096 0.14742759974288255 0.005629838671931622 -0.00033490978403674356 7.479861308809272e-05 1.9071765694155308e-05 -0.05432693768271837 0.070900276890389
0.221 -0.25142812840808754 0.16022558484523222 0.005613291655852201 -0.0006045427218607525 -9.713595526458332e-05 -0.00010177469775487411 -0.05043846300549497 0.07362474697900369
0.222 -0.24525891042167508 0.17448776593009938 0.005768449345913267 -0.0009373827556421586 2.636067562770938e-05 0.0001946878512811448 -0.046420137918214296 0.07672192824527768
0.223 -0.2367163564539851 0.1868739523599989 0.005879029247369043 -0.0012876940563594766 -0.00017521184032148542 -1.3765432359707808e-05 -0.04248349460916184 0.07923397680152618
0.224 -0.22820671479202914 0.1993625262209425 0.005923422126781339 -0.0016698693991971628 -2.2123215656555715e-05 -3.2458985027581827e-05 -0.038156860839155565 0.08188594663475769
0.225 -0.2179595544930235 0.21209522860488947 0.005833831321946334 -0.002249557502206911 -0.00010784444321013621 -7.646730638126155e-07 -0.03368590295262352 0.0839517394478828
0.226 -0.20692139224273218 0.22464386506303816 0.005963028185309022 -0.00259533670431121 -3.833069939383102e-05 4.1344349181638445e-06 -0.029636083535200863 0.08633704971413081
0.227 -0.19715089284556825 0.23573756170118584 0.0058300289972840445 -0.0029409445741082688 5.7906994044702845e-05 5.7146118127097274e-05 -0.025252468455957962 0.08786231625066945
0.228 -0.18521885511198652 0.24722853625693383 0.005735946229909249 -0.0034510298580599946 -5.06373392647852e-05 6.289931846077469e-05 -0.020762665178329608 0.08957072041906099
0.229 -0.17423336207341783 0.25627136137381734 0.005546181384898387 -0.004000721978204588 0.00012418788382500108 -8.903706630678844e-06 -0.01578660322345112 0.09116491711196666
0.23 -0.1618633014639785 0.26715297080509287 0.005330645710708453 -0.004340190507814067 6.553874021300275e-06 6.293371800943891e-05 -0.010483882730944243 0.09207166650367495
0.231 -0.14660072846815067 0.2775849550661965 0.0052710259971621085 -0.004872819541889894 7.89139197485946e-06 2.021105383870255e-05 -0.005745575399149859 0.0926947239063162
0.232 -0.13094626268770665 0.2860423571780051 0.005067344279481486 -0.0051964557599735 -4.359694335102447e-05 5.280635239632155e-06 -0.0010012550692509677 0.09353864769097665
0.233 -0.1191363008980351 0.29504642092923117 0.004692315711899966 -0.005788876357342072 -6.162586092361466e-05 -5.5992328730327846e-05 0.004033651410216715 0.09385409593062075
0.234 -0.10453724046760277 0.2994142657824732 0.004554435844510307 -0.006248464067904578 7.641474754220574e-05 -2.3983265858203007e-05 0.009284663766772032 0.09400595304307909
0.235 -0.08805347945370215 0.30644805865303604 0.0042611445513604735 -0.006531325218264877 1.7183740781373093e-05 2.630136410537614e-05 0.013939014455268378 0.0939692025285833
0.236 -0.07315424983559331 0.3143228297894534 0.003952981141442642 -0.007037719818672903 1.983307570980226e-05 6.121027936750061e-05 0.019804962431117693 0.09326882043760437
0.237 -0.05585957841051993 0.3176818930466022 0.0035572946691748747 -0.0074254262037526456 6.25907375385248e-05 -3.641325642677386e-05 0.02414431092038731 0.09226838308781317
0.238 -0.04034454882081772 0.3222216519716568 0.0031619420511425408 -0.007613042557373935 2.505244031217598e-05 -8.105262631758121e-05 0.02955281528696229 0.09110212663650165
0.239 -0.02240813269807769 0.3255541900664776 0.0026775508141360857 -0.007969839263227186 7.930837182584843e-06 -9.981377071524709e-05 0.034316070935201656 0.08978041038507731
0.24 -0.006204919255574179 0.32852417195585326 0.002349547566605748 -0.008291903620127992 -7.703293057938527e-05 -0.00012511201093148966 0.039193240386944675 0.08772346435822802
