!Created with skrf (http://scikit-rf.org).
# GHz S RI R 50.0 
!freq ReS11 ImS11 ReS21 ImS21 ReS12 ImS12 ReS22 ImS22
0.13 0.15386296560643514 -0.10921215505141955 3.5828273027179813e-05 -5.942159792225067e-05 -0.00012697161767254798 0.0001065123379382106 -0.028194391651080144 -0.0471196014202467
0.131 0.15055404248897764 -0.11684252644805132 -6.957854252341098e-06 4.142234557444776e-05 9.280919376139126e-05 -5.1608462516223615e-05 -0.030687941925275044 -0.045799210241770284
0.132 0.14574496700523928 -0.12458110508504486 -2.8748686492239916e-05 0.0001517058801442418 -5.318087110643954e-05 -1.9784392417191673e-05 -0.033314330668403704 -0.044272377612200334
0.133 0.14080973345377473 -0.1318917181970679 2.7349531691622535e-05 6.539618766627845e-05 -4.459253703463436e-05 -7.877944251802701e-05 -0.035621780840849784 -0.04323669355423221
0.134 0.13638555343213862 -0.13834288617104792 -4.8855550420537035e-05 0.00010718435548801779 -3.710448283891213e-05 9.115617121402937e-05 -0.038084667726081704 -0.04160765918165454
0.135 0.13127692263407686 -0.14581778429458758 -7.513624079995222e-05 9.841867010613014e-05 2.227821682694478e-07 3.551808167265958e-05 -0.04036501599467051 -0.04023313745678178
0.136 0.12591951761041795 -0.15141226192333593 7.935068836439098e-05 -0.00011874793437268218 -1.8458683696171484e-05 -4.11332169380549e-06 -0.04274399657869636 -0.03803544583619337
0.137 0.12038870877488174 -0.15646248617622324 0.00019905969889439182 2.2186777346618202e-06 -0.00010787106267435889 4.667648463799548e-05 -0.04494108828084825 -0.03622041223923689
0.138 0.11279041897997497 -0.16350140492079204 1.4839310118318986e-06 2.11383599400057e-05 -0.00010426281737375945 -4.0856871349423384e-05 -0.046938508027983245 -0.033761747605441955
0.139 0.1083583323341735 -0.1689424863789947 -6.538948130411102e-05 -5.450463492443119e-05 5.936866060258991e-05 4.722817239008787e-06 -0.048878790752511427 -0.03184659076231755
0.14 0.10150826001442428 -0.17489376635735224 -3.675959298943664e-05 -8.039995220758001e-05 5.522315810932276e-05 0.00011215491939300686 -0.05046542680531586 -0.029430567060332136
0.141 0.09454988573343877 -0.1797692558516973 3.701376952094659e-05 5.265839841488748e-05 -9.54759567701924e-05 -4.1793062472091835e-05 -0.052440859832474374 -0.026819104448602984
0.142 0.08700432313723494 -0.1844429673468511 0.0001588088086719014 -0.00010329335012104005 6.74485621880843e-05 6.77897076933724e-05 -0.05394293009067281 -0.024467824575674806
0.143 0.08119944493572707 -0.18903235958604142 3.931818898408244e-05 1.0452720020227003e-05 -7.491324368087186e-05 -6.596869966967039e-05 -0.05536558270022054 -0.021765491201961258
0.144 0.07242210569380322 -0.1940242593435586 4.9360849944682345e-05 -3.726998864536523e-05 0.00011270914513923251 2.4188065792182472e-05 -0.05690042645806955 -0.019159474480832828
0.145 0.06628051477239519 -0.19768838085896107 -6.865087825905367e-05 -3.452075776180845e-05 -5.190337417466396e-05 0.00010140421849323524 -0.057922892471291225 -0.016378584497024586
0.146 0.05697237200322683 -0.2017981282214803 8.645993519691975e-05 -0.0001041227167052316 2.8571264048624838e-05 -7.591202759477218e-05 -0.058992907715984574 -0.01344177727436345
0.147 0.04805825523714599 -0.20535077601731508 0.0001078676429960439 -8.824198570746011e-05 4.9789668183500866e-05 -0.00014307694973380322 -0.0604439692665978 -0.010267420687553212
0.148 0.04109946326467863 -0.20953108345890706 -2.6619201134153316e-05 -7.932269785560742e-05 6.100039292372607e-05 -6.017424869162743e-05 -0.06089901212825603 -0.007595492319728082
0.149 0.03042100349779178 -0.21163859715896038 -2.4157399058819575e-05 -4.419017100797343e-05 6.976189202115986e-05 2.5426933661776526e-06 -0.061550201985600024 -0.004599287745134602
0.15 0.021997135906243446 -0.21478073718448107 2.626216694045328e-05 3.734346658323343e-05 -1.953060484846492e-05 -1.1240520234133312e-05 -0.06182041483870906 -0.001703179913896133
0.151 0.013715186342630893 -0.21625558321824573 -0.00018368781024919188 -0.00014214619113501822 -3.535731336845639e-05 1.260212552375497e-05 -0.06258393190433204 0.0015448880255917407
0.152 0.00498872133089405 -0.2177391837514707 7.555010344788491e-05 1.4371653498231625e-05 -8.665675082547343e-05 -6.404950907101993e-05 -0.0626432406400817 0.00461225499722944
0.153 -0.004084691593825974 -0.21863555295119594 0.0001955715128690181 -1.947585767542498e-05 1.8692382953117904e-06 -6.434214466956626e-05 -0.06270782691144275 0.00779504361592029
0.154 -0.01406272043948751 -0.22054515297961452 -1.6590015668201978e-05 4.756901647580463e-05 -5.122370275998077e-05 4.417368963048553e-05 -0.06254451720872875 0.011037079427900005
0.155 -0.02333907887462964 -0.22017913803555725 -1.7948522628740982e-05 -3.6477469968500866e-05 -0.00010673199893331059 3.1678789715797195e-05 -0.06226709319506979 0.014027142661033894
0.156 -0.03193775953008977 -0.22080089208710055 -8.779872506414436e-07 2.7925878725248274e-05 3.7342076019789336e-05 -6.328568814096174e-05 -0.0620365231514016 0.017441331186589058
0.157 -0.04396206770839321 -0.21937033077294565 -3.7027542416903544e-05 -8.80312765123513e-05 5.231704330983868e-05 -9.386863108523885e-05 -0.06132629185801552 0.02065905958619932
0.158 -0.05127423532612499 -0.21976769299238594 -1.2680973045201353e-05 4.783442248186811e-05 2.3035029765806365e-05 4.628011095342879e-05 -0.06041595999853983 0.023703368626789473
0.159 -0.062354831345918155 -0.21863807126257243 -2.6355763886628757e-05 8.866471091441924e-05 -1.7117662517850102e-05 4.567880718893613e-05 -0.05955683148965324 0.026750285260775792
0.16 -0.0709711576537145 -0.21756842761787754 2.592055139833011e-05 2.324474313370158e-05 -5.1707288777263995e-05 4.378555585409509e-05 -0.05854383066888896 0.030162154979113374
0.161 -0.08135169635822782 -0.2153887146343642 -1.5113759628263645e-05 -4.340271130352917e-05 7.752013607480163e-05 -2.662140309534183e-05 -0.05714779383251042 0.03315032505251382
0.162 -0.09003165966905537 -0.21319155408626808 -4.570724071832144e-05 -6.779367663678942e-05 -4.648233872338779e-05 -3.524606599451851e-05 -0.055697358581339 0.03620268839294584
0.163 -0.10201679437619085 -0.21113472373635642 -5.327819487612848e-06 2.0554893952129854e-05 0.00011732116751504097 -3.285820691217746e-05 -0.054227520970727985 0.039195611647742976
0.164 -0.11023994698584111 -0.2072970899365701 2.8515773823273434e-05 -0.00012347697865502477 0.00010342514310177127 -6.599817804334397e-05 -0.052579364129725144 0.04183522158244907
0.165 -0.12055166586743894 -0.20354390919759638 -4.7150839752205904e-05 1.695065838145983e-05 6.296209088198249e-05 -1.727674148101498e-05 -0.05067717737198667 0.04503286104797095
0.166 -0.12826996299062962 -0.19864319635860583 -4.847718533977201e-05 5.153276570143754e-05 6.983613468097093e-05 -1.881591101107636e-05 -0.04863442107378514 0.04759777222034288
0.167 -0.13894635483423579 -0.19454299804423586 -9.686835476813198e-05 0.00012419514131117995 -6.284619789159153e-05 -5.318852475754962e-05 -0.046543338316374666 0.05048823700485576
0.168 -0.14731773380683558 -0.18911557469719886 6.363927781604994e-05 1.24524160252983e-05 -2.6942545723887794e-06 -2.8101387878268415e-05 -0.044176946536108666 0.05301399819472132
0.169 -0.15705137049069676 -0.18444299881628143 4.232284434668931e-05 1.7690638948550185e-05 2.532763976271102e-05 -8.908392420301375e-05 -0.04149004283260472 0.05579960095462289
0.17 -0.16506469021712086 -0.17807822607530094 4.372101501642642e-05 5.337059899655258e-05 2.483270650868755e-05 1.0095154157524901e-05 -0.03910634032136505 0.05790086669770482
0.171 -0.1735266670072523 -0.1714101347373771 -7.509495829116636e-05 1.417237226896425e-05 -2.650455652181282e-05 -3.132576576568264e-05 -0.03615413757500681 0.06039421039539422
0.172 -0.18176232645683918 -0.16528229322612706 -5.045792177422119e-05 3.785046277344715e-05 -8.329141054020521e-05 -4.338763755416287e-05 -0.03341413492306308 0.062298739498030546
0.173 -0.1899632036682881 -0.15838550327467993 -4.568499237786272e-05 -0.00011586227085808745 4.0371410450982844e-05 -3.523713364744345e-05 -0.030492051683504873 0.06444728899832937
0.174 -0.1982726961707394 -0.15030124830857655 -4.1390760917338736e-05 8.709823361223753e-05 1.4264950589988917e-05 1.2012037576088672e-05 -0.027224363683311693 0.06626144554326488
0.175 -0.20519352188784246 -0.14305349343978602 -0.0001175516168574528 -0.00015090404260312206 -7.664464822003176e-05 5.478054763919427e-05 -0.023896423988959893 0.06789302956685425
0.176 -0.21245488368937793 -0.13469796957911787 -4.564475201967046e-05 -1.8167136789382817e-05 2.2578458162617355e-05 -3.619680245429816e-06 -0.020613470633834313 0.06985215020969181
0.177 -0.21990619412702586 -0.12532897410019803 4.974734730024621e-05 3.2294251486677016e-05 -1.3228045410249797e-05 -5.108837404287885e-06 -0.01710299554551601 0.07058160468114794
0.178 -0.22442680994737355 -0.11647937847089998 2.1729247173579173e-06 1.4207900583177266e-05 9.104446846955748e-05 -8.262539639855947e-06 -0.013720705303435634 0.07170863279415574
0.179 -0.23145049827566577 -0.10700642601059086 9.721140024622104e-07 -3.485330028088135e-05 8.720668494007078e-05 6.417057604169973e-07 -0.009955717293504515 0.07245073462925941
0.18 -0.23659377495001255 -0.0972830041701658 9.065178392917225e-05 2.1849378892748845e-05 7.564389402678848e-05 3.683495866092244e-05 -0.006468016014256178 0.07381383819820847
0.181 -0.24178185323512166 -0.08740450622905772 3.8106910182613365e-05 0.00011537767252659411 -1.9050836135540385e-05 3.1533117035905634e-06 -0.002855486555033537 0.07422487911335848
0.182 -0.2467488153461943 -0.07816966122897438 -2.3919903901895867e-05 3.2823994164973314e-05 -1.4779250032955273e-05 -2.6072443266894914e-05 0.0009638205022086792 0.07519295034290154
0.183 -0.2503539480066183 -0.06865789995580669 1.7866151183603883e-05 -0.00012435482371225134 -4.545735447503912e-05 -4.9513035146501356e-05 0.004843061619058681 0.07530677067786598
0.184 -0.25456847460518556 -0.05800447662609747 4.991489330053552e-05 -9.659217014642208e-06 -4.394607424793711e-06 -2.770977725160526e-05 0.00854463893804321 0.07531488036865669
0.185 -0.2571844879282949 -0.04733994710422435 -6.0661646043766004e-05 -2.6062299932160866e-05 5.849352646048642e-06 1.3256872180662658e-05 0.012693762046065371 0.07485139107166457
0.186 -0.26054961352660533 -0.03582116312059856 -6.473610818432062e-06 1.3432884432580103e-05 8.645990448892142e-05 -3.594760473294665e-05 0.01657252236335985 0.07548411483652699
0.187 -0.262681196711067 -0.024534386358099406 -0.00015056917247049798 -9.693644384844489e-05 0.00012530436049954796 3.65785089184128e-05 0.020147774897986935 0.07436046866294346
0.188 -0.2645829011506016 -0.01401091037445969 9.190348123724651e-06 -6.915175530764396e-05 -5.708847805385556e-07 7.203545805645168e-06 0.02397768329037 0.07400166843832574
0.189 -0.26561391539217155 -0.0024266386299402953 -6.242721070749816e-06 3.4362128538246996e-05 1.9500728745762828e-05 3.238210833836084e-05 0.02802146540467597 0.07270195710221045
0.19 -0.2669626836760896 0.009176761984937127 -1.3861443596113379e-05 -1.2755937816645974e-06 -9.046316232154144e-05 -4.1599439438713356e-05 0.03195569005410098 0.07132822088697538
0.191 -0.26763631925700254 0.019852119698403725 -1.5603770310616363e-05 -4.321906368822914e-05 8.94938298030411e-05 -7.953441327270578e-06 0.0354406969727008 0.07029516772542067
0.192 -0.267281577904084 0.031265364726451986 8.790185463739712e-06 -0.00017408454953295326 -0.00012389147661376183 1.1980543495826407e-05 0.039173327178462516 0.06910664263467686
0.193 -0.2666864832542877 0.04190357100128539 3.127741216077539e-05 -1.8285483559979753e-05 -1.885080249171629e-05 -1.837366067693124e-05 0.04349256680571697 0.06727854370712504
0.194 -0.26594917221369874 0.05339082665146874 5.921602215036285e-05 -0.00010634924041222514 5.450304880186406e-05 8.34345683055737e-05 0.04652057308085944 0.06465368350501398
0.195 -0.26470343038223654 0.06500209036315734 1.3666143452724381e-05 -6.180349278656957e-05 -2.2070064346449065e-05 -2.4484420991313453e-05 0.04997618177700446 0.06302246699118008
0.196 -0.26305924020759686 0.07616912297247502 0.00010381127675911789 -8.123170675030522e-05 -1.3847681936000466e-05 -1.905696670694822e-05 0.05318768899641571 0.06063642541200528
0.197 -0.2604017984563732 0.08705026632592293 3.4619377230883346e-05 6.595330645733169e-05 -8.520613073088289e-05 -2.1602501684261578e-05 0.057105664893403726 0.057688731404593685
0.198 -0.25796377454271796 0.09809590938766653 -0.0001419703787306793 2.3260467655223473e-05 -7.2441235084327e-06 -7.693713419430763e-05 0.05989673189706269 0.05533768515800627
0.199 -0.2541922584495442 0.1097437720890344 5.626639997467706e-05 3.949255998475709e-05 4.8478579950367426e-05 -5.0838770368214746e-05 0.06288729285527236 0.05245167195594833
0.2 -0.25017014510272145 0.12007962375853448 4.104221324563818e-05 -7.345050366430783e-05 4.086256301845425e-05 -2.100244181185632e-05 0.06565612300123495 0.04941230428826805
0.201 -0.2455006004748338 0.13079272984708712 3.8169769091966945e-05 8.033445473988519e-05 9.774717713436125e-05 -7.354291513614921e-05 0.06835357375281068 0.046271373020155646
0.202 -0.24175669974813904 0.14182895118525857 0.00014040944164176114 -6.896579881075214e-05 0.00013574705898166618 3.4077873609108996e-05 0.07109817963743491 0.042715148423236676
0.203 -0.23640194991651764 0.15278900155206834 6.235419747350771e-05 0.00010346299474218777 -8.394456805279834e-06 3.684136446630293e-05 0.07383765494444865 0.03919401563472393
0.204 -0.23015452025384175 0.16143670480130562 8.109077860980797e-05 5.5257260509275416e-05 7.45099796394302e-05 -1.2143194623702385e-05 0.07578660851589082 0.03607544766133944
0.205 -0.22486417328421057 0.1719119255058072 7.28383288224763e-05 9.004822265712611e-05 2.8034719231409865e-05 5.2376239374361514e-05 0.0778083277908283 0.0319236057298917
0.206 -0.2198083101601147 0.1817503962484166 -5.315214533203138e-05 0.000107044981696786 5.490050350538218e-05 -4.448544632075698e-05 0.07983984654832686 0.028260521448973303
0.207 -0.21155348051887587 0.1909542220203856 -0.00011209030679303663 -3.725014034172631e-05 -6.912691923687037e-05 -9.888229100031022e-06 0.08156180315526959 0.023736903709685408
0.208 -0.204831907219937 0.19959285134730917 4.634348959434741e-05 3.17650106442499e-05 6.1942790090522904e-06 -3.66927547921121e-05 0.08287943088616558 0.019951384157052787
0.209 -0.1978401701923619 0.20985114369242022 -1.8156074868267327e-05 -3.6303815140726885e-05 1.4956894868739545e-05 4.7279807865912695e-05 0.08428397418411172 0.015393135344887102
0.21 -0.1888671866272625 0.2186479823693649 -5.469781569773849e-07 -9.783949545200594e-05 -4.106230034437031e-05 -2.1127226255529767e-05 0.0852480493092373 0.011706840524407265
0.211 -0.1818246530450095 0.2269288997572243 -0.00010580093114425818 -3.0509740797243686e-05 2.3797442472144125e-05 -8.237650103558189e-05 0.08622882687054163 0.007244241066096913
0.212 -0.1719272966440193 0.23478121262907545 -3.687915995313667e-05 8.798045128859447e-05 -0.00011826191747150247 -1.652197607608115e-05 0.08660254856702623 0.0027761536728992957
0.213 -0.16474064397980231 0.2425578682495957 -5.433747021407049e-05 -1.8519482542983385e-05 -3.987839701627871e-05 -6.50159167991001e-05 0.0870240905840419 -0.001850458639005921
0.214 -0.1541924690903825 0.2510809925939359 -5.733537872520095e-05 -4.701233235408268e-06 1.2014391232559786e-05 -8.734401246968353e-05 0.0872795221916546 -0.006175311168052378
0.215 -0.14475645300062634 0.25843991465190824 -3.66525863219632e-05 3.875055517405818e-05 -4.753805327378118e-05 2.2793955308158927e-05 0.08742576061685021 -0.01091306118696666
0.216 -0.13583157667400336 0.26444155422125276 5.243793785185257e-05 -0.00014983092979959368 -1.9516705952354822e-05 1.05760417363533e-05 0.08669251733080703 -0.015318988228516153
0.217 -0.12513724276470073 0.2712977044631077 -6.600185351707282e-05 8.574868153085614e-05 3.534538837951783e-05 -3.4288997888250324e-05 0.08611743281084709 -0.0194709565883699
0.218 -0.11550173618625716 0.27772055971699816 -9.113066239461436e-05 -3.5926033862051104e-05 -3.062013336635632e-05 -2.3132894242309418e-05 0.08555997801883189 -0.02406036814031235
0.219 -0.10318495943784783 0.28428205129044654 -5.2018207442078884e-05 3.7641932437255054e-05 5.111328512886624e-05 -5.780481599183534e-05 0.08463070002981779 -0.02862372666735405
0.22 -0.09103857067816594 0.28873745757744707 6.585978955304054e-05 2.6494244126749975e-05 -0.00011848160337663085 4.794486197220001e-05 0.08340466690724885 -0.03304954399171334
0.221 -0.07947589886240289 0.2945188415988914 -0.0001159835468124797 -9.379076973106661e-05 4.525629182074495e-05 5.6427564802172114e-05 0.08185306014503597 -0.03740878745183633
0.222 -0.07141441915235625 0.2985382267476989 -5.3302727484821684e-05 9.323092050577717e-05 -3.883324483429203e-05 1.341283212353481e-05 0.08033832075943584 -0.04163196510588902
0.223 -0.05737731065051828 0.30232747774142277 -1.7940404287462697e-05 -1.5458441326042734e-05 6.919581605626069e-06 -1.1513947965763912e-06 0.07842854731692175 -0.04592467421530893
0.224 -0.0440938389123879 0.3084024848399525 -8.991827535721168e-06 -3.57731913887293e-05 1.79127692740371e-05 -7.409998241550265e-05 0.07611775756394239 -0.050265649852390286
0.225 -0.03280788921725005 0.31112595627059564 4.858750040644392e-05 -1.698424084760359e-05 -1.8266042713563132e-05 -3.232624687967191e-05 0.07372923698611213 -0.05392151470726411
0.226 -0.01924319858995393 0.3132216966232982 -7.857279857720785e-05 -2.0503295197250016e-05 1.3909331744689003e-05 1.8988932316463223e-05 0.07128834409158424 -0.057978057471558535
0.227 -0.008840880206805936 0.3139014040427531 -5.927753910476806e-05 -0.0002215893226515702 -6.229627711022054e-05 -1.0756936418425416e-05 0.06849953299973659 -0.06177880644004182
0.228 0.007524313698036195 0.3170799259520001 -2.7344565741252905e-05 3.98505810976433e-05 -1.7838154438129292e-05 1.0098764940760045e-05 0.06553603802755877 -0.06513070196170054
0.229 0.018189753559290436 0.3161427942944173 -2.5925562119122303e-05 9.58920267488264e-05 9.564773406579895e-05 -2.2950058157708035e-05 0.06255325388388908 -0.06872441783892126
0.23 0.034155969830077626 0.3197292340156998 2.351194649650051e-05 0.00013484764945416818 -1.0525461682256358e-05 -9.827362660620284e-05 0.05893055692738141 -0.07205718587152218
0.231 0.046827818415147354 0.31762681724079667 -0.0001399109854332615 5.768500231835282e-05 1.5031381216984065e-05 4.572312382133412e-06 0.05543265842651431 -0.07505196306341563
0.232 0.05685339953783135 0.3166219182279396 -5.1477373585927285e-05 -1.1397531624434265e-05 0.00013492857792037405 9.012313211747964e-05 0.051985323481705516 -0.07800283973201078
0.233 0.07344668128951548 0.31694927243353055 4.140971507848526e-05 -5.9457861711336364e-05 -4.480153093897227e-05 -3.554706788124195e-05 0.04812288441515254 -0.08127773893426125
0.234 0.0853814601725927 0.31359678087971515 7.217614192846008e-05 3.399387154464708e-05 0.00010137699020047126 -4.424443319447943e-05 0.0440737082371665 -0.08378420235762783
0.235 0.09949588723282188 0.3136211022416027 -5.124075666548909e-06 -2.1420498568349316e-05 -7.105920690535202e-05 -7.33234119338754e-05 0.04006073578976021 -0.08595642079945055
0.236 0.11436711274567264 0.3097454694248248 -2.2954901299506492e-05 -4.361565726340103e-05 6.544718387941651e-05 6.667223841489391e-05 0.0355237879274881 -0.08801082640914822
0.237 0.12383673444907335 0.3037604413447532 -7.940009347360008e-05 2.8019612142780632e-05 -7.395529788653935e-06 8.463201194142554e-06 0.031356055468937716 -0.0901056170056223
0.238 0.1401852839905039 0.3010032726591303 9.807089035728909e-05 0.00013330341545633208 -3.1173834497320544e-05 -5.877437831106759e-05 0.026972347934819063 -0.0915612014692387
0.239 0.1517295824889225 0.2955410492254067 -3.4707375585836325e-06 -2.707721986655269e-07 -6.0156415860335654e-05 -1.8122918747863544e-05 0.022180893136702448 -0.09294821765502799
