!Created with skrf (http://scikit-rf.org).
# GHz S RI R 50.0 
!freq ReS11 ImS11 ReS21 ImS21 ReS12 ImS12 ReS22 ImS22
0.13 -0.06668594711500966 -0.17461180029856474 -2.1162998861518463e-05 -1.4119803282110154e-05 -2.3798255683290083e-05 8.812834768132587e-06 -0.04326919811579252 0.03200839289558293
0.131 -0.07676568892919511 -0.17340394721465519 0.00010541704910201627 -3.262651486150489e-05 5.5636339424835576e-05 -8.979099479657664e-05 -0.04155916156522804 0.034775820996739544
0.132 -0.08400194651063556 -0.16987171095790662 0.00011570253390083288 -5.824470484952267e-05 -1.3209339642862136e-05 1.8652983405073194e-05 -0.039778150623592835 0.03740932526524475
0.133 -0.0948550888405787 -0.16746927039278017 -3.668050602195025e-06 5.0192959046035285e-05 2.1869302999169453e-05 1.7692138206535337e-05 -0.038007194305791914 0.039876630825924644
0.134 -0.1021864268453275 -0.16146740546318666 8.491196748838593e-05 7.161042834245858e-05 9.38131639466156e-06 -8.582238549551988e-05 -0.03599338065683627 0.04223604066781377
0.135 -0.11251871165072369 -0.15888831068972387 -5.9133963001513145e-05 2.5597209677269575e-05 5.102345599463669e-05 -0.0001190959728774472 -0.03342802971716307 0.04477829531587988
0.136 -0.12096592944540349 -0.15417829628729837 -0.00011847565400778805 2.943636604931472e-05 -2.1910864728804063e-05 6.637070728819892e-05 -0.031092895452344036 0.04692061804476157
0.137 -0.12946265218846137 -0.14897076485458424 -1.3268624449862242e-05 -4.3733303071469535e-06 7.256098438469803e-05 -0.00013620962476875324 -0.028672192991761887 0.0490573636851497
0.138 -0.13715230888260324 -0.14401624814751743 -4.4156587737225786e-05 2.211347816831486e-05 -9.38941819046052e-05 -4.9694741557117e-05 -0.02582131077450243 0.05098615024559436
0.139 -0.14592282618792948 -0.1374581316293769 0.000144103050265227 2.5039673688968525e-05 -5.909970960008982e-05 -9.834324630262611e-05 -0.02300142831866761 0.05297866365638049
0.14 -0.15360206347429273 -0.13093520753470614 -1.7656234665311497e-05 0.00014109388738876017 5.097284710155456e-05 6.136899237483962e-05 -0.020002578916489967 0.05450527237136245
0.141 -0.16039884260353224 -0.12422904005177621 0.0001024664532571608 -1.1786489151693434e-05 -2.152910944472977e-05 2.994886013919603e-05 -0.016888345681920384 0.0559617184731872
0.142 -0.16839123856242258 -0.11647737234893947 3.171636388036207e-05 -7.049754050520052e-05 0.00010000220813734301 7.793832537092013e-05 -0.014012077631806508 0.05709400884209151
0.143 -0.17443299113444985 -0.1088986407037813 6.9531962445858665e-06 5.343396163032651e-05 7.317951332817359e-05 -4.296166655945265e-05 -0.010902547548422199 0.05822651028973433
0.144 -0.1812216313551802 -0.10090550806811086 5.779062353019903e-08 2.9229501874477514e-05 8.498602683228281e-07 0.00016620537916923605 -0.007352485854999004 0.05931279522465702
0.145 -0.1871054481535485 -0.09315995164610652 -3.59557165309727e-05 -1.914315596859535e-05 -6.67173360194253e-05 -1.5853940317592896e-05 -0.003993699706686572 0.06005373789733681
0.146 -0.19329856901122017 -0.0838293200672501 0.00010649646944143102 5.162696060144572e-06 -8.395820033325639e-06 -1.2456472366141611e-05 -0.0005822082416848 0.0605631500965056
0.147 -0.1975635475792427 -0.07574483113733542 -4.796300287856155e-05 3.6194009453473993e-05 1.5439897632045444e-05 -2.1326014720147548e-05 0.003217622608044294 0.0611565642111584
0.148 -0.2023542939929923 -0.0652307046994472 7.345308766955257e-06 9.033818498501765e-05 2.3554786872113764e-05 6.411714071289249e-05 0.006456460505734119 0.06106864153515961
0.149 -0.20642075618949923 -0.05591405911952444 -5.687736404605631e-05 -0.00012182207900530921 -2.094485976505611e-05 -4.30923575850987e-05 0.010239015492065077 0.06105807545824998
0.15 -0.2114731160914967 -0.04537210159239421 4.075180690460398e-05 5.641698168260633e-05 -2.2212890156514234e-05 4.24442227229349e-05 0.013701670484010739 0.060938567755856474
0.151 -0.21473491449067117 -0.03518223010754051 0.00015779928468023598 9.246969452937925e-05 -2.182381540376595e-05 -4.193711982262332e-05 0.017333161884439046 0.0605882043373751
0.152 -0.21732612475953475 -0.024581093377991855 0.00023445812961473775 -0.00011449141248160898 4.366356784607202e-06 4.206722537262821e-05 0.021074399567611778 0.059641461530327004
0.153 -0.21975432805883316 -0.014584027792905267 9.26197741503081e-05 -0.0001396124389339448 -2.1878880203949755e-05 -1.7870820731336063e-05 0.024531529595071447 0.05871420868582699
0.154 -0.22130977358186296 -0.0028971036340691213 2.1633720289022475e-05 6.807710411841372e-06 4.8184223738499485e-06 -7.87805094352517e-05 0.027621738456956976 0.05764698099674463
0.155 -0.22297167970578316 0.007299337011654397 0.00010441003671754991 -4.01793389884591e-05 -4.0922410930708487e-05 8.100985926357584e-05 0.031226011673600878 0.05615701624014493
0.156 -0.2233233401259456 0.018342126790515917 0.00014825321325673312 4.0968707327556625e-05 8.585557397457063e-05 -2.2734593961680668e-05 0.034689914162167095 0.05476896835461261
0.157 -0.22354965029454202 0.02949289238056253 -2.3132958366838437e-06 -3.752812488604662e-05 5.862166894374311e-05 2.6479284318933795e-05 0.03779937298701307 0.05294312354176017
0.158 -0.22237433079154037 0.040775716614934815 7.563794359520323e-05 -4.145950570700173e-05 -9.846978443654419e-07 3.8000106094720854e-05 0.04156940881908164 0.05104511265679082
0.159 -0.22287717783109434 0.05167937006400995 8.69640839494078e-05 2.0900961905502515e-05 0.00010264426221241486 8.691280349323916e-05 0.04433399053599716 0.04937310470532117
0.16 -0.22025431709465473 0.06341700566176028 0.00015416303083331867 7.91632796703731e-05 -9.236304314770262e-05 3.0233508648113233e-05 0.047206881026888026 0.046285801938344286
0.161 -0.2183533709948972 0.07428704056926824 4.126976947529392e-05 -8.595499602752038e-06 0.00011964152289996602 1.4622345932884184e-05 0.05064826750771745 0.04424049155277813
0.162 -0.21557127076035112 0.08505163060022439 -3.540877867520481e-06 -2.311023436904424e-05 9.02969849864336e-06 -7.168178649399964e-05 0.052853092730418536 0.0413775684778019
0.163 -0.21252226328420482 0.09650222625273225 2.921764198684034e-06 8.192186164135037e-06 -1.4563260209176283e-05 3.279984975443267e-05 0.055713467248659304 0.03867513146271399
0.164 -0.20875283382705648 0.10719084679264175 -4.923592514134686e-05 6.504255412636229e-05 6.363246242882963e-06 1.5288479975285106e-05 0.05826746663796202 0.03553581350600489
0.165 -0.20386318360452133 0.11907582652633887 -0.00011944534890276544 0.00012362179552780298 3.885632477772281e-05 5.875856941964797e-06 0.06054155693550482 0.032445094473189065
0.166 -0.1993461732605505 0.1281085148954036 -0.0002052257831895503 -2.8158050206410166e-05 -5.333261613705343e-05 -9.952328749025343e-06 0.06271203096130382 0.028558867695170704
0.167 -0.1930616125403698 0.13802750429955635 7.389590272935853e-05 8.880284977680898e-06 0.00011725762777070032 0.00012554592118098457 0.06495434810634762 0.025483942605807684
0.168 -0.18773750838456477 0.14833266541979478 0.00012812906869610175 -6.0309502035978024e-05 -4.999703818812875e-05 -2.6811687684350712e-05 0.06677447588812235 0.02199873179795302
0.169 -0.18043698101124273 0.15954945448701272 9.80239713183997e-05 -4.102826726916896e-05 8.906305415245952e-05 -5.047365054384587e-05 0.06846600781926779 0.017942015500260814
0.17 -0.17455241387469134 0.16732579441949383 5.1685998152126034e-05 -0.00012253031333352604 3.766292162114439e-05 -5.081152569040775e-05 0.06949405024834204 0.014391773007636385
0.171 -0.16686842565989185 0.1758426304973177 3.4923359696575176e-05 -7.654932203582581e-05 5.772258543505147e-05 -5.5745855570812604e-05 0.07089729387651551 0.010020038704869564
0.172 -0.15902703041474295 0.1844582062825832 4.348681629660204e-05 -5.221114349786564e-05 -5.071061532642011e-05 -6.227438313663937e-05 0.07157827250442646 0.006328062075683117
0.173 -0.1506574499473752 0.19405698273559796 3.56348862954129e-05 4.8291923408169484e-05 7.917961942134369e-06 -7.21166591233199e-05 0.07246066097934813 0.0020863981354669148
0.174 -0.1416443504572317 0.20164470828978626 3.8457961117742625e-05 -1.6975921091813193e-05 -4.4538414472542475e-05 0.00015796252749073207 0.0726617840490457 -0.0018464830580577414
0.175 -0.13214310728343653 0.2079859359546463 4.43639716024822e-05 -0.00011023721206811743 -1.2323740718571993e-05 5.4001109032445385e-05 0.07299701684817772 -0.006034266247747071
0.176 -0.12368010073180442 0.21646380124500925 -8.045166308324614e-05 0.0001061142839677877 -9.20759287390633e-05 3.1073654630839335e-05 0.07272206670699301 -0.010383523239885478
0.177 -0.11317117545701026 0.22346512947047845 0.00014344281483847707 -7.148742560230431e-05 2.937690970111784e-05 -4.831632506595989e-06 0.07249939834777808 -0.01450647137602334
0.178 -0.10230691424323834 0.22844250112645223 0.00010004011702122536 -0.00014369414829366458 -0.0001048448633840962 8.647546768971413e-05 0.07178329332861115 -0.01846264174749224
0.179 -0.09160776434360798 0.2344798378444795 2.24379653282818e-06 -3.58434991641198e-05 -1.4846099044850205e-05 3.262983358775155e-05 0.07109759694632956 -0.022678388088914158
0.18 -0.0811021472410189 0.23983208492685695 2.108160726021498e-05 -3.714925148056833e-05 -3.89731188823248e-05 -2.9854499407383594e-05 0.07021206888821381 -0.02680096124070035
0.181 -0.07028710801594232 0.24274499310888223 -3.86399508421232e-05 -8.569948650007096e-05 0.00020612560623433694 -2.497210075726123e-05 0.06889297114457729 -0.030644991374642477
0.182 -0.05997014126527994 0.25001888044593384 -9.936783336773304e-05 6.307595046955124e-05 2.2449475609595345e-05 -3.146392829293037e-05 0.06750273972107587 -0.0349366903173939
0.183 -0.048637823623852494 0.25335394487970136 -2.5940624912349978e-05 -0.00013345294606960956 -6.0231573201512134e-05 -6.07760721924745e-05 0.06563041777951806 -0.03876029090577751
0.184 -0.036097850672639105 0.25433277432560564 4.9712893088579935e-06 1.5960876899242199e-06 2.1863484210517443e-06 -6.335182417516698e-05 0.06362132200729403 -0.04280907251563292
0.185 -0.024445807714622902 0.2588733586267878 1.727428319159285e-05 -6.036682949494006e-05 2.271884455093619e-05 -0.00011540737972980912 0.06138749306481894 -0.04629161123511238
0.186 -0.01170261487591256 0.26029614679060026 0.00014004746118920656 -6.535751982044498e-05 -3.0886828738422975e-05 -0.00013851682079265917 0.05905549069262816 -0.050073700414519265
0.187 -0.00048524848251748346 0.26361039322651414 2.798063823820701e-05 -0.00015932117758639836 2.0932165213983284e-05 0.00012770500586311477 0.05627997243709147 -0.05364520045814158
0.188 0.012645533313912093 0.2621463486409214 -0.00014906052103833207 -5.402353166446812e-05 -1.656317843175153e-05 -1.1173662560247256e-06 0.05360542015254343 -0.05681713251206247
0.189 0.024085898175188962 0.2637033419526966 -9.89659540069584e-05 -5.887855543499379e-05 7.221737124957288e-05 -4.162253778330886e-05 0.05043402570774285 -0.059959503596553596
0.19 0.037173650111029674 0.26307259267067495 -5.519772308328173e-05 -3.289016705850776e-05 7.228216564512938e-05 5.573859291377046e-05 0.04718087047133491 -0.06290955892991129
0.191 0.048273523269060696 0.2634668488080649 7.975338170569517e-06 -8.482702328158312e-05 -8.432266052533397e-05 9.285744644587052e-05 0.04403128214415207 -0.06572757415830718
0.192 0.06239350222489401 0.2613787505824937 -2.1584122513814406e-05 -6.841056807183204e-06 1.7952579521631465e-07 2.3938042281354816e-05 0.04017759576493986 -0.06789011555233208
0.193 0.07357047832768795 0.25943887001236127 -5.133715221792001e-06 -2.370681095753105e-05 -3.3370392047960847e-06 6.608813535699613e-05 0.03647192156172335 -0.07113599501287053
0.194 0.08604231834743611 0.25797140585505157 -5.835379367803002e-05 -1.22289461791249e-05 6.938954048461824e-05 -0.00010986784990583517 0.03271341430399606 -0.07309966197949405
0.195 0.0975833390148177 0.25343830900537834 -7.266537164494431e-05 -8.866621098215817e-05 0.00010875401109088397 4.812376411253083e-06 0.02873921840468172 -0.07534379324041973
0.196 0.11066711547618564 0.25007508110623555 -1.5333857802232167e-05 -6.314893805665579e-05 -2.2265457551836376e-05 -5.034967344726053e-06 0.02470308989837989 -0.07672181176374128
0.197 0.12350430127359799 0.24709927627748315 3.5242634290978705e-06 7.442986610859839e-05 6.994464405976473e-05 -4.679416946331861e-05 0.020418498768022344 -0.07820419278596939
0.198 0.1355564034205908 0.24160884316769513 -0.00021681811176113179 6.322879338218788e-05 -4.0118835575955904e-05 -2.8492863424846497e-05 0.016496820202200564 -0.07974774371131559
0.199 0.1486492156118861 0.23620091494044312 -4.275365824456966e-05 5.953397710272627e-05 -3.8715052028013534e-05 -0.00011528900270057545 0.012195024476884723 -0.08080723407780412
0.2 0.15902255743462615 0.23151448664157476 -2.753719803911024e-05 -2.3042540650317143e-05 -1.6317524663188295e-05 5.791803188534278e-05 0.0072900643956822 -0.08159560994009363
0.201 0.17051241335532788 0.2237440845976106 6.0894131645915174e-05 2.698257811667169e-05 -1.4569790716833116e-06 3.800729814129476e-05 0.002854602678854167 -0.0819052261181888
0.202 0.18220013144992567 0.21625288389020844 -4.1000692844667604e-05 -2.0470120304888365e-05 -7.259211357372532e-05 -0.00017620349662951298 -0.0011585528690980411 -0.08208792460775162
0.203 0.1925799978294429 0.21065383302105567 -8.302918654198866e-05 -3.285000985955456e-05 -1.0661575611221317e-06 -9.535029534551508e-05 -0.006164545783188639 -0.08272503836558297
0.204 0.20193206602255853 0.20198714196111361 -0.00011183114664828025 -6.389653791008345e-05 9.34210063307371e-05 5.071934453456913e-05 -0.010961310440926833 -0.08247716487532751
0.205 0.21289441180421714 0.19324725924079697 4.4208861600791006e-05 -2.9896058087656538e-05 -4.974577237925004e-05 -3.921640483313954e-05 -0.015236225461045057 -0.08211358348173618
0.206 0.2233629905627146 0.1849461555398974 -1.8738531689287445e-05 1.3565499700592257e-06 -7.71474457359128e-05 -7.15336372639799e-07 -0.02000365946834108 -0.08189329242654812
0.207 0.23306698177801968 0.17401462111378427 -1.7961479570464882e-05 -0.0001733934195804293 3.829827791108366e-05 -2.871271984804594e-05 -0.02429406630621581 -0.08052137905807216
0.208 0.24188866389927138 0.16295209373133487 -1.692801932821143e-05 -7.143216390812014e-05 6.759945610993685e-05 -9.857340382091273e-06 -0.028817465543473857 -0.07975003990599483
0.209 0.2501981322231224 0.15280003767772524 -5.0506738377481784e-05 -3.089375986518579e-05 4.010825528337733e-05 -0.00019106315542741873 -0.032641675640255 -0.07815513648264175
0.21 0.2583724792421542 0.1417308088957965 7.79373286320683e-05 0.00012749412676640596 1.0790193239637769e-05 4.6077695588133363e-05 -0.0375493201461983 -0.07623418408951955
0.211 0.2670730110564497 0.1296409363983518 -3.208529188177538e-05 -2.7101387803989756e-06 3.445752652001953e-05 -1.2068040975013911e-05 -0.04186722433128908 -0.07497497962636614
0.212 0.27457070633395 0.1179371676541854 7.518519482690246e-05 -7.925571377968393e-05 0.00010825698661386771 -6.026037339495835e-06 -0.0454508704412212 -0.07300212546874366
0.213 0.28115522585729047 0.10570446038489408 -7.46057060715808e-05 -3.074787288341082e-05 7.823941061753938e-05 -6.345865773306761e-05 -0.050182541785555757 -0.07037362414702768
0.214 0.2879521743417525 0.09169829397611254 8.918503292582474e-05 3.5637617837445184e-05 7.952975413519439e-05 -9.854030791833365e-05 -0.053915065866909716 -0.06795152555431225
0.215 0.2933512550612631 0.07958473893879782 -3.8674752499781985e-05 -7.005242027826905e-05 3.832614911069778e-05 9.284962666783269e-05 -0.05816871014016638 -0.06492263516317039
0.216 0.2975546458349298 0.06561252895381416 4.671294037482994e-05 -2.2313189936327216e-05 6.552450553310188e-05 1.7008358149888497e-05 -0.061198189524146546 -0.06232670829305236
0.217 0.3020031335436336 0.051700222119308234 3.811211313205689e-05 -9.04889349795568e-05 -0.00011708806597499093 -5.3283000204771656e-05 -0.06455456423597082 -0.058798084826197444
0.218 0.3051774541934221 0.03680070530635065 0.00010160004286334681 0.00012605317438443308 -9.669929273503019e-05 -3.4243015508056974e-05 -0.06836778353693725 -0.05562603271374799
0.219 0.3086669846551979 0.021541144034401744 0.00011730887250006754 -8.710760824992912e-05 4.094600219602442e-05 3.1091366790826376e-06 -0.07167982239094117 -0.05221295697841739
0.22 0.31115722108854593 0.007548932258839955 -0.00011151373413769293 2.3432939240062738e-05 -9.493064895658748e-05 -2.4578356871605212e-05 -0.07464582281129617 -0.048201081662645376
0.221 0.3121369085685935 -0.007430637214729081 -0.00011200576173880637 -6.246568886821173e-05 9.46743331048029e-06 1.0985982517087948e-05 -0.0775572766006966 -0.04429958031133709
0.222 0.3126544594652405 -0.02247616294341346 2.6633599550881307e-06 0.00013240728620334707 5.3416230428295224e-05 4.632543748129607e-05 -0.08008340763433819 -0.04037905530708745
0.223 0.31283884832845216 -0.037885523125704985 1.525730690091291e-05 8.490282134074327e-05 2.5005604312550073e-06 -1.5513976327851236e-05 -0.08249497591089057 -0.035923349776187816
0.224 0.3126751392703341 -0.053384561653984024 8.008043625724237e-05 1.7901674688557332e-05 -3.645566185166613e-05 -8.216703978355808e-05 -0.0845413925674438 -0.031648154425103325
0.225 0.31045545636565264 -0.06882631766464332 -8.765651939455012e-06 0.00010645870822227365 -2.7101612725105625e-05 2.6007962248531097e-05 -0.08630056087297358 -0.02717165557202828
0.226 0.3080438266303318 -0.08393726312879862 9.112021182552595e-05 6.497391831960972e-06 6.469267987008259e-05 5.446046686097837e-05 -0.0881909432802976 -0.022372046491712472
0.227 0.3051587566865572 -0.09895086896093913 -2.618857746213311e-05 4.2880107899855455e-05 -2.919120726122422e-05 6.373157329043135e-05 -0.08943170435321478 -0.01805543812519336
0.228 0.3004589885509521 -0.11315491949968103 -2.807833194030993e-06 4.3064185604941396e-05 4.669840225281352e-06 5.329282272039085e-05 -0.09070344627277144 -0.01315137380966215
0.229 0.29596936427956627 -0.1287331325167814 -3.8454773064446254e-07 7.1692598698453255e-06 -4.006895997381848e-05 8.539764620223788e-06 -0.09167283507571358 -0.008600058148581703
0.23 0.29043439076206146 -0.142378109410141 0.00013389781833615867 -1.7523904750518365e-06 -3.1862247220576544e-05 -2.82435971997691e-05 -0.09276554874192892 -0.0029228716930125016
0.231 0.2851913713615176 -0.1579697985953076 -1.2534926319267428e-05 0.00011324263965833694 8.454934869622e-05 -0.00013144668471033917 -0.09286902808630247 0.0014437039036194223
0.232 0.27704566208556053 -0.17022880184081196 0.00012224439113235595 -3.471165304948269e-05 -4.69743582158885e-06 -5.521298550014954e-06 -0.0932442774245435 0.006622493973632557
0.233 0.2709457396299393 -0.185916826945879 -5.0576129180018934e-05 -3.739235988839347e-05 8.354669457092472e-05 3.5384124636625003e-06 -0.09319260481280864 0.011649048594325818
0.234 0.2602233770678039 -0.19708163522514346 4.9626077156276616e-05 -7.22644254572226e-05 -6.423782547621977e-05 -4.343098844550869e-05 -0.09294549959995581 0.01671568481644882
0.235 0.25238219443890525 -0.21268439316298401 2.1620507951552628e-06 6.604381968325293e-05 3.466045934277593e-05 -7.411840140515306e-05 -0.09204375780564399 0.021713170998679348
0.236 0.24358249595060508 -0.22385995925968877 9.813206019823373e-05 8.919795836166476e-05 -4.477701842335467e-06 -9.256208006820106e-05 -0.09134526720834193 0.026732859332346905
0.237 0.23244396645097215 -0.23600505663947824 1.6364898873183095e-05 9.295818563095853e-05 -0.00010681380393794678 2.988889985521355e-05 -0.09012629707155725 0.03173571675666802
0.238 0.2211710516366503 -0.24756330394738174 2.3302556987950924e-05 7.117358430325576e-06 1.6542157116028933e-05 9.776640366084699e-07 -0.08866488122322495 0.036556342327800445
0.239 0.2099050330171711 -0.25899443356367163 5.001907217773477e-06 1.5263470734942768e-06 8.504040361238406e-05 2.5731842311683684e-05 -0.08654569525490385 0.041164354545584
