!Created with skrf (http://scikit-rf.org).
# GHz S RI R 50.0 
!freq ReS11 ImS11 ReS21 ImS21 ReS12 ImS12 ReS22 ImS22
0.13 -0.0082214103604032 -0.0032333209187271022 0.4611560637511182 -4.775637622417478 -0.00010360884204832376 -0.0021357453780736927 -0.0014250027016185305 0.0019980682358648307
0.131 -0.008474046965445231 -0.002996916885752137 0.15663781617485567 -4.78479030659767 -0.00023259451714647666 -0.002134562684466983 -0.001254921049181848 0.001997972861074206
0.132 -0.008713496431096346 -0.0025500683451296848 -0.11270769392990064 -4.804830624180484 -0.0003442655976083864 -0.0022226177058976403 -0.00113561204898686 0.0021396451322950936
0.133 -0.009103557296071952 -0.0018624834541884005 -0.37484593129406035 -4.771186530347953 -0.0003459406081548236 -0.002239487644799414 -0.001090969746988552 0.0021147055536388138
0.134 -0.009265711637778501 -0.0015012364454642102 -0.6529776562536033 -4.7495128900644685 -0.00031374962595338764 -0.0022901958810198353 -0.0006957742360701807 0.002180251443717975
0.135 -0.009445981628339713 -0.0010853676697457411 -0.9526127202911516 -4.703575620294688 -0.0005672970877515816 -0.0023397595871096025 -0.0007841922236293483 0.0024101404384030073
0.136 -0.009660712278820685 -0.0005842637349167335 -1.2059682985121953 -4.6357431640740705 -0.0006493202056954355 -0.0022316805850809414 -0.0007546372718752847 0.002440902159408219
0.137 -0.00988560079804482 -0.00011458000562584647 -1.5006215368542022 -4.562279307532143 -0.0008270435806885579 -0.0022394485252321046 -0.00038303957112882355 0.002407791137275581
0.138 -0.010079019602254404 0.00032169844167921765 -1.756089215430314 -4.453639450047162 -0.0008516299852964841 -0.0022872907330767846 -0.00016901749312755998 0.0023982645817230666
0.139 -0.010133903145976677 0.0008615442529014909 -2.006939444315054 -4.346371791554357 -0.000795061941872352 -0.0022822050847695614 -0.00011429507124039392 0.0024745308795595957
0.14 -0.010196333672914342 0.001400406786823748 -2.2585252253271992 -4.227483086310019 -0.0009021115188903555 -0.0022796541353660325 4.3603064973243185e-06 0.0025582276378553126
0.141 -0.010181643016959807 0.0019359221705450426 -2.505698805811683 -4.089554636419158 -0.0011468234047957943 -0.0023484911633002907 0.00011979807203914576 0.0024521907854159436
0.142 -0.010094514259918495 0.002390021057316631 -2.7358942467537086 -3.9368941036094616 -0.001238182009554996 -0.0022572727102115066 0.0002987354846332497 0.0025478108447732017
0.143 -0.010002498871648894 0.00297177860451419 -2.946700820255277 -3.7705452091840486 -0.001241536220564666 -0.0022105548632715423 0.000598911444980712 0.0024584359412128946
0.144 -0.010014803053677286 0.0035126539875686338 -3.1709165410772107 -3.5791492396789835 -0.0013429680442642825 -0.002290607664533106 0.0007003285721170358 0.0023743716368547652
0.145 -0.009765514351458315 0.003930043160961153 -3.377286462152657 -3.375444940287078 -0.0015482215207010793 -0.0023294337117889218 0.0007184240700259002 0.002524267936940035
0.146 -0.00969281297348622 0.0044748597538213 -3.562060226485513 -3.1941255939646855 -0.0014864784329980262 -0.0021931352982864417 0.000874340578107426 0.0024088717427908713
0.147 -0.009582497626779313 0.004950198813837835 -3.7558226731816418 -2.9799982437064028 -0.0017689325086511294 -0.002223852948533415 0.001128877027832891 0.002339181518835138
0.148 -0.009396849810346148 0.005452642612372907 -3.88526487696882 -2.753785148532724 -0.0018684057854331385 -0.0022186803949437867 0.0012213402985088739 0.002288343294754687
0.149 -0.009244471746730498 0.005741592539215484 -4.0392143759122145 -2.506401938143935 -0.0018989592712796736 -0.002125269664825926 0.0013617876069267829 0.002254019995063478
0.15 -0.009035873089737346 0.006248353865198076 -4.196406463806774 -2.2673619180740854 -0.0018995742957216193 -0.0020747248029757207 0.0014866437955028929 0.0021003606027568626
0.151 -0.008763109447612214 0.006722272156256441 -4.3104104641657806 -2.025741412451159 -0.0021665843942173866 -0.002057135031026788 0.0015460171441857011 0.001987874983782358
0.152 -0.008384310525522904 0.006886567400026163 -4.406483340042592 -1.7761426945353795 -0.0022576153618085438 -0.0020183195406927247 0.0017183662017347435 0.001973491017559917
0.153 -0.008123179656800525 0.007260171008696022 -4.51715418053352 -1.521013209131149 -0.0022491048937927013 -0.0017860164914610158 0.0016891803392514266 0.0018630850341139207
0.154 -0.00770284758850557 0.007518124528067994 -4.587811477283455 -1.240034341760614 -0.002488850626010106 -0.0017814314260526662 0.0019203388729633938 0.0017419250597332464
0.155 -0.007519644442433357 0.007956580750052962 -4.634352933816543 -0.9692220032575679 -0.00256251875484099 -0.0016641191371047682 0.0019757843745954306 0.001783521713662547
0.156 -0.00725410021105991 0.008179021659682066 -4.701727898560625 -0.6974354509695896 -0.002571543899190559 -0.0016156683918356594 0.002112129071172226 0.0015686948506888926
0.157 -0.0068731414411469 0.00839593638744852 -4.720223734432344 -0.4324295536523211 -0.0026504477711168464 -0.0015273469084570934 0.002186035735732555 0.0015063739142667518
0.158 -0.006663264072973917 0.008662927119004094 -4.727713047225566 -0.15412397032916472 -0.002842557486899274 -0.0014723602008542625 0.0023070722291980636 0.0013906210913106284
0.159 -0.006219865257314308 0.008937246474279648 -4.729012186356982 0.11738115697896652 -0.002791811668503034 -0.0015123815621976373 0.002350949285298961 0.0013868667331835495
0.16 -0.0060864381429462655 0.00913999194451838 -4.713817972172309 0.3994553526376718 -0.002979507703789945 -0.0013387508723024882 0.002368185129284568 0.0012486436423345274
0.161 -0.00561353379106885 0.009240870769715932 -4.685310347308687 0.6695561937108413 -0.0030649123073609313 -0.0011726752679793822 0.002437673839835285 0.0010271882446829174
0.162 -0.0052754788258926625 0.00942155189522871 -4.632857487095323 0.9228461261393199 -0.003094029867748636 -0.0011070615885984832 0.002396391631025329 0.0009902261336952164
0.163 -0.005030575457488583 0.009723453107782531 -4.570550635232689 1.211992948264638 -0.003002531404321263 -0.0010669395310925261 0.0026674088492407814 0.0008761531273341325
0.164 -0.004665738794925471 0.009629419209495374 -4.489278149333367 1.4701684142245446 -0.003277514716983669 -0.0009485240220623736 0.0026867472947503003 0.0008856517632137667
0.165 -0.004498275699754693 0.009794372267538886 -4.396248418675209 1.7365773403889395 -0.0032561267105148846 -0.000846356104351509 0.0026953137827239486 0.0008146054173833265
0.166 -0.00416939365835096 0.010056109575199883 -4.273991898464185 1.9866133420486074 -0.00334974725881828 -0.000666780993051205 0.0028434289678187456 0.0005146762210130746
0.167 -0.003788582862191901 0.010247882012786896 -4.159010523400361 2.228143871671388 -0.0033199403969137414 -0.0006087615792756725 0.0027396570498686695 0.0004381802145302377
0.168 -0.0036001767947452085 0.010266577254871857 -4.027960359684294 2.4781691688992855 -0.0035633722153477977 -0.0004498624199664928 0.0027709454039883874 0.0003063478566756522
0.169 -0.003283576898079378 0.01024105595143881 -3.864404715078511 2.706670660715016 -0.003469884837246111 -0.0002550026884794381 0.0027535090355241894 0.00020170727357510612
0.17 -0.003027590873943193 0.01046416055668719 -3.7052232201936475 2.9267012078256154 -0.0035032156392560687 -0.00021810181575951558 0.0028818211504694742 0.00011879873967339694
0.171 -0.002747854587220235 0.010562755367857595 -3.520903552279228 3.136493956710225 -0.0035643492750290417 7.776216154893519e-06 0.0029567283863830966 -1.0772013440603993e-05
0.172 -0.0024783917825596863 0.010547914450916627 -3.3271214495209733 3.3389377185219575 -0.0037164147920808925 4.6623211700065576e-05 0.003080793025890513 -9.558198196770304e-05
0.173 -0.002272701854378966 0.010746248216972665 -3.1275281190916755 3.530174870423701 -0.003650847177205099 0.00019682414640520882 0.0030175812796183884 -0.0002950248548317925
0.174 -0.0020540305459059356 0.010786782114277063 -2.9235118554317996 3.7105379528331537 -0.003730243437307213 0.0003330178947499356 0.003167110269576893 -0.00038477697251288964
0.175 -0.0020172729780609613 0.010863562545701847 -2.7185898223557645 3.8628974002826317 -0.003788399530114855 0.0005857347352928829 0.0031780062351607938 -0.0004675382798918156
0.176 -0.001595592859820562 0.010936347539156815 -2.4726299438247996 4.015889078016246 -0.0037137464492050065 0.0006631909698012579 0.0031224961766016138 -0.0007233239505382495
0.177 -0.0013754888002852678 0.011133424772270702 -2.2232797187189277 4.1472138232748055 -0.0038021070022947016 0.0008184637287013125 0.003239389722760344 -0.0008718691161102463
0.178 -0.0009867106318545201 0.011199005662221128 -1.987579726829307 4.264655553717165 -0.0038022657127547766 0.0009960651164762262 0.003219842736441732 -0.0009749310024880091
0.179 -0.0009298497902974986 0.011302433322889882 -1.7403472889203466 4.364808551757858 -0.0037876057785085097 0.0010838431533256798 0.0031895078828709316 -0.0011413468151475813
0.18 -0.0006817101957732155 0.011427113238282865 -1.4775089578875154 4.4755565685515775 -0.0038074161682363763 0.0013488610647109953 0.0032229204813136333 -0.0012774172244911165
0.181 -0.00042020954908029284 0.011580475257004076 -1.2216233400342178 4.560404007270901 -0.003803095228129386 0.0014166019645883677 0.0030567326670644115 -0.0015909694456320669
0.182 -6.86203891760615e-05 0.011841098320202094 -0.984449414004073 4.60368310611113 -0.003876048212851766 0.0016346916571522152 0.003145890355229017 -0.0016848239202104742
0.183 5.600205302527755e-05 0.011904584768810388 -0.6838163073666482 4.6514199777868575 -0.0037426883491558788 0.0017464869924628927 0.00319713983089607 -0.001899516915876468
0.184 0.000478627312898914 0.012224367741519426 -0.42329415054590847 4.690901202848925 -0.003737882027717489 0.0018016839219366291 0.003110563931905854 -0.001991052020942588
0.185 0.0006943356789070649 0.012198253375969425 -0.11929795854669338 4.702832815612016 -0.00362236184269736 0.0021072070959336072 0.0030517201726557516 -0.0023350629768698855
0.186 0.0012247423607148616 0.012408998401388009 0.1427834493005417 4.704865149510919 -0.0036336656991839463 0.002059755326904908 0.002875273983113786 -0.002489302608012107
0.187 0.0015185938638380416 0.01258062500806436 0.3815697869149159 4.684926418868044 -0.0036291282367283484 0.0023371330245130642 0.002883606936386407 -0.0025742474505798026
0.188 0.0017675830047717467 0.012811416070168183 0.6796518495437461 4.640680319471156 -0.0035540094698650257 0.002617848892793711 0.0027874628860830968 -0.0027775982482644568
0.189 0.002188179631746258 0.012865802990145265 0.9386369302445589 4.594305346004365 -0.00350958839930192 0.002636420727237799 0.0027037097677780693 -0.002992295900406326
0.19 0.0025832103131245114 0.013070483345682395 1.2056731882386478 4.528022703705716 -0.003420379928199135 0.002818760413441214 0.002549750503445824 -0.0030129281291805103
0.191 0.003046993037750909 0.013288881568870873 1.4634837380704455 4.460638682782039 -0.0032825606403613446 0.002911353560957288 0.002469622200657686 -0.0033599663242184054
0.192 0.0034783882693900908 0.01336344879550455 1.6941946504590681 4.34783678242946 -0.003208499425743625 0.003234856865451842 0.002266021044055832 -0.0035118630956942776
0.193 0.003998503239427311 0.013401365173774606 1.9735736950101905 4.2512451966528175 -0.0031919042592181246 0.003368161217494156 0.0021234350238659447 -0.003754054410783496
0.194 0.004388434791165672 0.013619865938569389 2.205746329330714 4.125308003445702 -0.0031046244607875334 0.003400183834149374 0.0019276451315676506 -0.003881156095970638
0.195 0.004967540937665397 0.013671402754254483 2.4425231219447054 3.996836908637205 -0.0029669462574538376 0.0036112162760761745 0.0018550878589061613 -0.004155154383564306
0.196 0.005516791055361877 0.013590470741866723 2.656195954868533 3.8504313956226626 -0.0028849694598072646 0.0037693340838934443 0.0017272251931078173 -0.004147479101271022
0.197 0.006131445042704748 0.01377145104308757 2.8810279435401585 3.6712688980177397 -0.0027140973442164183 0.003906665426353388 0.0013990270128748789 -0.004315771875215135
0.198 0.00689131285637805 0.013892922504926544 3.091420146417733 3.508649057289665 -0.002528267068050512 0.004020410182364555 0.001162962730186588 -0.0045082530195914685
0.199 0.007321556099859372 0.013892994621167576 3.2815855511131993 3.3060630097572017 -0.0024834281395584154 0.004100753444318363 0.0010495533888492954 -0.004610604786402384
0.2 0.008028378756004172 0.013869505031484205 3.4791026145625676 3.116956525605736 -0.0024888892221773696 0.004255093431198206 0.0007827048891525361 -0.004760967238872199
0.201 0.008800795638261132 0.013637368765670038 3.6486227957074537 2.888462188437388 -0.0022280136161420454 0.0043852803325617265 0.0004979083710815588 -0.0047435034418863604
0.202 0.009435565034927547 0.013496915223636993 3.80350556800693 2.7010988224778374 -0.0021361000623852065 0.00455248814762539 0.00021720558060204256 -0.004868194186328293
0.203 0.009980934551849318 0.013255486104792429 3.9534146117472027 2.4622238440262487 -0.0018635730335629683 0.004670157579908828 -7.521086590544463e-06 -0.005014413915252975
0.204 0.010648191651568047 0.01318982312280274 4.076237962780372 2.2424509891973528 -0.0018024041182479798 0.0046527075224848755 -0.0003950607310213769 -0.005028488456607871
0.205 0.011311749754259519 0.012858734355721472 4.203822597711091 1.9804621770962345 -0.0014933805272287068 0.0047274057648830515 -0.0007333260022597438 -0.005050387211751894
0.206 0.012088530981021011 0.012579682313275286 4.302840694607777 1.7523817106919133 -0.0014371578104361413 0.004999099176563762 -0.0009341204707290599 -0.004998212919469413
0.207 0.01283424602153411 0.012254296922699408 4.405847824249148 1.4858756191036504 -0.001210684483512145 0.0049785215138656545 -0.001160413618805677 -0.004998310913514272
0.208 0.013478751110067213 0.011806736168293558 4.491444569229746 1.249875796229172 -0.0011208394456326896 0.005029808592963504 -0.0016043265329169303 -0.005001343377172084
0.209 0.014015254496594154 0.011198246552377441 4.532179303718504 0.9848010610265833 -0.0010578889648552605 0.0052751231549861164 -0.0019368276698908385 -0.004956519888936977
0.21 0.014708458454711953 0.010754650201994021 4.587061626112268 0.706256417771492 -0.0006903239798583226 0.005324863913743506 -0.0021657657993293935 -0.004820102094580514
0.211 0.01541721150152648 0.010279420501884053 4.616860639799552 0.44677699100207546 -0.0005191857154053833 0.005388099402578296 -0.002464134870528957 -0.004825559142980578
0.212 0.016048390319569977 0.009605655108256374 4.644852008560447 0.1628260169656511 -0.00036713589941920783 0.005431178345112845 -0.0026802962811023367 -0.004627825024754871
0.213 0.01656594988945803 0.008924507489165722 4.642132853387582 -0.08000726018882146 -0.00013779062214293767 0.005566560791339284 -0.003019179556548905 -0.004594759607971708
0.214 0.01722945916121474 0.008212984415859997 4.628263501652962 -0.3642919241426732 1.0115195054795174e-05 0.0054950621012212555 -0.003276117744466731 -0.004381643130121232
0.215 0.017709533568901606 0.0074695621304322075 4.590516577021415 -0.6263955550057828 0.0001903655313017291 0.005440720501246931 -0.0035913614581993734 -0.0042587465023038165
0.216 0.018143331059517997 0.0066463899335646665 4.543392893451241 -0.8856376725421194 0.0005140778426436682 0.005428105525588657 -0.003648022279420663 -0.004066010337186198
0.217 0.018425645585452708 0.005805440742806836 4.484213959430731 -1.1551721148263592 0.0007142081167892863 0.005535734736005652 -0.0040004169530041675 -0.003703008469740021
0.218 0.018842848262743135 0.0050262142753391675 4.414558407197045 -1.41883717123539 0.0007708837402279516 0.0056643466047394935 -0.004265315595567268 -0.0035258338583790626
0.219 0.019237578919691755 0.004140507276543542 4.325313101258486 -1.667864564360364 0.001118362291879554 0.005644506743148962 -0.004472359748951529 -0.0032502913778100963
0.22 0.019532159494830365 0.00304907108070357 4.221892949607859 -1.924635824926605 0.001377629633615463 0.005631570602959169 -0.0046186125931707445 -0.0030488486487393776
0.221 0.019751362045444018 0.0022181632376294586 4.096290863658661 -2.1573028049921734 0.0015560337694787256 0.005730552669337408 -0.004858016704192683 -0.0027154015013113038
0.222 0.019896279491260584 0.001339665190220146 3.9703007904149445 -2.4006351778699444 0.0017422830469758436 0.005672460309716752 -0.004951753447314339 -0.0025315551297172114
0.223 0.02009102132924075 0.00019936850708950922 3.822771951967932 -2.634807999348443 0.002033622326321798 0.005668967795689113 -0.005093976937533565 -0.0021721085611724486
0.224 0.02019886358670386 -0.0006194140509159987 3.6631082550664593 -2.84187805351141 0.002364130718650469 0.005572711663538022 -0.0052323486364383625 -0.0018745790027056616
0.225 0.019857201604982593 -0.001620446501052501 3.4840260722666527 -3.0447097642818877 0.0025123337106300997 0.005490972975962109 -0.005340085060888393 -0.001646970261068935
0.226 0.02003613367417405 -0.00282355676062307 3.3077511529546033 -3.242327321854473 0.0027534269734565972 0.005507467003010068 -0.005470788665800745 -0.001358475781625535
0.227 0.019745895137614895 -0.0036925920089879776 3.1121197218233885 -3.43251904096245 0.002912542279756181 0.005485813086051165 -0.005484955421664191 -0.0010134823702722567
0.228 0.019579078979529055 -0.004544798139046615 2.895282824198004 -3.6107243527089197 0.0030833286054739216 0.0053350204842804935 -0.0053914579054165895 -0.0006634802998113687
0.229 0.01909517235708298 -0.005760485039922065 2.704194334521219 -3.7679988550949384 0.0034295027770185303 0.005208373931235033 -0.00549013374622936 -0.0004305764534902929
0.23 0.01896046867590258 -0.006548862563986609 2.4667110093768265 -3.917189060441524 0.003662408220074938 0.0051608825000764354 -0.005528326616874754 -3.693717133271205e-05
0.231 0.01840526706411197 -0.007654969782774779 2.244135905569697 -4.044625554648285 0.0038876245173041436 0.005100567009189637 -0.005488030912137267 0.00022611869197119086
0.232 0.01798360120786143 -0.008516865131041673 1.9966457718326343 -4.175061538979601 0.003926257307995408 0.005026792848359431 -0.005362169715840133 0.0005296041501661944
0.233 0.017461346301577602 -0.009595503592683555 1.738656940021385 -4.27811365554557 0.00435197734984474 0.0047653055908297316 -0.005265093580606605 0.0007986205701959493
0.234 0.01690331117286033 -0.01017340256808151 1.500721907371954 -4.38559146890585 0.004464185886340492 0.004695286836466222 -0.005235974001733864 0.0011278733527898671
0.235 0.016272412883306747 -0.011078679730913527 1.2427919960437104 -4.4554023269005425 0.004869816394707283 0.004733299969941229 -0.005155165102813755 0.0014077250953044309
0.236 0.015525210208189472 -0.011808150117401215 0.9868124353704816 -4.503503385947919 0.0048822451220137605 0.004578035637320496 -0.005055126768618909 0.0017336835835974472
0.237 0.014614249320624955 -0.01244560611372767 0.7313760457220941 -4.563344119318287 0.005090897237581107 0.004369390477786447 -0.004978813711815481 0.0017975462434572536
0.238 0.013999729876573797 -0.013089799118804927 0.4535752542063428 -4.5955907012724335 0.005311681453303306 0.004049966269084432 -0.004667219161805469 0.001999167524135149
0.239 0.01315132843189707 -0.013652087276243416 0.1818951634233094 -4.589658741830095 0.005595854552741006 0.004090158906442805 -0.004607247700925818 0.002307294939924696
0.24 0.012318325572601964 -0.014322757260779853 -0.0587979580197726 -4.61168573172258 0.005761755904420044 0.003830593330421068 -0.004405683406116926 0.0025324211704107658
0.241 0.011421501039981697 -0.014623991704855531 -0.3332636268511835 -4.590457621725352 0.005870076577372426 0.003664692991535325 -0.004191631665536069 0.0026128687977174108
0.242 0.01061300639860394 -0.01519880894810822 -0.6006390277184731 -4.567118476176705 0.006011019782058395 0.0035810377754020447 -0.003966589085124096 0.0027381230431821994
