!Created with skrf (http://scikit-rf.org).
# GHz S RI R 50.0 
!freq ReS11 ImS11 ReS21 ImS21 ReS12 ImS12 ReS22 ImS22
0.13 -0.003323282832059047 -0.0009814445249811349 1.7704774203950402 -4.486543759192716 0.0005400831903208846 -0.0021314546845524955 -0.0008186426090768886 7.297189596018003e-05
0.131 -0.003473708780296797 -0.0007111744845815662 1.5084344225766668 -4.568187363583505 0.0005000620863244636 -0.0022219168407021086 -0.000787596115532822 0.00027841907073363663
0.132 -0.003682337654185485 -0.0006239570749886437 1.2474678626103066 -4.640424357800267 0.0003706788263624517 -0.0021354104117353146 -0.0007633699905492168 0.00028351566542104815
0.133 -0.003783278248866395 -0.0004839150770370565 0.9957747807460234 -4.7115970758245345 0.0003120491808525216 -0.0022126827019603923 -0.0006665705724447918 0.0002503607087449162
0.134 -0.004012112709403716 -7.550415833958609e-05 0.7115112841064921 -4.754181318996306 0.0002661374551882507 -0.002357289000252847 -0.0006719601186054128 0.0003775202734306344
0.135 -0.004217336069375237 9.202260039245695e-05 0.4571424231193356 -4.802510526051572 0.00030518915751840027 -0.0023642115576965354 -0.0006618759267748545 0.0004430350375283672
0.136 -0.004349934762445627 0.00035906291092615487 0.1794203563049007 -4.800114749089233 0.00014463536346152092 -0.002386124353005157 -0.0004681920368617227 0.0005828665928873881
0.137 -0.004475808644689793 0.0005217035819211377 -0.08053311198189493 -4.801326605813317 1.8756239519458352e-05 -0.0023513284295437133 -0.00041257759007669537 0.00064027179320519
0.138 -0.004608231094665662 0.0008521354949591705 -0.3686675498928657 -4.792971161916198 5.011222386634145e-06 -0.0024501034033895105 -0.00038185997603818795 0.0005414934323811951
0.139 -0.004554606051917852 0.0010116867130328215 -0.6301081114332935 -4.753586107909576 -0.00023386928380169072 -0.002377838512211332 -0.0003726744444181441 0.0007798226238587555
0.14 -0.004669898549368326 0.0013881367487958045 -0.8959620137870727 -4.719167865051125 -0.0002626257748689429 -0.002464766597834021 -0.0003228913233433383 0.0006936770116602164
0.141 -0.004614281730473194 0.0017900514703045262 -1.1436829252693241 -4.665579078475097 -0.00034282103215033306 -0.0025267362229874045 -0.00017331642903696675 0.0008236698819633727
0.142 -0.0047621014035007575 0.0021953588169570425 -1.4102940268705857 -4.5938144698416234 -0.00038500706282376375 -0.002615158082271611 3.7497315397615845e-05 0.0006151404162984856
0.143 -0.004596072294599 0.002348924774574809 -1.6744681935327443 -4.504765246459726 -0.0005967621620753484 -0.002523559395984852 -6.411655258597448e-05 0.0006620905711750513
0.144 -0.004502395982993607 0.0026019157890817225 -1.9147730788223776 -4.395479216364879 -0.0006178311177772989 -0.002551980645772182 2.9038561222880254e-05 0.0007416585754856108
0.145 -0.004477806944960578 0.002939272195983564 -2.1678668559180694 -4.2719439984892515 -0.0007540053316146215 -0.002586218766811977 7.299499669067514e-05 0.0007527027887754597
0.146 -0.0043266761157700825 0.0032576102752456732 -2.400258785925395 -4.153445534726402 -0.0007824583286830619 -0.002561179313434752 8.825759613602889e-05 0.0005485198806911348
0.147 -0.004433453622293719 0.0036182530920846924 -2.639729769350982 -3.994110421975425 -0.0010058254947419491 -0.002536685402664631 0.00012860133476082783 0.0005688766298141838
0.148 -0.004218915948567422 0.0037810578022956683 -2.83411864843899 -3.8382945250057556 -0.0010358866375097522 -0.0026675460915583276 0.0001495677817396027 0.0006004067290165333
0.149 -0.004023306239117075 0.003991612986715709 -3.0575883677511606 -3.6957842164419374 -0.0010177517219246352 -0.002548490386001323 0.0002151821561652222 0.0005802293093309135
0.15 -0.0038571943334328707 0.004287373920901832 -3.269208808045041 -3.5019659028753214 -0.0011512527998019573 -0.0026796134658208844 0.00034701804062282053 0.0004927277592286863
0.151 -0.0036360325042931706 0.004497644885498882 -3.4501996317411963 -3.32273933997369 -0.0013401004831914678 -0.0024725782551585996 0.0002693014161420198 0.0005036210201329005
0.152 -0.0033667039018557506 0.00472403113471207 -3.597473313535106 -3.1091954456113977 -0.001397172919418858 -0.0024675317835558446 0.00040990462654836424 0.0004884038679645772
0.153 -0.0030307319503985954 0.004975351232868505 -3.774147280767829 -2.905009284457155 -0.0014132950382431495 -0.002506755857133324 0.0004958797095206601 0.0003691862809825938
0.154 -0.002856735992295126 0.005075066073544224 -3.9299890251803298 -2.6986403207057763 -0.0016570277338281638 -0.0024336711912087564 0.0005440975385402398 0.00042590262834817165
0.155 -0.002590681489747895 0.005202319194483146 -4.078281186128624 -2.460328189694209 -0.0018402874038985486 -0.0023817919087235676 0.0004849126653088108 0.0003334659813358127
0.156 -0.0023753911713580685 0.005232158522179212 -4.204891818702257 -2.227697144253047 -0.0019144427523609595 -0.00235034707192099 0.00038751007304946647 0.0003256325611665577
0.157 -0.002107687698369274 0.005475088636974985 -4.325110319648968 -1.9824733309737734 -0.0019733482563517512 -0.0024052004996065117 0.0005538345191214928 0.00026455959076059267
0.158 -0.0018061217634956458 0.005578074721761008 -4.427051253842959 -1.7389825252032722 -0.0019923303392123436 -0.0022488285410245355 0.00047704929155953016 0.0002233036307844598
0.159 -0.0015988016146881077 0.005594392549213694 -4.513215253440009 -1.4895999407864344 -0.0021777249552935164 -0.002268680308717311 0.0004123147694135387 0.00015194330613182592
0.16 -0.0012489246438070467 0.005524701929277697 -4.578614641589297 -1.2422392014420989 -0.002191342257531977 -0.0023875060215305037 0.0004273563239137524 0.00013567444958925454
0.161 -0.001027841872485902 0.005603282049520675 -4.642152523269818 -0.9913519338242737 -0.002441766107656341 -0.00217398190292143 0.0005137242577324976 0.00010119885153197032
0.162 -0.0007509402330811304 0.0056415307773611065 -4.684733851036331 -0.7184340670026674 -0.002421999871064387 -0.002165874393888972 0.000577504657160619 9.476509149463086e-05
0.163 -0.0004981987524153517 0.005636891945753194 -4.714955541560009 -0.4468621131467065 -0.002520120391885012 -0.00202204553916888 0.0004370223239154336 8.929335598395844e-05
0.164 -0.0002974631701406962 0.005567000080612203 -4.741997411195177 -0.18501842407758168 -0.002622857488131892 -0.002007480255735593 0.00046203732402055767 3.5071817695552026e-05
0.165 9.027693209522715e-05 0.005426371212741751 -4.754646827699265 0.08299266908823409 -0.002865420437880621 -0.0019010786937881231 0.0004504559051117867 1.6147302176498172e-05
0.166 0.00033980996532152334 0.005352211160728143 -4.734931887008451 0.3460240258711298 -0.0028635114496551547 -0.001882988228399934 0.00033733659313129954 0.00012795007168355543
0.167 0.0005185922017315516 0.005374264215948004 -4.709278508441137 0.6206415470579 -0.0030181822593849526 -0.0016676299034322937 0.0005075545987812876 -6.481306205344998e-05
0.168 0.0007053069608372294 0.005340456237018414 -4.670960020881563 0.8841702987067444 -0.003140955139132947 -0.0016323570113970587 0.00039156440266980197 -8.74845394055732e-06
0.169 0.0008089358681070364 0.00514601456486505 -4.606594476914194 1.1412168243013627 -0.0032163951387183206 -0.0015470822982030425 0.00040649531783098916 -6.56580009449051e-05
0.17 0.0010651085788190115 0.004868759866438673 -4.535605427519803 1.3927623142072656 -0.0033006217557909807 -0.0015107071338520085 0.00043732918159432923 4.172003363731857e-06
0.171 0.0011517502151918947 0.004730555690840871 -4.448241141005037 1.6534575944063734 -0.0033729776402263018 -0.0013281199730874782 0.0005003335721507006 8.79093529823362e-06
0.172 0.001259490165697809 0.004671170077870607 -4.348560959270863 1.8971569222918447 -0.0034542670060651866 -0.001283450995422634 0.0004834415664144167 -1.7308067746655194e-05
0.173 0.0013171660440273942 0.004437788377250423 -4.237572157692807 2.141712243870309 -0.0035736944816016324 -0.0012660600077342844 0.00042020524495490374 -5.522635201527282e-05
0.174 0.0013086665650529365 0.004216625198052716 -4.104404903444581 2.3719184104185134 -0.0035999067248994486 -0.00100680542848245 0.0004740889839073551 3.4148407752671545e-05
0.175 0.0013363141304572209 0.004033997166023138 -3.9679369396445017 2.593764252993481 -0.003659691791058091 -0.0009848914373059103 0.0004777744798029395 -0.000130531894038022
0.176 0.0016025580962566106 0.003832653050781199 -3.8181027944213084 2.8059579924392595 -0.0038292407783832314 -0.0009209762158285643 0.00036329370266199634 -1.9960810841252172e-05
0.177 0.0013595718429419384 0.003748109213257754 -3.6574016164599685 3.0216359287133514 -0.003833012100055217 -0.0007820124862948816 0.0005377798609143096 0.00011839136517741862
0.178 0.0015484009261803322 0.0034963531212343045 -3.480936897276952 3.208953872806667 -0.003945841730128876 -0.00045556807256045244 0.0005106314498653472 6.588937601400282e-05
0.179 0.0014991259403060256 0.003493906611581706 -3.279965814396193 3.4002133939156622 -0.003903163676114222 -0.0004673674078291402 0.0004976716342773082 -0.00013310072924019328
0.18 0.0015008283215689972 0.0033604283458115443 -3.0918548129474646 3.587284884324581 -0.003977572068679206 -0.0002983115641896495 0.0005582181482039206 8.645375662995355e-05
0.181 0.0013643797735120103 0.0030859385657155663 -2.896293534377908 3.7432502334007975 -0.00397226542143214 -0.00020003165158015646 0.0004805581726322993 -2.0272212867838453e-06
0.182 0.0012988801820412422 0.0030426524684134663 -2.678504393907065 3.9029458450327548 -0.004120918296733294 -8.429721490835441e-05 0.0006725371276960406 -3.997725837264301e-06
0.183 0.0012010606768977667 0.0030637618199584184 -2.4630267933286967 4.0415266376060615 -0.003966005687568198 5.083611663224581e-05 0.0005866774000892414 -4.282352607577769e-05
0.184 0.001018251131279949 0.003061254555186949 -2.2238925334745963 4.174291285133477 -0.004165116074900878 0.00034037659209872127 0.0005724618022172373 7.389494035002638e-05
0.185 0.0010507800121307132 0.0028316059526313246 -1.9957787121016695 4.299076687562131 -0.004079729335028172 0.00037038704216148553 0.000771837894388818 -4.3844897667445865e-06
0.186 0.0008929133692553388 0.0029624346202792155 -1.7555978462088109 4.390002137315501 -0.004062075594316781 0.00055169599105633 0.0007978581626934605 -0.00015729770405689846
0.187 0.000721902986131458 0.0029501740044000475 -1.4863728614163638 4.479823562954599 -0.004371678672693661 0.000765314438184795 0.000867215723130784 -0.0002372243109446393
0.188 0.0006232154579250299 0.0029339653082521267 -1.2395202898866209 4.563668195244604 -0.004373633271307107 0.0009271515168280464 0.0009176025050743221 -0.00016169326167141357
0.189 0.00047138941185918755 0.0029973935800913566 -0.9821585016112601 4.602175309654415 -0.00429213152144453 0.0009607570319546002 0.0009609450892396407 -0.00024960972522918576
0.19 0.0003914924329014205 0.0030360382369515764 -0.71564341175983 4.664414240444113 -0.004251098249398785 0.0012120853102274122 0.0009692022066135268 -0.000307441777422661
0.191 0.0003630152652118663 0.003101515136068565 -0.46635834233384077 4.6826448508952305 -0.004210700781575152 0.0014235799778792779 0.0009493740431779785 -0.0003561926418175465
0.192 0.0002044218970630311 0.003226725491982351 -0.19602480477062825 4.695372800563989 -0.004143560733404982 0.001513893881611333 0.0010078863957532188 -0.0003499857183944144
0.193 0.00014456535413982715 0.0034291086943044613 0.0738485943933917 4.709137786460769 -0.004093198942048981 0.0016323738674719258 0.0010157509768455167 -0.0005222483450513192
0.194 1.8713346284165424e-05 0.003474423558299013 0.32531274894526574 4.693573738198177 -0.0041652781165469385 0.0017734204259054506 0.0009857726327178224 -0.0004933355841767786
0.195 3.066618619678418e-05 0.00371729599569654 0.5844396760240158 4.675528247960245 -0.004253398213549672 0.0019622500626989108 0.0010031488683401102 -0.0006105284330826752
0.196 -3.433282998657658e-05 0.0037027197828278877 0.8402468616640665 4.605372759656085 -0.004132947829848274 0.002217808844628329 0.0010300594500109452 -0.0007548389959911929
0.197 2.0147013304500932e-05 0.004048058919471099 1.1066915239402262 4.575333372992902 -0.0039925457148901255 0.002403411348572138 0.0009889167738338317 -0.0008267024008858337
0.198 -0.00013037298116577213 0.004192232918545133 1.3597236361903084 4.498965731275867 -0.0040530495792753495 0.0024632331639204193 0.000998864267954571 -0.0008691367250428677
0.199 -2.7368819507833992e-05 0.004316481608973602 1.6161965768625113 4.419825714513936 -0.004007667007652045 0.002760029012189593 0.000978128358777778 -0.0009690348084044379
0.2 0.00010965265264054996 0.0045813314468104395 1.842064236590781 4.306937546887152 -0.004001573935467201 0.0028468922699009134 0.0011198781942082436 -0.001123932064773105
0.201 9.96306628095638e-05 0.004743960475974869 2.0742833986177494 4.187501860630529 -0.0039631747571976395 0.0029805398756718926 0.0009233161674971119 -0.0011642663846860748
0.202 0.0002741276072786394 0.005071866696390616 2.3121070415531246 4.088261053940142 -0.003731347330095574 0.0031093586056993 0.0008677987851854733 -0.0012590658813770206
0.203 0.00031617560586942253 0.005287739707591042 2.5324386636873406 3.9285755636039763 -0.0037059635736421165 0.003337779703210019 0.0008374455781671259 -0.0013183908323841757
0.204 0.0005532186440934163 0.005531850637370794 2.747421073502599 3.780145618284984 -0.0037056556650390156 0.0034170490412875777 0.0008970872470208602 -0.0015321338989803758
0.205 0.0006494226089150748 0.005794725918123454 2.958881566504609 3.630574374728921 -0.0036334861656983322 0.0036873915515583332 0.0008015587253691381 -0.0015472412545271621
0.206 0.000955650771401894 0.006044409435329931 3.1515217662981385 3.45674839113374 -0.003390993961984894 0.003752681643482354 0.0005745267524848779 -0.0015553632878309602
0.207 0.0011392110800961747 0.006167751214095011 3.3334143668995972 3.280654801725171 -0.0032329230670448826 0.003969035509160059 0.0005922901410092075 -0.0017448304905421552
0.208 0.0014528513385682297 0.006196543559755839 3.4983254168505034 3.087623858335385 -0.003234644459115696 0.004105429231343936 0.0005374730419391478 -0.0017969197684219087
0.209 0.0016815382840245602 0.006454803260588899 3.6862010517576698 2.868660666488909 -0.0031838850546749013 0.004197108666387512 0.0003422358455876428 -0.001842333175836199
0.21 0.002015821846343081 0.006529714521395921 3.8172498445663057 2.6722853895408076 -0.0029567824874492093 0.004402360552254304 8.096752978097773e-05 -0.0019081946188019006
0.211 0.0024270519343548404 0.006610716388832315 3.970731161356844 2.4607210163575264 -0.00289065635614212 0.004632339603270989 6.547432056268592e-05 -0.0019472561888069812
0.212 0.0026666393921752456 0.006844815497797579 4.096481046043307 2.2155365701932124 -0.0027277143654453467 0.004702302554907435 -2.1201437054789484e-05 -0.0019557518993579
0.213 0.0030250052446425817 0.006759516411668407 4.234759948223401 1.9932733946971053 -0.002591184309055107 0.004695738102432082 -0.0002302853779135361 -0.0020065919346099015
0.214 0.003391219454152778 0.006923056960133017 4.318249326882134 1.7810939717079135 -0.0024053498460464393 0.0049308447900424796 -0.0002786407875135722 -0.0019885340797125184
0.215 0.0036921027880640164 0.0068825874672248585 4.422928676228814 1.5167835121876798 -0.002302853638906403 0.005068710950736553 -0.000533437258885468 -0.0020690487674180735
0.216 0.004186689531123662 0.006886740708294143 4.493478405712071 1.2760191231214286 -0.0021049181351457487 0.005203725583587093 -0.0005506094845918121 -0.0020983322468001112
0.217 0.004497793807053373 0.0067908975651275886 4.542964756155585 1.011904454463462 -0.0019193602322107733 0.00534242507015714 -0.0007634837754629999 -0.002104795408820401
0.218 0.005038172779787668 0.006746931590228767 4.597572559855824 0.7581768499865413 -0.0019426002545165212 0.005489301706740207 -0.0009322240005895133 -0.0020203384858876244
0.219 0.005444975271431927 0.00664533923419004 4.64058993764066 0.4911046097470168 -0.0016043875116309022 0.005638665381993827 -0.0010053336300657769 -0.002088273126213093
0.22 0.005737329406755987 0.006407440606999978 4.653844421795755 0.22795286315280638 -0.0014280393367866147 0.005724227728998138 -0.001138368130835068 -0.0019977334281689497
0.221 0.006017183639513297 0.006225877409195877 4.664513860090987 -0.018559091547256736 -0.0012355293498923267 0.005804923989421125 -0.0012560523818365026 -0.0018415196788756681
0.222 0.006561169473569741 0.00606715688884946 4.6537973895072495 -0.29028172539791125 -0.0009832462404146542 0.005819574190942812 -0.0014607258790243429 -0.0017883368088373998
0.223 0.007031076950031645 0.0057234792547506096 4.6411393763825775 -0.5579799238247196 -0.0009072884115585299 0.005965053934471525 -0.001561716773214607 -0.001710391769720593
0.224 0.007212809451759045 0.005513128900179043 4.602288607384793 -0.814621946903692 -0.0006576473498842881 0.0061049119596735145 -0.0016390765850266757 -0.00144376982203975
0.225 0.007593646941978401 0.005132154736525726 4.530984284572281 -1.0631971911656004 -0.0003850714736455342 0.006117873472918276 -0.0018464657968635919 -0.0014260655875847634
0.226 0.007877022216253363 0.004665999648525922 4.479880317033407 -1.3177869660815045 -0.00028797116756321334 0.006099343955117428 -0.0019278826246588185 -0.0013238362120498901
0.227 0.008181056104711983 0.00450680245126271 4.396661220062847 -1.5616637475469461 -1.2742504020939104e-06 0.0062301157601912195 -0.0019635720192105076 -0.001261498438252249
0.228 0.008381879918287776 0.003921761256983831 4.299429765190256 -1.806606816101869 0.00019176921628089565 0.006318997802958839 -0.0020153612588445008 -0.0009505060775563784
0.229 0.008680596068119021 0.003553743894067233 4.186013112275434 -2.0424499478682994 0.0005115479284070044 0.006192093827616175 -0.002178211956414706 -0.0009457012072501296
0.23 0.008788245580453505 0.0030300573464142385 4.0680293894234865 -2.262837740880095 0.0006837793043866466 0.006173528595706264 -0.0022082516056571772 -0.000747250576116504
0.231 0.008993590551259948 0.002635368621725553 3.937258970036251 -2.4911738524803284 0.0009339409677595514 0.00635883018354446 -0.0023463151561209394 -0.0006420855202079304
0.232 0.009022278296701556 0.0021584147088655084 3.7941891196788906 -2.7087112041678783 0.0010906202120716784 0.0063914100614931805 -0.0021379648702596916 -0.0005049625648727753
0.233 0.00909455131381107 0.0016817277228559251 3.628644470296649 -2.9181975584015056 0.0013797048788764211 0.006477969985665709 -0.0022123692860850043 -0.0002160719542678761
0.234 0.009035703740831279 0.0012013648257148775 3.4662998864271306 -3.10783027490018 0.0016097076728811503 0.006302207990526056 -0.0021705982831349427 -9.299122910350545e-05
0.235 0.009180105913937189 0.0006413262650527603 3.2829516163291457 -3.300231270624289 0.0017851330388787144 0.006431873073809781 -0.0020821992189833053 1.1072823517679212e-05
0.236 0.00907793168360045 4.1341236281147205e-05 3.0945245569514936 -3.4716453577034705 0.0020387576737695636 0.006342260742930737 -0.0021879453594049426 0.00017880063166071292
0.237 0.008953936297510191 -0.00041578725075065666 2.8915709505279774 -3.640549189412213 0.0022718148001112707 0.006414017339246872 -0.0021541038167343257 0.00029884673038988433
0.238 0.008741867646379079 -0.0008525371463154718 2.6804401515733236 -3.789719267367123 0.002547886583756978 0.006194098220068261 -0.0019903487353951977 0.00048761055927814027
0.239 0.008499934440664754 -0.0013497475451672224 2.478268243962637 -3.915089405620253 0.0027561352957232695 0.0061351400977578945 -0.0020550563235865616 0.0005070289382671621
0.24 0.008519662649835197 -0.0018825184351393106 2.241949567730762 -4.062855726678676 0.0029815659381828173 0.0061578056073776175 -0.001916471487702937 0.0008289589917309699
0.241 0.008164676062316722 -0.002210479927237467 2.0170303489640866 -4.176641667738505 0.0032633261486115506 0.00613691916651104 -0.0018140558167234987 0.0009084733616180454
