!Created with skrf (http://scikit-rf.org).
# GHz S RI R 50.0 
!freq ReS11 ImS11 ReS21 ImS21 ReS12 ImS12 ReS22 ImS22
0.13 -0.001089299477985698 0.004087607307195007 -1.74463135616258 -4.477273246051202 -0.0010564668086324065 -0.0018702727514261811 0.0005448791810958472 -3.415712059238803e-05
0.131 -0.0008897452511045507 0.004421044452125477 -2.0071141788120683 -4.370213113396551 -0.0010533733032534473 -0.0019788282316794813 0.000590296029254172 -0.00019330158154410494
0.132 -0.0005278999140240329 0.004555976356147993 -2.2646640778272484 -4.2452390279241845 -0.001183667684270302 -0.0019029138156597476 0.0007048273309485816 -0.0002525978630015391
0.133 -0.00046434849229558153 0.004665689785067163 -2.5385506717209934 -4.072408606757911 -0.0013509139789746089 -0.0017489132139396335 0.0007186850620901003 -0.0002892567874072653
0.134 -7.166068733104867e-05 0.004843420173770535 -2.765581109330444 -3.938790079559313 -0.0013727771923672085 -0.0018245822203255505 0.0006816978098231612 -0.00046421954283171863
0.135 7.237597092351067e-05 0.004825049250022867 -3.0286348147285858 -3.7327620214810984 -0.0016414372041720366 -0.0017578216579826169 0.0006352290628248402 -0.0005013713807964055
0.136 0.0004386560486599619 0.004875995599271267 -3.2493268661048753 -3.5353575501091616 -0.001700267810254286 -0.0016104123836780167 0.0005848041602016191 -0.0004837853600170526
0.137 0.0008041554197797539 0.0050043418750324855 -3.461992340748049 -3.3386487721057443 -0.001718190832085886 -0.0017257042575572503 0.0006171351298119359 -0.0005967334057830272
0.138 0.0011687922175500514 0.0051118621719104815 -3.642878185888687 -3.1121710532156284 -0.0018433121629750722 -0.0017473281751360084 0.0007075068807054939 -0.0006606632196866412
0.139 0.00157368329584071 0.005060777689959615 -3.859655631136602 -2.842173151637526 -0.0018126721854100178 -0.0016701248352638397 0.0006585865703581721 -0.0007983193047081493
0.14 0.0019712000524538358 0.004803297224027611 -4.017617792479713 -2.639552158009907 -0.0017526822997804292 -0.0014355917685371304 0.0007744630007938149 -0.0008980035095360075
0.141 0.0022968545043194526 0.00476353202462955 -4.1721133783585715 -2.3785252593547686 -0.0020315332351452504 -0.00166630929512232 0.0005198560593301474 -0.0009178931463365085
0.142 0.0025681597270099045 0.004673578292508082 -4.301569558180806 -2.1140124821317277 -0.0022201076995096384 -0.0013797122703793495 0.0005290748447855255 -0.0010247722964391633
0.143 0.003019130109213367 0.004597074180299263 -4.42061307621706 -1.8515909947090061 -0.002270631370376736 -0.0013778529395838278 0.00039636095363382133 -0.0010757383022387736
0.144 0.003158553804247784 0.004254571675163642 -4.533269831839247 -1.572000956769033 -0.0023216757237179923 -0.001316049503493926 0.00036755872962310226 -0.001154484921875432
0.145 0.0036557121862774494 0.003936651316649475 -4.618135273708058 -1.2881847998683833 -0.0022698313388637113 -0.001117433747196213 0.00020536364018812904 -0.0011995554859460399
0.146 0.00376858056484074 0.0038039454216086785 -4.6746825403027445 -0.9909699188464356 -0.00252181472790667 -0.001127319528300402 0.0001092869710657554 -0.001258046024296216
0.147 0.0041658057781192885 0.003457223411559408 -4.726460581319851 -0.7037390183153447 -0.002479308243100433 -0.0010202364293284618 -7.581431731273375e-05 -0.0012825989876670664
0.148 0.004464464891704936 0.0033025882739914155 -4.761673753928238 -0.41005082677117966 -0.0026526362399140898 -0.0009930170157470934 -9.387061507382855e-05 -0.0013397870189834763
0.149 0.004579453939976084 0.0029509031796705492 -4.772195575310054 -0.11910414363631244 -0.002814184782876273 -0.0008427903697747853 -6.899440480961168e-05 -0.0013947121335247622
0.15 0.00479917348932865 0.002486244064185854 -4.759973711356899 0.1876699226227886 -0.002724770967036244 -0.0006829144546068116 -0.00034666982899162483 -0.001310573019756809
0.151 0.004986477668577769 0.0020853096144576536 -4.754068850177368 0.47347166802235885 -0.0029118150876092067 -0.0007908668481311767 -0.0002695297437894457 -0.0013662103073230026
0.152 0.005170339452741137 0.0017732948986436004 -4.70827260223259 0.7634961559024573 -0.002915632775467325 -0.0005399693902858216 -0.0005301904887635103 -0.0013195141018942213
0.153 0.005313728208108109 0.0013073185557147186 -4.646973584495687 1.0501707001241887 -0.002925815865781524 -0.0004071291196209837 -0.0005435851277325729 -0.0012038638390778652
0.154 0.00522184121620276 0.0009345690785302295 -4.571801727917895 1.3366177121286837 -0.002985813494301177 -0.00025917373708578907 -0.0007355718804951552 -0.001246808688101777
0.155 0.005300584407440915 0.000443651387960492 -4.481594512899957 1.6076772681413225 -0.002987236438622787 -0.00010757926382571385 -0.0007223225163416262 -0.001067900646472835
0.156 0.0053317777261441615 4.792420812237777e-05 -4.370891948095097 1.8800017482633105 -0.0029921109943494154 -6.73290253067394e-05 -0.0008164012533812318 -0.001037635605173385
0.157 0.0051305835318117485 -0.00039837483303958003 -4.243756393634058 2.139755027792802 -0.0030363738565449263 0.00017034110149709194 -0.001100308050358774 -0.0009514897587897672
0.158 0.005187705732836049 -0.0007330973499617716 -4.095365859307711 2.4063413054711953 -0.0031229729978179428 0.00024364108513503436 -0.0010951113851840756 -0.0009412691267946
0.159 0.004994531898662926 -0.0013405164158490125 -3.9403126981828334 2.6460648541790683 -0.0032674895041355967 0.0004651235332698944 -0.0011997965376534007 -0.0008262845307070778
0.16 0.004818997518155913 -0.0015192434799657154 -3.7680734130612983 2.8872650217116242 -0.003267349062618977 0.0005316642629929794 -0.0012897307854456209 -0.0007927690608156851
0.161 0.004567035688764511 -0.002049532617523732 -3.580407787420634 3.115831100647186 -0.0030568383873234824 0.000579927076733211 -0.0012150164886976225 -0.0005938341253322954
0.162 0.004348427006064373 -0.002449372997315704 -3.3815663356380026 3.3194324809035622 -0.0032294929016498746 0.000727057345560891 -0.0012950735212188438 -0.0005925465084869469
0.163 0.004113020819478568 -0.0025955149348450327 -3.1589445772850584 3.5257272474766057 -0.0031530768070229045 0.0008485518796944574 -0.0014929396830652927 -0.0003998138067954065
0.164 0.0037204015222032285 -0.003110566130729004 -2.9364390592743224 3.7165094482129435 -0.0031305864020943082 0.0009903562177414993 -0.0013480626175365559 -0.00027484075339942986
0.165 0.0035391481144882112 -0.003337266240935496 -2.7015135603100022 3.8947826518859228 -0.0031705176810604726 0.001233444610954658 -0.0014415213742017606 -0.00012116669844885303
0.166 0.0032073583648129594 -0.0036671144534107633 -2.4427922049447686 4.039244888172508 -0.0031238412758087014 0.0014087253156230277 -0.0013257012217022975 -0.00016442729918255043
0.167 0.0027274739469031212 -0.003996454095425553 -2.202233911684176 4.185758178850467 -0.0031753718767467565 0.0015135118741491924 -0.0013500403578489628 0.0001205250020151123
0.168 0.0024629950098469275 -0.004083016424874181 -1.9263389011297474 4.326628010939652 -0.003135982350208745 0.001602713395890424 -0.0013890686500205624 0.00015155275473862135
0.169 0.0019079919683335496 -0.004208737904023449 -1.6568115800585714 4.443345324565723 -0.00302170579977565 0.0017865869559311133 -0.001436724951326814 0.0003222158386485406
0.17 0.001578782766617592 -0.004450629021504513 -1.3835778132516001 4.52437586451759 -0.0031152073048320286 0.0019412859959767703 -0.0012766943972264183 0.00043415606046289147
0.171 0.0010819867456426304 -0.004490611159954928 -1.0800466993420355 4.602262096580935 -0.0030450274596552176 0.002040633511494594 -0.0012578380598195743 0.0004970612595838559
0.172 0.0007154249036782953 -0.004489278330698096 -0.8215858268735653 4.6613030717929895 -0.002973485244653496 0.00227134598004756 -0.0012220884111660583 0.000555931864998826
0.173 0.00030308543168391315 -0.004571654072819774 -0.5122943052458211 4.701419108490936 -0.00293721487009076 0.0022404709560323467 -0.001208096927721199 0.0006236704937121473
0.174 -2.7858174174750167e-05 -0.0045401195337549625 -0.22583353632515982 4.72849687319644 -0.0028119980622089975 0.0024708083027666027 -0.0010844127376749824 0.0007741735690632052
0.175 -0.0005301211685354695 -0.004630358886289196 0.052849397233404934 4.726511182581573 -0.0028029739526596567 0.0026209700805823496 -0.0010934763005660591 0.0007237561748543549
0.176 -0.001040659370662054 -0.004376700953209725 0.3798067785426609 4.690948248551011 -0.002782437650966671 0.0027552543505858927 -0.0008524083067217065 0.0009128474602569456
0.177 -0.0013417393424717875 -0.004432911766143672 0.6313761847886786 4.696766408445268 -0.0026651088258076165 0.002837742464576547 -0.0008050011952910876 0.0010066609760888893
0.178 -0.0017137417176437463 -0.004177560532583745 0.9296724912134886 4.614558555513696 -0.00245299994673113 0.003117731720370178 -0.0008284848789435729 0.0009778344701301014
0.179 -0.002235086874535174 -0.00400062597515013 1.2027087648562118 4.55936923179844 -0.0023683830173100904 0.0030437772632784265 -0.000677755152466364 0.001043028582117958
0.18 -0.002506607931377493 -0.0038175337964889626 1.4889615052548344 4.4763909908254425 -0.0023012349136893534 0.003331260447295523 -0.0006681848375123009 0.001145575985489323
0.181 -0.0028592611002347572 -0.003632045838472961 1.7529973199439617 4.370530201275748 -0.0021623337407002167 0.0035361796918781637 -0.0006076603332404594 0.0010657133548740523
0.182 -0.0030059187108292386 -0.0034163008678102986 2.02375599693584 4.27058328477237 -0.0020601984136423114 0.003565560823815094 -0.0004572274520630928 0.0011036318926922178
0.183 -0.0033211803809675227 -0.0031148781520085986 2.295181012939127 4.117084690150894 -0.0019388116733982355 0.003652980754408533 -0.0004560573476140345 0.0011600877995849152
0.184 -0.003642722236940849 -0.0028765260901374647 2.5321624759987325 3.9600863939613764 -0.0017861255916713477 0.003746662091539488 -0.00043007486285372696 0.0011459982310475423
0.185 -0.0037886964940973948 -0.002558515712184075 2.78169241573837 3.8010813174961373 -0.001754129066445152 0.004005065357203333 -0.00011411291626949986 0.001229006677245405
0.186 -0.0040876720501332175 -0.0023793804234189734 3.017680278340543 3.620075107083751 -0.0015452686789331972 0.003992172490033282 -8.862067970789068e-05 0.0011299721114197928
0.187 -0.004199925734053005 -0.0019112506632005572 3.219805528327291 3.4462180881704394 -0.001424626575975457 0.004216638740090108 -4.118317832275525e-05 0.00114140147480836
0.188 -0.0043047285874420515 -0.0018134103561663103 3.4162642822719747 3.2476731026542547 -0.0011504237810545076 0.0041134246883677405 -8.109793525063231e-05 0.001167762991405251
0.189 -0.004456506164799156 -0.0014473348447625804 3.6017004045830543 3.017585493997785 -0.0010863781965787832 0.004259362173057685 5.355062750723026e-05 0.0011965576363193607
0.19 -0.004622831042595276 -0.0011425634522525877 3.7836834235336045 2.7868255436658727 -0.000885669078827733 0.004348649752020319 5.6164454197140015e-05 0.001219589382907533
0.191 -0.00461900356926234 -0.0007716612555474519 3.9701525559072195 2.554453320700055 -0.0006291997918164344 0.004373102074620322 0.00018277498672735713 0.0010214938067614726
0.192 -0.0045793099141714115 -0.000527439868931923 4.080805152603528 2.2835336729248366 -0.00041995886594475406 0.004549952148979354 0.0002491497473449016 0.0011223932774498903
0.193 -0.004732843118452288 -0.0002376851432059301 4.2430040943193585 2.0474737376951198 -0.0004385871830414361 0.004419073189349803 0.0004100214995545013 0.0009993087605450715
0.194 -0.00455611127865895 2.4849978567379627e-05 4.334240667087003 1.7691328055541293 -0.00011152670178987323 0.004699814463402003 0.00034371509018483293 0.001139225221331975
0.195 -0.004503363464399986 0.00016402407400422652 4.470609537776479 1.4893237700447155 -6.540109273943974e-05 0.004633918842425642 0.00043742445604032183 0.001199269186966902
0.196 -0.004613195719165864 0.00037509439629863483 4.513043216167949 1.2459879163105552 0.000247298961638332 0.004592918321205982 0.00047282071085424227 0.0010217771969085658
0.197 -0.0046331930531321695 0.0007195851757679943 4.606534764662343 0.9249925607997048 0.00035200078803851665 0.00464251257894676 0.0005187386801155519 0.001044437981647028
0.198 -0.004582719499238106 0.000993697359438496 4.642004368650163 0.6567485690526698 0.0005602056199782473 0.004716622899510053 0.0006293982512068148 0.0010333205623871307
0.199 -0.004481543391394455 0.0010352894825823601 4.67352737269456 0.367934806469867 0.0008401042893511823 0.0048104822558052065 0.0006121394056083781 0.0011294396221904308
0.2 -0.004536757484066308 0.0010441356259924298 4.682366275656299 0.09596678711684688 0.0010971405985122802 0.004801497681957104 0.0006428633328499148 0.0009030831921302006
0.201 -0.004494574194029221 0.0012391989029156359 4.667263573019433 -0.19622593121136947 0.001160266510240979 0.004676659136898794 0.000623700099849895 0.0009936761324320466
0.202 -0.004449224891492693 0.0014907138651424098 4.651369817480439 -0.49823871154403987 0.0015434702457112186 0.0047514151695737675 0.0008435243949246265 0.0009717679092696947
0.203 -0.0044060071585327945 0.001584631624738151 4.613740815722255 -0.7740561393008569 0.0015944692787141024 0.004666820897951971 0.0008578636909798189 0.0010297541814945313
0.204 -0.004402083720537732 0.0016465558444055141 4.540539399832918 -1.0512418395571324 0.0018509551711991432 0.004695168174193899 0.0009487865816890256 0.0009835031664260675
0.205 -0.00447520196198165 0.0017529678109496913 4.481368419169863 -1.315320538602722 0.00196997833958478 0.004548437193102985 0.0008703438111923549 0.0009397958484342127
0.206 -0.0045593023211043795 0.0018139346914193668 4.374617163286774 -1.6026244427850944 0.002229163326963682 0.004701554098001619 0.0010993981714892786 0.0009560870991711473
0.207 -0.004358211140558646 0.0018066227545648086 4.2688486231348515 -1.875299532562112 0.0025674805864305985 0.004641554658859014 0.0011829213362038243 0.0009881990876485034
0.208 -0.004602863082018261 0.001967146021253733 4.148903826373325 -2.1189626372761707 0.0026278606090465867 0.004527319796302971 0.001153036861348702 0.0009701279290038947
0.209 -0.0046369794270293245 0.001976494333841334 4.002176436661595 -2.3768905361156274 0.0030118667024092685 0.004436510203400943 0.0012827218962849403 0.0009908135675438707
0.21 -0.004620793297448746 0.0021271597827733843 3.851452653694032 -2.607974150428807 0.0031111435585901262 0.004338159165276724 0.001450562001528073 0.0009479222716997811
0.211 -0.004764197683115656 0.0021845211638404105 3.6837840896867085 -2.8482753487410637 0.003290055746980188 0.004279522821148275 0.0014891889944473181 0.0008725218872560564
0.212 -0.004861338439856423 0.0023089830924013384 3.4976018634881467 -3.050690691289332 0.003509656235933834 0.004255484166015268 0.0015189504779547654 0.0009395612858085501
0.213 -0.005082832739148517 0.0024945244836634484 3.3023385158833154 -3.287064151581562 0.0037050492650272963 0.004040032646022327 0.0016761841629354727 0.000731204796079007
0.214 -0.005206570929744203 0.0026332369280613463 3.097954649649321 -3.4712031154495326 0.0039609355021778675 0.0038881561547757185 0.0016713902906172252 0.0008150857227713953
0.215 -0.00540976477549432 0.0028462149349726524 2.870485080446427 -3.653472829851007 0.004127948364328857 0.0038512160897793877 0.001904097921973345 0.0005492591586375619
0.216 -0.005578440363750516 0.003099144161720462 2.6393487309352173 -3.814592381949436 0.004354891455080352 0.00357496090757536 0.002059943095074324 0.0005120914011952874
0.217 -0.005737007221614969 0.003200558445341961 2.3996964613160374 -3.976857468265981 0.004489482886777118 0.0035184252455813126 0.002190656164959399 0.00048193666144198536
0.218 -0.005955583285452369 0.003430882495966317 2.148991151883324 -4.110026690908541 0.004718084803348109 0.0033811751831890778 0.0023028719134040136 0.00039429157555412965
0.219 -0.006231018685023894 0.003563575265235637 1.8981531052700298 -4.246170084455582 0.004786220810139459 0.0033012628418790193 0.0025017795506804908 0.00018050204837441445
0.22 -0.006397991887915524 0.004007619875679391 1.6088699310873578 -4.343696973202144 0.005063842094488078 0.003133123149394531 0.002464706175269152 0.00012013578362425399
0.221 -0.00656922734670386 0.0043790596967063986 1.3685389031231667 -4.43730790079319 0.005165740123650191 0.0028334493734411196 0.002611552360109503 -0.0001449346118387649
0.222 -0.00658238552275592 0.004833308560704301 1.084672647500345 -4.526142358388582 0.005340584627473642 0.0026644222954330453 0.002663558127281095 -0.00016998580765568066
0.223 -0.006901702909582426 0.0050663283419991045 0.7987830197186009 -4.577557381981328 0.005440609297451524 0.002482004732664055 0.002851445714991211 -0.00039925784818972064
0.224 -0.007115778131204818 0.005595481519535692 0.4939193240577823 -4.60567145500901 0.005634744944247971 0.0022542719421467274 0.0029236762702426746 -0.0007208349526053159
0.225 -0.007209910503531979 0.0060014103236902625 0.22015120159500226 -4.642732534673413 0.005729547419997799 0.001969783340325867 0.002877087680776844 -0.0007818295994437945
0.226 -0.007396079623797282 0.006692402482762314 -0.06461825556313901 -4.645790868794357 0.005891704388067519 0.0018072059874861236 0.0030432167593625447 -0.0010071267632482748
0.227 -0.0074791141729713935 0.0071871054561645905 -0.3425755393891516 -4.626983858131388 0.005974418608600311 0.0015640620429224308 0.0029964247910355987 -0.0012772143405988224
0.228 -0.0074268582607055714 0.007709648320965554 -0.623619707335171 -4.582270954175372 0.006083738318828713 0.0013381292850771095 0.0029626437944005437 -0.0015888937527833579
0.229 -0.007528087894625631 0.008217715629854074 -0.9162681577993844 -4.548024284550945 0.006219262903066019 0.0011464784754528189 0.002916831353818829 -0.0017383627165470346
0.23 -0.0074779090179915055 0.00897128459999316 -1.200007870888984 -4.465093330590549 0.006346986007493956 0.0008820016815264222 0.0029350757285619435 -0.002100974918070834
0.231 -0.007375946540964949 0.009800717864095027 -1.449982822256624 -4.385145298343954 0.006476407998291669 0.0006294009175840979 0.0030071479723108984 -0.0023573755404004185
0.232 -0.007092458996145976 0.010481058389199924 -1.7257013437932058 -4.310980747792032 0.006379535404232499 0.00040282371646274787 0.002711202887428883 -0.0025989567654855533
0.233 -0.007093803909785023 0.011294119022685033 -1.9810463389845088 -4.190048663378233 0.006636832853304546 0.0001697660697460574 0.002838804810310485 -0.0029045909525033014
0.234 -0.0067409115340121215 0.011835318756162807 -2.2285989038387126 -4.070750951140872 0.006601157063276593 -0.00012215939752073242 0.0026982262732347983 -0.003020618992815227
0.235 -0.006511637619654529 0.012550492298214639 -2.483946849275914 -3.9013629733687 0.006672277581930518 -0.00036323676123267213 0.0024839314325282125 -0.003377262560600679
0.236 -0.006203161185278295 0.013335939975942672 -2.716602241951643 -3.7557490643584255 0.006668981379382015 -0.0007391158485914601 0.0023247051895205063 -0.0036766539779108493
0.237 -0.005439928858339849 0.014017036835047753 -2.963944431791316 -3.5647444003483857 0.006650421634659261 -0.0009499185666926136 0.0020745256144514635 -0.0038640385086739265
0.238 -0.005032197082222693 0.014758231260566525 -3.1588179315594456 -3.373557431974648 0.006731329573507008 -0.0012912411893876677 0.0020428496616664176 -0.004052252074679148
0.239 -0.004613219463057748 0.015305360540973287 -3.3433652871447417 -3.1744684730773045 0.006711426929149911 -0.0014953300977093556 0.0016236371068526383 -0.004348035992201849
0.24 -0.003946195801909063 0.016098245559290424 -3.515084629657448 -2.969983906361499 0.006622622556058583 -0.0018108710027785826 0.0013187433396398775 -0.00454168686517966
0.241 -0.003095470242095048 0.016894432704202923 -3.70322249635912 -2.7535476484420265 0.0064843931073745665 -0.002082739914250321 0.0011084289125761686 -0.00473917953247632
