!Created with skrf (http://scikit-rf.org).
# GHz S RI R 50.0 
!freq ReS11 ImS11 ReS21 ImS21 ReS12 ImS12 ReS22 ImS22
0.13 -0.14375182789936916 0.1281978032984605 5.6284744851172784e-05 1.0180912001021563e-05 -3.888661384478591e-05 1.7959130784699983e-05 0.03341737158027764 0.04408939280862586
0.131 -0.1393161687661248 0.13545687968858858 0.0001251474346207187 -0.0001107971732766461 -4.79196394800076e-05 -5.894539425980719e-05 0.03591694799989091 0.04299429603957151
0.132 -0.13488975185397392 0.1417565263363032 -0.00017902254408728725 2.9907913919139274e-05 -4.6417882828144626e-05 -5.889732004168786e-05 0.0382403018968548 0.041069410187082635
0.133 -0.12951048529637427 0.14857512718184251 -4.0347358147647456e-05 1.295169211246002e-05 8.310708835288739e-05 2.099873296200495e-05 0.0407448492172546 0.03944089829711955
0.134 -0.12427545501798976 0.1548440077820523 -3.164339658772649e-05 0.0001489203995048057 1.1134008075464968e-05 5.5382200154282965e-05 0.042742105999486156 0.037362844405511374
0.135 -0.11777467040205268 0.16205645406076225 0.00020606223530484721 -4.21848863620542e-06 2.4445093325145928e-05 0.0001313939226394037 0.045373669736042635 0.035572007081951296
0.136 -0.11229199435460775 0.16652870361155475 -0.00011062900293446689 -8.341224381688147e-05 -3.5443462869385825e-06 -7.02888784757091e-05 0.04754333382565512 0.033401425961547875
0.137 -0.10453502297825357 0.1737875735778033 -1.640703023259155e-05 -4.645276730052413e-05 -4.623902200434833e-05 4.711738377660982e-05 0.049281198584736764 0.030955722826394232
0.138 -0.09787005079350171 0.179349235300102 -1.877201429964168e-05 -1.394609443581845e-05 4.7807859444473954e-05 -0.0001451482418988536 0.05157721290011052 0.028574778154233385
0.139 -0.08882825802789439 0.18454572793444793 7.580902127283594e-05 -0.00019616894006831048 5.130296744824221e-05 1.8514029154761935e-06 0.05306871147523365 0.026438758077560975
0.14 -0.0825942490821141 0.1893180910859428 -7.478903429858144e-05 3.7927256935929026e-05 -2.8704050845951573e-05 3.1162505022372883e-05 0.054828501484860216 0.023412409054051796
0.141 -0.07552535447795347 0.19480264561300778 -4.697621820404973e-05 -8.562633899742263e-05 4.248060122018885e-05 -3.2700166506087206e-05 0.05630766674056502 0.020738111093888005
0.142 -0.06854305233296569 0.19761802767593153 -1.677632266813011e-05 3.992300827701227e-05 2.5477516911511082e-05 -5.9100449436824284e-05 0.057852663152567645 0.018047009999387124
0.143 -0.05816824878689021 0.20135343585934168 -1.6108566440206022e-05 -3.871024676672909e-05 -4.61219492596526e-05 -2.6379220676516918e-06 0.0590124719962826 0.015204802205691476
0.144 -0.05042417549859307 0.20643231584747226 8.265493291492314e-05 -6.711010908926055e-05 4.7527092071388566e-05 1.6460997200752394e-05 0.060203105617015924 0.012225487308220232
0.145 -0.04031080891454302 0.2098240797455357 4.2209320492376536e-05 -6.953742663281214e-05 -0.00017168277115121484 -0.00012323884152098892 0.06104513849069084 0.009101452221083516
0.146 -0.03272812515637463 0.21148712242029563 -2.52017004379546e-05 -1.8404781087961842e-05 0.00011677211686405328 -3.27742030849332e-05 0.0620231705089028 0.005924143354673301
0.147 -0.02302184505444964 0.21439708347381647 -9.844903611904645e-05 1.0496728476815631e-05 -9.85981622930595e-05 -1.992005423995211e-05 0.06288708916162447 0.002452054139564984
0.148 -0.014971847676023085 0.21643988465621525 9.083243323365835e-05 2.383308319437541e-05 -1.916443571988016e-05 1.9323968814108956e-06 0.06305034802477386 -0.0005924153205518897
0.149 -0.005548825717397514 0.2181530146764409 -9.545177176634903e-06 6.0159690337137136e-05 4.8269770141366236e-05 -4.690381713478627e-05 0.06356223807152898 -0.003912780269154669
0.15 0.004583150658999691 0.2182288561433279 -1.3005555514265132e-05 4.621068156386722e-05 -3.544876574899156e-05 -5.2865366498305645e-05 0.06364461340405693 -0.007285179564329967
0.151 0.013340742613058261 0.21984095108302382 -2.1708010404064488e-05 9.670099917210956e-05 3.6840616624931386e-05 -6.726027812058047e-05 0.06352524175742437 -0.010692264295132878
0.152 0.023895865584876174 0.22027289007253217 1.0778664529127273e-05 -2.889488926415321e-05 -3.2269316078215093e-05 -0.00013071522701289332 0.06317174887688666 -0.013948933176940263
0.153 0.03367799792698076 0.2209126148609529 3.579650874755828e-05 -3.2054235435636443e-06 5.964853042003781e-06 -2.8864623542371108e-05 0.06285003297017028 -0.01737853153863546
0.154 0.04134555039001643 0.2203132103717441 -0.00020657932839663527 -7.324869108401391e-05 4.805397119977333e-05 5.888883418916684e-05 0.0621468431178293 -0.020598707132178075
0.155 0.05167147815382374 0.219172995900444 -6.44765674666876e-05 -2.9182169041599006e-05 9.971854926487555e-05 5.5026309930499706e-05 0.061425879855642046 -0.023917355373999978
0.156 0.06110144812156069 0.21835792322890016 0.00011075739829985177 1.2567582679316421e-05 -8.57358595620668e-05 2.2822563110222513e-05 0.06048261241300688 -0.027323592281142332
0.157 0.07073365944378367 0.21604074811073773 -5.9914631607761524e-05 0.00013327235728181292 5.08440674614935e-05 4.3638198504226245e-05 0.05928989082506575 -0.03061305733992874
0.158 0.07965606304985098 0.21393865645051807 7.918980939740744e-06 1.9371640176190522e-05 -2.195439114939187e-05 5.8695287014664917e-05 0.05796691343184579 -0.033760303186792635
0.159 0.08930325163425817 0.21195038082950227 6.703306809430468e-05 -2.7328664341200446e-06 0.0001774357271393654 9.053392529340478e-06 0.05638372171481484 -0.036944805987697844
0.16 0.09740938790070058 0.20960354741938622 3.4212994970555826e-05 -0.00011187838314193593 3.451586290545629e-05 4.588540482525366e-05 0.054690389333018466 -0.03986321547529579
0.161 0.1078686227854759 0.2059778004911042 1.318069160798774e-05 -0.0001090689975532026 -2.1908619199612453e-06 -2.0927002044952506e-05 0.052821547444119564 -0.04306701190850933
0.162 0.11716330842686881 0.2016132854005627 6.833394766088309e-05 -1.189306089176126e-05 -2.640874316344164e-05 -0.00013817332791301036 0.05084777814390588 -0.04596275760479459
0.163 0.12670845615777876 0.19771543700956423 -0.00013753332324739962 9.430330869901826e-05 -3.817001633151287e-05 -9.471571073222587e-05 0.04872881041044286 -0.04882524900930198
0.164 0.13386940068492448 0.1929017323170766 7.574184441383754e-05 -5.449889035417075e-05 9.033607116060516e-05 5.293406239475142e-06 0.04617267514751431 -0.051562035265988126
0.165 0.14433914834095443 0.18989621436199508 -2.727755390507067e-05 4.574292169526647e-05 2.1114823091012002e-05 -5.840867110784505e-05 0.043782794299301375 -0.0542106802945296
0.166 0.15240214676908298 0.18340892696186095 4.5903637215557213e-05 3.8916742134578344e-05 2.8408681314753167e-05 0.00015246722181427202 0.041100298843347635 -0.05654538374789109
0.167 0.1607092275985546 0.17727887038309884 0.00010419174617495062 -8.601439170111763e-05 -2.1656604106295106e-05 -0.00011068818295589494 0.03831092254378971 -0.05871282182043128
0.168 0.16863007234366284 0.17078212860336378 2.9301413575853624e-05 -8.62612130363438e-05 6.88158459552947e-05 -3.5085589036685056e-05 0.035228359073897916 -0.06156375431823734
0.169 0.17657289737795712 0.16442073075190874 -0.00011707823487866829 -2.4902432864976698e-05 -4.539190526839891e-05 -0.00015720762591324 0.03227671014423553 -0.0634481672578773
0.17 0.18626613418754415 0.15754427501711393 6.062748380158225e-05 -8.26235295169874e-06 3.593347631413431e-05 -2.513899147427898e-05 0.029321221787758874 -0.0654358735413268
0.171 0.19236561484453185 0.1507047646782428 1.9838475006805728e-05 -5.713384245218674e-05 -5.71099823618507e-05 9.095292937512482e-05 0.025710157222441646 -0.06714138085922586
0.172 0.1991236451662299 0.1433072940896591 3.8004589216352674e-05 9.76301029360043e-05 2.117415695871946e-05 0.00010353224714456021 0.022221055658882664 -0.06862810213955801
0.173 0.20743249226455487 0.13509057641633737 -2.135552970242602e-05 -5.172629567917569e-05 -1.918995928360722e-05 1.8636294764519417e-06 0.01891747927342156 -0.07006571051373178
0.174 0.21285940945455772 0.12757315754027113 -6.7862588119420805e-06 9.829995796618559e-05 -0.00011652854128022318 1.917365700441088e-05 0.0157594209919243 -0.07113205308333226
0.175 0.2193157960081681 0.11930149886588859 -9.454648551276316e-05 2.5734785131961176e-05 0.0001288164125905723 7.938646250619582e-05 0.01180518147244499 -0.07220724111928459
0.176 0.2258710734588573 0.11046030305973417 3.0197288094037076e-05 -7.063103194884406e-05 4.1555209251386324e-05 5.9115087362041564e-05 0.007761382423632104 -0.07312518276156249
0.177 0.23156787237189755 0.10154387779317 7.736487406605316e-05 -6.322294769680936e-05 2.0820155699623544e-05 -3.737105446708134e-05 0.00474305596796021 -0.07367331611922484
0.178 0.2365617600843083 0.09189637384288595 -1.1693039035727448e-05 -0.00012687469056720617 -0.00011907852147181189 2.6382038330479543e-05 0.0008011502269339489 -0.07437083756947946
0.179 0.24069432284890882 0.08301539124021849 -6.596170222886455e-05 -2.8905831141109575e-05 3.442254800887279e-05 9.528198312887524e-05 -0.0029069855942142407 -0.07424578574035404
0.18 0.24611240253349465 0.07198560656797443 5.4219054908470935e-05 5.773111889956343e-05 1.530954037826556e-05 -3.697475915118811e-05 -0.007047545656151114 -0.07457695269835746
0.181 0.24987972979232922 0.062462631949363794 9.340706485718034e-05 -8.81812080715818e-05 -5.126043658122297e-05 -0.00010803785899652266 -0.010454837824582694 -0.07435325466798416
0.182 0.25380227707354874 0.05285187823031435 8.456471182129702e-06 -9.027462591951493e-05 -1.5357700105578026e-05 -1.254427570670911e-05 -0.01459275888421014 -0.07418179256755304
0.183 0.2574514896435176 0.04139053364631908 -9.255384770173173e-06 4.8646605076977554e-06 -0.00013935945526277835 8.414995441214966e-05 -0.01831531892567924 -0.07412578589825439
0.184 0.2604584456626522 0.031015242110992637 -1.575900696555477e-05 -6.271390150446145e-05 2.8114958095529016e-05 -0.00012304157398518935 -0.022189069187126167 -0.07273677063359188
0.185 0.2631279275730181 0.019574075949913117 -5.0487492232072525e-05 -7.578336315283827e-05 5.856671518336083e-06 -2.88468554717508e-05 -0.02639676996913483 -0.07218745810994022
0.186 0.26535854646973883 0.00875485511662008 -4.9922107930123044e-05 -1.362495591744336e-05 6.972639166016136e-05 -4.2278498998973365e-05 -0.029791298272725468 -0.07074645021074415
0.187 0.26678190014255304 -0.003101398765553292 -1.6493215227014006e-05 4.001863712874278e-05 4.524833878057938e-05 -0.0001599375343873276 -0.03379807757234788 -0.06985147310040873
0.188 0.2676818568674799 -0.014353454767687283 -4.5761288155626386e-05 -7.822288654251268e-05 -8.132214460293831e-05 -3.323094074053368e-05 -0.03709779259166676 -0.06798260222297742
0.189 0.26823140057063455 -0.026593911865085633 7.989186014170078e-05 0.00015440775762227138 1.3729106161352738e-05 -0.0001914576936412326 -0.04115759722897509 -0.06653020760959724
0.19 0.26806362427606945 -0.03784163057452831 3.379731890224702e-05 -2.5441022316386602e-05 6.820136082704835e-06 4.8672246262851864e-05 -0.044705408762476764 -0.06494238298252868
0.191 0.26842451659041566 -0.04974481130967216 -0.00012632883964245405 -0.00014560515857464803 -2.3296940574572728e-05 -1.8469065672029215e-05 -0.04789524301250626 -0.06261252234103122
0.192 0.2669811850610008 -0.0621025651774236 0.00011721681372099739 1.7017048342562246e-05 -2.5626683361293298e-05 -0.00010997465723552711 -0.05091532797903631 -0.060027337671787674
0.193 0.26607043107456335 -0.07416893382787272 1.6423149658387844e-05 -4.006556023118666e-05 -0.00012119136726589082 -0.00010813774554412967 -0.05475714861656897 -0.05770199492919629
0.194 0.2634606538753716 -0.08546953261063482 -0.00015514330462991914 -7.777466748858812e-05 8.405965005785759e-05 1.3506205184728973e-05 -0.05738968343367629 -0.05513395575416476
0.195 0.26126919225554995 -0.09728377458124231 1.0627931644036142e-05 -1.3385475322546852e-05 2.9893532554300345e-06 2.785704162351071e-05 -0.06091823791873222 -0.05240373188048537
0.196 0.2580013774576958 -0.10902239828268055 6.841655341379666e-05 -2.709288593926553e-05 1.9327745706924276e-05 -1.633050118096494e-05 -0.06356743650513601 -0.049455281163437566
0.197 0.2539284189982993 -0.12092113349214084 -2.384549828515531e-05 6.73230227466062e-05 -3.3832624264603305e-05 -3.733288729335278e-06 -0.06595167421771342 -0.046717993232988836
0.198 0.2498041019959492 -0.13287235406376943 -3.9191936002439575e-05 -0.0001841366289778916 -9.433371223172936e-05 9.469455891968518e-05 -0.06894906159368537 -0.043241184731799234
0.199 0.24500060103059498 -0.14453020543831024 -2.0019204829397688e-05 -7.599617753136233e-05 -0.00010681909205176559 -7.277317392347881e-05 -0.07092433851812026 -0.039872124347201165
0.2 0.23883731216109663 -0.1563209920970139 0.00021795545527755557 4.232015781280933e-06 6.363808484371056e-05 -0.00016908233547219362 -0.07297460943158367 -0.036309285289824175
0.201 0.23356750814814772 -0.16691461744291355 -8.609106246741643e-06 -4.256758218649737e-05 4.602715757090765e-05 -1.8091623119414062e-05 -0.07521084591480777 -0.03237388862600666
0.202 0.22675552068815774 -0.17744730951670423 5.079387311559583e-05 3.639051349737135e-05 5.598865134429491e-05 2.9404681869728878e-05 -0.07731163331994693 -0.02878554273638254
0.203 0.22052659115855733 -0.1875428902555635 -6.223551004777075e-05 0.000143105192582124 7.820269515644088e-05 8.24985147097962e-05 -0.07887906656668899 -0.025083484036699372
0.204 0.21198594436558 -0.1980181131412865 4.756812423518271e-05 7.725123861740925e-05 -5.898596178533661e-05 5.577720417729455e-05 -0.08032960878050327 -0.02123102901337034
0.205 0.20327923729328382 -0.21010012609459958 8.684369598068393e-05 9.67145714340769e-05 5.17874447756917e-05 7.966835718084707e-05 -0.08149631740131766 -0.01722968335685055
0.206 0.19583587446324038 -0.21840939010683688 9.454613505460455e-06 6.609558674219407e-05 -8.969472081908477e-05 -0.00011714028124906854 -0.08271196422999127 -0.012984702926231106
0.207 0.18632527530076118 -0.22835244594331777 7.787268010843482e-05 -5.7319322568439934e-05 -6.222213955390972e-06 7.718162856488272e-06 -0.08355859481516742 -0.009278007492946631
0.208 0.17660995395372575 -0.23809702845798691 -2.413148486152908e-05 -3.460373715090524e-05 -2.9542051839650227e-05 3.826175070011516e-05 -0.08428787357360773 -0.004498016130018564
0.209 0.1675755290891827 -0.24566733223252288 5.931583420499351e-05 1.6148545840095784e-05 -9.734239954800132e-05 -5.368048794192489e-05 -0.08500337513258302 -0.0007534046504063254
0.21 0.15734380761285122 -0.2535109439944673 1.1108938315929319e-05 -9.224221086893775e-05 8.915206108923707e-05 -2.4063386211366402e-05 -0.0852951775581187 0.0038172923250299807
0.211 0.14693948008432492 -0.2628835729855487 -4.657339015872724e-06 -6.060314218572901e-05 2.8180693775434262e-06 -6.384519180831861e-05 -0.0855836292838968 0.008240766205037409
0.212 0.135516153271465 -0.26901881478477585 0.00011045177153891849 -3.3737824406894565e-06 -8.38154783663778e-05 -2.650232657338032e-05 -0.08485418238679508 0.012126121679854827
0.213 0.12292489052316995 -0.27513410848622627 -2.956316301913117e-05 -3.1443383635097385e-07 -3.0573049958469246e-05 7.395243665790595e-05 -0.08477453469231404 0.016754579499147347
0.214 0.11201900208700229 -0.2829051621964991 0.00013402704553613017 -6.352493462082614e-06 4.7226780956050694e-05 7.947353483371286e-05 -0.08416216689219402 0.02109372163643786
0.215 0.09995575363685552 -0.28692044882036366 7.122018719669101e-05 -3.6610184271213146e-05 -3.429485609343512e-05 -3.854034517796477e-05 -0.08342117577538255 0.02566619495713177
0.216 0.0860507954221782 -0.2923313707638835 1.3012822363571734e-05 -3.848965435606645e-05 -7.373782493888206e-05 -7.67128185972706e-05 -0.08237559576221402 0.02996954530703436
0.217 0.07301502712951422 -0.2965481648028045 -4.370019233317263e-05 -0.00021300869911201713 -4.5037433594126176e-05 -9.342175709950365e-06 -0.0811600846551729 0.03425467511790173
0.218 0.06083323000616894 -0.3016355200297913 -3.765103020853104e-05 -6.666457244755119e-05 0.0001694847671317332 1.8774306097098586e-05 -0.07975896535785333 0.03848456449981987
0.219 0.0468748738048138 -0.3062169703473228 4.985946633087952e-06 -4.210145902750907e-05 -3.145437490139825e-05 -5.9923666837226546e-05 -0.07797655220608306 0.042737913052324245
0.22 0.03371794586548966 -0.3076825289073864 -3.636997592946864e-05 -2.8240050922427795e-05 -5.649140851518892e-05 -1.4930618378453135e-05 -0.07609627021122754 0.04693210394139372
0.221 0.01786182528930889 -0.3082445113566894 6.566702442040224e-05 -0.00010614098520490173 5.221495308173515e-06 -5.713288785260964e-07 -0.07400428700780026 0.050802330795062786
0.222 0.00518581346820742 -0.31170918489837496 -0.00016645726679326707 -0.00011743628198531127 3.490625702774541e-05 3.180882823286317e-05 -0.0715281394261736 0.05502506454084398
0.223 -0.005511497743419899 -0.3108947538314316 6.542467453229717e-05 -2.488319520900637e-06 -2.526213425765142e-05 -3.9594012775143906e-05 -0.06891184776504367 0.05877507228696991
0.224 -0.022624550218537744 -0.31252136713212003 2.5562573010942745e-05 -3.717205383659353e-05 0.00018823624931390849 -3.4809546518145956e-05 -0.0660673769332181 0.06266136651115853
0.225 -0.03496671109052446 -0.311812015112364 -5.851253572699917e-05 3.07441983752634e-05 8.414934706612661e-05 -3.7434773084273926e-05 -0.06309827779141802 0.06596732054975142
0.226 -0.04902070155230304 -0.31156637688737826 -7.237169096074588e-05 -4.848578868836068e-05 -4.797551226772523e-06 2.1633375202734134e-05 -0.05993947071535466 0.06969759671416612
0.227 -0.06144751091639792 -0.3109110644169624 -6.467106380074026e-05 2.6540019992635748e-05 -8.924507902168388e-05 3.798285972494961e-05 -0.0565413875478497 0.07307566019227851
0.228 -0.07633650207698099 -0.3065250728056594 0.00018302838021528277 0.00012332715390095373 -3.156692244369911e-05 1.7678325986185764e-05 -0.053053278185334056 0.07612085079525402
0.229 -0.08897948015037865 -0.3041937058925543 -9.832243875856743e-05 -0.0001450639351827767 3.808918077275512e-05 1.0087768740463574e-05 -0.04932610315028269 0.07915424989986762
0.23 -0.1027045767535048 -0.30161182556889693 9.43473854311325e-06 -6.793805986583757e-05 -6.060099445119209e-05 -5.689879244086158e-05 -0.045465965252234945 0.08193053544540813
0.231 -0.11490489952831745 -0.2980612923008255 0.00012325574980925994 -0.00012053808515244513 -3.7739717894800436e-05 -8.759447736049079e-05 -0.041362157498119216 0.08439571209709536
0.232 -0.1275849684387989 -0.29282460522528597 -6.504281766893788e-05 -0.0001465184882847078 6.766133798214982e-05 -2.803435078034407e-05 -0.03705772782594447 0.08684125007627659
0.233 -0.14454076400559845 -0.28881826902189844 -3.845033340560863e-06 8.132164489015015e-05 5.309381478827942e-05 -9.714601024102997e-05 -0.03267619722775115 0.08905854290592288
0.234 -0.15385333571735382 -0.2823518451293395 -2.8210151074492034e-05 6.979517248816606e-05 -5.629982442273884e-05 -1.5027912178328654e-05 -0.027854523551905336 0.09119698393646916
0.235 -0.16790767008278232 -0.27729971359760125 -0.00010991760852527157 -3.651146149043291e-05 1.5499318485692163e-05 2.640103782127971e-05 -0.023573534346996015 0.0927150284439538
0.236 -0.18041559512953126 -0.26850254657610273 1.9022385064167972e-05 -4.947433631412369e-05 5.232049660380982e-05 -0.00020276450901832114 -0.01852249391941545 0.09405688498502511
0.237 -0.19183429183570758 -0.26237846331867065 4.4151632652796815e-06 4.50482927822057e-05 -5.037583439068521e-05 -8.790574919678805e-06 -0.014116856419150085 0.09503419191140332
0.238 -0.20184991498641072 -0.2537601216600616 2.6430702425865824e-05 1.989056050637704e-06 7.333101199645103e-06 -2.9048411381219627e-05 -0.00917899639995982 0.09649970479143466
0.239 -0.21347182608998214 -0.2469961155495339 3.642371823401694e-06 -0.00015897602113700511 7.126608608125296e-05 -8.533448423326848e-06 -0.0042888730109647884 0.09671815564441855
