!Created with skrf (http://scikit-rf.org).
# GHz S RI R 50.0 
!freq ReS11 ImS11 ReS21 ImS21 ReS12 ImS12 ReS22 ImS22
0.13 -0.027956769508311774 0.004564789183228464 -2.8760978031221724 -3.800512759692231 -0.0014329498564810794 -0.0016192102378254107 -0.00029885468424690906 0.007606359641335917
0.131 -0.028080628803983067 0.005952716191341162 -3.0982871103871132 -3.6026872267516046 -0.0016411318926398699 -0.0014683885225275923 -4.244781523817691e-05 0.007686497784497001
0.132 -0.02806379303214856 0.0073517653386404955 -3.3195555300480857 -3.3964825351466885 -0.001702458559810304 -0.0014750409523422291 0.000673852005787352 0.00781880219641829
0.133 -0.02765003654901708 0.008884110136986109 -3.522264833970386 -3.1941447994703496 -0.0017279867730474205 -0.001362999191927744 0.0010064382458194248 0.007800772668439044
0.134 -0.027539229655365028 0.01043368077599475 -3.721992083760721 -2.944069665183287 -0.001911275288254546 -0.0012198160757347252 0.0016372269763350426 0.0077886713926544155
0.135 -0.02735189052000402 0.01179108213094236 -3.89834392708233 -2.728857709680493 -0.0020033628818842165 -0.0012978943160166308 0.0018285521223654314 0.00776558321633423
0.136 -0.02689526536977441 0.013199509289925424 -4.0548617654919745 -2.44243078104359 -0.0019628806606995534 -0.0012224541246945143 0.00233541775964522 0.007778957318613313
0.137 -0.026454459304412887 0.014602704850495411 -4.228941572934974 -2.181697262730239 -0.0021310625753237916 -0.0010891268366752243 0.0029164459161012493 0.007602248503518224
0.138 -0.025865809436300433 0.01605995075209315 -4.329477778808417 -1.9036067121198303 -0.0020667384562361242 -0.0009826722104350418 0.003294837526774873 0.007706578613787513
0.139 -0.025367342611024954 0.017409039567344048 -4.447821386660248 -1.6284967730565665 -0.002207953266916289 -0.000947185381470047 0.0037312435942060134 0.007342767995239387
0.14 -0.024711674469477484 0.018722154035576095 -4.5407096115269985 -1.325511629116548 -0.0022278781314540893 -0.0008520668848430512 0.004124668421969999 0.0072430123491509565
0.141 -0.024099009239372613 0.019948613976857665 -4.6427050596735855 -1.0312556053940656 -0.002316655730741553 -0.0008232158955949218 0.004548147404098154 0.007128967931610976
0.142 -0.023216163117282307 0.021332003505118942 -4.674701502031521 -0.7384398975922525 -0.0024241393832043264 -0.0006191727996193381 0.005062315097449169 0.006778298082967499
0.143 -0.022437167023275854 0.022363861446442056 -4.715254057633275 -0.43845847628812 -0.0024367802016281802 -0.0005772935700102328 0.005454119406209183 0.0067025116007920155
0.144 -0.021437277327491972 0.023523151243990605 -4.738666645139709 -0.1396056221017934 -0.0026541792409050307 -0.0005399988696447776 0.005741534794094175 0.006297605612109192
0.145 -0.02054793362775542 0.02475422612242833 -4.7315286008019815 0.17104241159859454 -0.002634825432245498 -0.0005170068178545346 0.006210147430729573 0.0060546108244036905
0.146 -0.01946392127855383 0.02596182703382037 -4.695647960475835 0.46636015457919155 -0.0026522494351785848 -0.00038345019006918974 0.006541805377304764 0.005839585874728751
0.147 -0.018511992052504384 0.026825268509303314 -4.658434444079706 0.7717209138195349 -0.002731786990214276 -0.00014690228626246038 0.007029753680155362 0.005484145979152771
0.148 -0.017262865681489773 0.027807428516142735 -4.6092460831744955 1.0575105153464561 -0.002577363659436171 -0.00019612567957153965 0.007308538545071998 0.005124179809160437
0.149 -0.016157852636420045 0.028750685268876072 -4.525457157195015 1.347888035783045 -0.0028364686140730524 4.486829729198423e-05 0.007668586498275216 0.004920413763500712
0.15 -0.01503267423599216 0.02961800643642792 -4.425327706964269 1.6408209868058246 -0.002776135787364801 0.00021087061179550262 0.008023915448762783 0.004515551934046617
0.151 -0.01371642032354417 0.030344298295295932 -4.310015855570294 1.916830526630145 -0.002771032536528128 0.00022112670286941047 0.008313364944191746 0.003957447624751334
0.152 -0.012322498485030217 0.031420607573069075 -4.1807571167495015 2.1923293377440265 -0.0028384954929525324 0.00033674302950312474 0.008616268224481798 0.003484102786695798
0.153 -0.011139102918852065 0.03197451164786998 -4.027391910152261 2.4416278809037704 -0.0028351942293296925 0.0004935459336749165 0.008790906019312828 0.003133441467887438
0.154 -0.009896294768945218 0.03267181774397823 -3.8642923246028626 2.6940446833850262 -0.0027507584876175525 0.000610221997783335 0.009056680594106501 0.0027915392044694934
0.155 -0.00848541285853608 0.033430498722416595 -3.680781057586624 2.9139205404471187 -0.002729961616203836 0.0007695269705952716 0.00939851242505537 0.002387259129167279
0.156 -0.007111690418737515 0.03386638009609658 -3.478154736090356 3.1584678697458695 -0.002790157695442535 0.001023296571502589 0.009435998386195792 0.0017072199701345762
0.157 -0.005519680064365103 0.03448460118277824 -3.2699352828728454 3.36677077757362 -0.0029070675332100245 0.0010756273195519624 0.009636429029834899 0.0014546177502716034
0.158 -0.003997750082574928 0.035045316131465214 -3.043881544722983 3.5718096595772217 -0.0028029879345070675 0.0011974734123102694 0.009963188727600433 0.0008201831981526335
0.159 -0.002825840407914798 0.03505015035719726 -2.809910665470562 3.7586488469434203 -0.002844953444561574 0.0012209101286201694 0.010066358873577305 0.00031472511085303337
0.16 -0.0010869718709516363 0.035816868826123914 -2.5678441736426096 3.931795290723778 -0.0027807133605806666 0.0015078409975300808 0.010164681503130867 -0.0001998036876325066
0.161 0.00032773467165586996 0.03614277070948831 -2.3040187425126026 4.070396621417903 -0.002814736437176829 0.0016456230456562823 0.010208410325066137 -0.000748119401691947
0.162 0.0016853896534743703 0.036221415301073895 -2.0378010751936464 4.20646149658171 -0.0027469154781940576 0.0017870645441677635 0.010305204236821505 -0.001180846851953505
0.163 0.003414629702399473 0.0364251541577311 -1.7609086899834976 4.324411027494304 -0.002635626406235328 0.001988905642639532 0.010348871670534086 -0.0018494391286568554
0.164 0.005194860059668948 0.0364049047570035 -1.4977697413816327 4.429145861556642 -0.0025887755288108182 0.002037394102496948 0.010384066330633587 -0.0024955209587942838
0.165 0.006641875444872059 0.03654504728051001 -1.1964872481775424 4.5395484769827785 -0.002564073888797467 0.002320758960575966 0.010346103628064195 -0.0030135097683574442
0.166 0.008220517267602966 0.03657263346051904 -0.9045478915031706 4.599894263688514 -0.0024890411655827463 0.0022033279844227826 0.01036988294631328 -0.003586262759645447
0.167 0.009750792719923617 0.03632110964932339 -0.6132950258935116 4.643758573256517 -0.0023597419583276896 0.002350749835867783 0.010128603902010003 -0.004151179733761964
0.168 0.011624715058930314 0.03626450160916623 -0.31285753024689605 4.666036893231944 -0.002452532970643848 0.00260498332814223 0.009993605720755826 -0.004833787830378169
0.169 0.013506809779554214 0.036193289225164293 -0.009864640939348046 4.667470044362562 -0.002191505550882711 0.002671842721309855 0.009793312028457393 -0.005458673421138474
0.17 0.014810332719070457 0.03601197810013899 0.30250098160812244 4.668921630613246 -0.0020845139939651416 0.002658329939758662 0.009550463335370915 -0.005968244524005846
0.171 0.016551754463575253 0.03530663715533194 0.5909870149295129 4.630406742302588 -0.0020342082478041904 0.0029276086537196808 0.009458265909983369 -0.0066786416857257495
0.172 0.01843966796167027 0.03512064648536803 0.8633308780058144 4.574519709540531 -0.0020360331396305433 0.0029990974670983024 0.009118723636868824 -0.007264532390220485
0.173 0.020052003263767968 0.03436489208532749 1.18991237471492 4.502146150510832 -0.0018387554155276733 0.0031215872544024478 0.008734397341624043 -0.007885537969484357
0.174 0.021730797476823698 0.0339010292183502 1.4481927298944726 4.416065101724517 -0.0017991746026818683 0.0033610566445297853 0.00848388341089798 -0.008442915723976024
0.175 0.02365751541896357 0.03314270992148921 1.7362059283925615 4.327812315099255 -0.001476429278114479 0.0034012605404237567 0.008131763266730018 -0.008985551542480888
0.176 0.025508310967189047 0.032429837049099006 1.9897585033890723 4.212934423724571 -0.001565094990742057 0.0034819863521581814 0.007588271628052813 -0.009678496872945403
0.177 0.02691894335758143 0.03153762047582836 2.262163254074226 4.045203308932439 -0.0014523484449940982 0.0035164463377769174 0.007227002591433389 -0.00996353388879099
0.178 0.028241901980890053 0.030418511974419 2.5096236200258493 3.9307395970221717 -0.0013022335803932646 0.003630912193055819 0.006642202087194344 -0.010549551883125126
0.179 0.030381738476272013 0.02960061654619069 2.7402413603230014 3.7167199124924575 -0.0010225428264962456 0.003750643660710027 0.00614895391936369 -0.010982381565588683
0.18 0.03187397915120989 0.028221028796525546 2.9897575107243135 3.583596811201504 -0.0009233192677521452 0.0037945778317482726 0.005607893126348965 -0.01151381897986316
0.181 0.03352169603022416 0.02702445759774205 3.216192597789461 3.380840927079379 -0.0007239349437308712 0.004000297562189092 0.004855649982030288 -0.01189191740675783
0.182 0.03501518868254282 0.025812107347147516 3.419584647909978 3.159518637000951 -0.0004661104065777954 0.003998862686467294 0.0042764403332767546 -0.012187086299788884
0.183 0.036542679284163694 0.024364818929169748 3.603872224241463 2.951048439361962 -0.00040018223847730064 0.004135364315491677 0.0036247012595355408 -0.012679978669313448
0.184 0.03814195630183951 0.022867594809505606 3.773441026560626 2.6772334312056976 -0.0001734759912700242 0.004068731234235091 0.002946161654710742 -0.013024286099171965
0.185 0.0396278809625389 0.021047131525942734 3.9286407774824665 2.4548872165100253 -0.00014508634563526019 0.004138549914265493 0.002025705707536577 -0.01307818557470358
0.186 0.040952087720638373 0.0193731658418261 4.08139142100188 2.199290119092545 1.4221188919586708e-06 0.0041718480547299095 0.0014037168441003818 -0.013390600243005093
0.187 0.04221357920041084 0.01751241733783082 4.212735804462011 1.931746989369276 0.0004413374659349848 0.004315038167481016 0.0006557023074729799 -0.013612222504583292
0.188 0.04335739747698439 0.015365303972916765 4.340912754701652 1.6537687375537493 0.0004130152620819796 0.00423783895565441 -0.00010452615327561431 -0.013567521863175004
0.189 0.04435556872391057 0.013445208402179271 4.417526417835322 1.3721737450164897 0.000723548732671661 0.004284271518873348 -0.0008614140934798263 -0.01362655482846164
0.19 0.045523707979570116 0.011269601939362656 4.5116716421239795 1.1080749990948573 0.000844009322367198 0.004171726181955786 -0.0015674574114679005 -0.013658042157053194
0.191 0.046285506127380034 0.009144446909568378 4.5709525403027556 0.7940183273464114 0.001165184810473646 0.004310887260636289 -0.0025426186325276626 -0.013703100408830363
0.192 0.04705141286571208 0.006829499682685607 4.5831966391480075 0.5041355290147035 0.0012096840915173971 0.004303813486552739 -0.0033760291529438473 -0.013572044110872565
0.193 0.04785530990625467 0.004299009527929856 4.623989021524579 0.20793857646907984 0.0014590661379612507 0.004215948369978912 -0.004153186349131181 -0.013627647385365677
0.194 0.04818880170430424 0.0021092145756151657 4.6259407484667445 -0.06963578196333499 0.0017095560167302852 0.004275716623209042 -0.005062327176483468 -0.013359035086186528
0.195 0.048576658755567145 -0.0003947088296325919 4.615336376578671 -0.3788517943141547 0.0019027387593519344 0.0041676470929016335 -0.005798357678485564 -0.013092930664422004
0.196 0.04881401343664992 -0.0028439621270248084 4.56692129077275 -0.6677363642055988 0.0020032170695331265 0.004120028385850327 -0.006552380535827333 -0.01286410687514141
0.197 0.049091798670825325 -0.005426391184459391 4.521717267661207 -0.9460677474658166 0.002340582384122186 0.004080627366857944 -0.007238907405424965 -0.012432228684485085
0.198 0.048953344212756315 -0.007998683912772463 4.452014657754229 -1.2331004495182332 0.0024542137575795427 0.004151851276108525 -0.008076915518798192 -0.012043470705164911
0.199 0.048813669745603624 -0.010601100297525971 4.361067174833215 -1.526790095080083 0.0027769456813789887 0.004057941032694031 -0.008834062614984551 -0.011612451825992375
0.2 0.048459335079256774 -0.01328432106024558 4.248007513074683 -1.7878112190975848 0.0027000289039482354 0.003872594595909256 -0.009505657121417516 -0.011129694516226269
0.201 0.04802591264726989 -0.015738612575079133 4.122476464009587 -2.051532221350939 0.0030944345093421957 0.0038090801600080297 -0.010200131408093015 -0.010579853403886005
0.202 0.0472048268196366 -0.018365289870003677 3.9871475663525526 -2.3059693098240124 0.003185672487205963 0.003693843438370883 -0.010824820701605037 -0.010099829048360983
0.203 0.046602874876423256 -0.02109538622852672 3.835201749430615 -2.5546650592537326 0.003371614924540663 0.003605991028814463 -0.011462668149537522 -0.00953604487522912
0.204 0.04559566557209213 -0.02359748868906198 3.665682797093736 -2.798905521651627 0.003501029070161664 0.0034503185702154525 -0.011850387527300566 -0.008841555794666322
0.205 0.044450002954098906 -0.02624636248452269 3.4710103238130965 -3.0116989572425408 0.0038634235776112426 0.0033124511928173217 -0.012427374745228505 -0.008171994687850116
0.206 0.04308666032104022 -0.028474102939432377 3.270610051219019 -3.2344647560412216 0.003983606831397329 0.003195173595132507 -0.012904625302868384 -0.007457528936713346
0.207 0.041678928950847044 -0.0309156051653478 3.0620482699555245 -3.4541293928159127 0.0039846603216257695 0.0031452192650198896 -0.013560741204715739 -0.006765754194423721
0.208 0.03991562615150008 -0.0334260009230428 2.837072408699165 -3.6157642921246724 0.004201776691138881 0.002887168491010276 -0.013782977044917407 -0.005979605682832727
0.209 0.03833227835124008 -0.0356575816197982 2.5898122296735027 -3.7861448724963678 0.004351692080411881 0.002769414816073018 -0.014031459703860286 -0.005294177124501363
0.21 0.03659063786211871 -0.03767165936853798 2.3479315509004417 -3.932471622706229 0.0045835248037418815 0.002704113302512844 -0.014402160187792435 -0.004268250388193519
0.211 0.03452417972413031 -0.039783950044642157 2.094778342796709 -4.087781416793721 0.004679229213796368 0.0024166252871236425 -0.014700504678083818 -0.0036375816669749752
0.212 0.03245022758524018 -0.0417275666432413 1.8252648964026326 -4.190007685627383 0.004990509313416414 0.002301275155647078 -0.01484470842736751 -0.002738744004562323
0.213 0.030340840006616514 -0.043343787755140493 1.5446268180434308 -4.316942759799105 0.005069170757061916 0.002047173450672018 -0.015062165442744222 -0.0019265854825122756
0.214 0.02799730482215349 -0.04503702156642924 1.2735140286477444 -4.400479981627359 0.005250381605176393 0.001910982622823011 -0.01512001773513181 -0.0010407218648819626
0.215 0.025482196100674537 -0.0467497868649879 1.004293574370528 -4.486628735436232 0.005124822264346791 0.0016595564128313797 -0.015236859006751953 -0.0002950566911248316
0.216 0.022838250306059755 -0.04819387819390282 0.7183789065008046 -4.507814644980321 0.00533469693037992 0.0015715095414225225 -0.015137050568410935 0.0004852049210129032
0.217 0.020473814661326254 -0.04920976534323309 0.4117049619272011 -4.565948812703494 0.005506458388836674 0.0012046631255526945 -0.015163247982920533 0.0013953918076956312
0.218 0.017598444383351976 -0.050560264886147295 0.1192554547836213 -4.578036836186719 0.00562648811880517 0.001038741532785085 -0.014942630591689269 0.0022331911047180674
0.219 0.01494448164533191 -0.051272193761455545 -0.16100144183498838 -4.583599020708697 0.00569011261128621 0.0008239873548988132 -0.015094704403776688 0.0030796269389584395
0.22 0.012293088791550145 -0.051826629160291016 -0.4619112827247561 -4.537585223821149 0.00575787255107901 0.0005158647918896194 -0.014811216355780216 0.003772320759942876
0.221 0.009424826678340133 -0.05265281616163371 -0.741935856062801 -4.551744912716993 0.0057608346741793775 0.0002362400074618456 -0.014637537035434847 0.004621781455003551
0.222 0.00652642355878128 -0.053153454398409655 -1.032948138190001 -4.441024609078536 0.005863379247593188 -5.804330982534014e-05 -0.014343427158555775 0.005553101157077006
0.223 0.003743363428017963 -0.053637692349206005 -1.3271295941750416 -4.397615617624766 0.0059797494639591 -0.00020761843792390308 -0.013979970687379885 0.00625857660506883
0.224 0.0006623537448034778 -0.053672518442451606 -1.5980605822909146 -4.303699979899926 0.006041608808677802 -0.00047639154432498347 -0.013763180087802975 0.007000875250575099
0.225 -0.0021155711971152986 -0.05338102265098428 -1.8478022902455185 -4.194794539949674 0.006020667524514585 -0.0007563600008007772 -0.013373187935510105 0.007706432653419221
0.226 -0.005113962327958574 -0.05311052942871754 -2.1290752541240954 -4.050726797973104 0.005887569105610748 -0.0009505095208231896 -0.012896962091090446 0.00844807750233081
0.227 -0.007654537739759401 -0.05304707812743588 -2.381053691330904 -3.9082178633065574 0.005993832826227517 -0.0012242473228446836 -0.012453429805083993 0.008990992984904293
0.228 -0.010700899775532841 -0.05226819903306186 -2.630318754044242 -3.761394542126259 0.0060254158298205 -0.001385561165207711 -0.011916534165269159 0.0097064483533129
0.229 -0.013315023135211629 -0.05196742132031435 -2.862624432348951 -3.567752588418991 0.005848340834592904 -0.0017777764495809753 -0.011540389095573637 0.01036824082735662
0.23 -0.016365828400012137 -0.05115085363659951 -3.086813011952285 -3.3862362299784436 0.005852438293666929 -0.002079195076541013 -0.010917377243124726 0.011055197123289581
0.231 -0.018857569398739515 -0.05015521428164436 -3.2837364468263326 -3.1840726554197154 0.005859633061975512 -0.002322373077255059 -0.01040089327102747 0.011624469544099044
0.232 -0.021226461829976513 -0.04876296203152838 -3.456465467292792 -2.9848571377829085 0.005733019714899927 -0.0026142218791605507 -0.009704999255767519 0.01213279363908956
0.233 -0.02413691339835826 -0.04790300860451958 -3.657946310465643 -2.7346269284651847 0.0057776632864045205 -0.002833696878851536 -0.00915056326191791 0.012698149276974968
0.234 -0.02645122316227204 -0.04606110891235664 -3.816976753891174 -2.5069870862152164 0.005676003642179332 -0.0031879984270970136 -0.008447092041714335 0.013144290019053375
0.235 -0.028860129694415745 -0.04470714709831423 -3.9458559024864677 -2.2459725647014728 0.005583466525675456 -0.003402730919655267 -0.007871048691790294 0.013669620084223597
0.236 -0.03116840443463457 -0.043470414912519524 -4.093497456062154 -1.9937690775516042 0.005480186281237925 -0.0037318728818695563 -0.007153782870480089 0.014040089415707018
0.237 -0.033268303747928746 -0.04150938954727392 -4.209880741999028 -1.7236480545703894 0.005467653063155862 -0.004001316411638379 -0.006358011306385844 0.014404369093667544
0.238 -0.0349747836969433 -0.039957969149542735 -4.316424742991456 -1.4698249164505217 0.005255733004297665 -0.004167743354618934 -0.005687504106362314 0.014786315657292161
0.239 -0.03718029605076569 -0.037855588768005405 -4.371058935692994 -1.1923277790896616 0.005004172231654509 -0.004490972373086709 -0.004830880374356056 0.015144991099248165
0.24 -0.0391044843088976 -0.03599976913463452 -4.462682485681454 -0.9193551842551672 0.004931015659639136 -0.004698243471854307 -0.004115308719401303 0.015442737587549781
0.241 -0.04089943520364217 -0.033949713306354906 -4.486739793039778 -0.6212148113032472 0.00487040273554315 -0.004996881222374511 -0.003340554839932075 0.01563742372336959
0.242 -0.04261176488243003 -0.031783528109184236 -4.532417690981966 -0.32687560381006336 0.004618298111822151 -0.005183606471262192 -0.0025752877509694627 0.015936101865247607
0.243 -0.04429324666696239 -0.029841035754656776 -4.531706008763369 -0.050053194922676264 0.004421825139688662 -0.005393256056455859 -0.001667502899187685 0.016161955089860076
