!Created with skrf (http://scikit-rf.org).
# GHz S RI R 50.0 
!freq ReS11 ImS11 ReS21 ImS21 ReS12 ImS12 ReS22 ImS22
0.13 -0.1453250798233651 0.1260858398476361 3.5702007476163194e-05 3.030345828827333e-05 -5.8075348799153655e-06 -0.00011756091293145251 0.03303029341238658 0.04451082067124989
0.131 -0.14027213006312012 0.13249667221367112 4.370951970396807e-05 3.0488196271568043e-05 -2.255872913569911e-05 -9.677423332296795e-06 0.035578126441095974 0.042760254877591296
0.132 -0.13549301285060789 0.14076733616107276 -4.0089539619961245e-05 0.0001340636154119428 9.549033234079697e-05 1.6785503806184697e-05 0.037940255768199954 0.04136487367833659
0.133 -0.1300765134937406 0.1482422656736674 -6.23926139220263e-05 1.4019666727261529e-05 5.237518550510659e-05 -1.5843006847688795e-05 0.040508972724681604 0.03972399735668836
0.134 -0.12509832081324193 0.15426839158259678 4.768872877032243e-05 -6.466864797571071e-05 -5.26555130174982e-05 1.5075417751914903e-05 0.042827690042193646 0.037545964339323015
0.135 -0.11955686616273448 0.16097428545115997 -1.0263346398351375e-05 6.50585577796252e-05 -1.9415684130998633e-05 -6.966016742356496e-05 0.044797091993931316 0.03598863085392406
0.136 -0.11287755611708512 0.16661177277994296 -9.338878537896867e-05 0.00011933083356179127 -1.0298908185982098e-05 4.151156880159501e-05 0.04702059480776804 0.03418205731730302
0.137 -0.10475744904610401 0.17242282026306396 1.789336863660794e-05 0.00010824078445309537 8.675749070099978e-05 2.9415572690370053e-05 0.049104103913012245 0.03162506521979208
0.138 -0.09939697798875625 0.17845512683395034 3.2558782560875e-05 9.238329609138797e-05 9.344329765211885e-05 6.277372175874651e-05 0.05120721721435007 0.029016600930580012
0.139 -0.0923532943735235 0.183661517878777 3.400393914138585e-05 6.129051835715484e-05 -2.2630921533995135e-06 -9.296315418745216e-05 0.05320569583990921 0.026770131470487093
0.14 -0.08383847086574928 0.18799376217866506 -1.2243873751190784e-05 7.589756180612645e-05 3.0250034563928353e-06 6.972027001688086e-05 0.05458020500397978 0.02417927250453347
0.141 -0.07686424195413262 0.19289096144779974 -6.0599320213968826e-05 -0.00010440146676833887 7.996469068686058e-05 -8.017212587847639e-05 0.0563268464219416 0.021238294022132554
0.142 -0.06875928627432328 0.19663789471439594 -9.04647285679972e-06 0.00011834995441792779 6.451313466669487e-05 5.030409578133603e-05 0.05795871453120263 0.018301467855074274
0.143 -0.06142054214974613 0.2017334886106632 -3.364028887639123e-05 -4.2445859295629075e-05 2.5166251165086395e-05 -2.7289945619253767e-05 0.05914662184507338 0.015552603805563985
0.144 -0.052707038816873934 0.20495547570403758 1.9255309552214337e-05 9.618593143557125e-05 -4.799716528819152e-07 -7.838696773359012e-06 0.06009710701511906 0.01264401509172862
0.145 -0.04354508103489357 0.20920796698439553 2.4493424509866828e-05 2.164317327242724e-05 -3.50073618061238e-05 -7.127299366731077e-06 0.06095848508822089 0.00989359320348782
0.146 -0.03446568779468294 0.2119916359070769 6.867976496424425e-05 1.2215702382022407e-06 -3.232773214819257e-05 0.0001616583019288585 0.06186542068651292 0.006575620954609895
0.147 -0.02567176058833614 0.2145185658200773 -6.709598174708047e-06 0.00015711620427607834 1.816038534972353e-05 -3.7987357250494406e-05 0.06260677434506408 0.003168874564674764
0.148 -0.017937199532856062 0.216045906888112 6.719208603079304e-06 -5.275982938844717e-05 -7.788189211016488e-05 1.1976298859055444e-05 0.06318279405914054 -6.814773970004768e-05
0.149 -0.007312881828911789 0.21793306542886282 -1.3352579399631909e-05 3.8471707005870425e-05 -0.00011774753041506199 3.019063155794108e-06 0.06341383272126834 -0.003222050419730314
0.15 0.00346018174659263 0.21969168556703733 4.449294865936233e-05 -5.536356980616457e-05 -4.0671896175972824e-05 -2.5061287323641353e-05 0.06358739519873484 -0.0065031028692800535
0.151 0.010472446262447418 0.22085169932312268 -1.2268150879875844e-05 -6.302240138127953e-05 6.418633261384774e-05 -3.602236238017112e-06 0.06358866670224844 -0.010115900521937667
0.152 0.02128583899808733 0.22153681752143622 -6.683414773857495e-05 -6.580324669236133e-05 8.209882472485635e-05 -4.845230600237495e-05 0.06324397283933386 -0.013343245059091397
0.153 0.031527457520947405 0.2221313898008044 -0.00013072826877300137 0.00010028301100904426 -3.7789325146559274e-05 -0.00011584655407473558 0.06297216153484615 -0.016589516333914252
0.154 0.04036088005327036 0.22121700899299776 -7.635982001335994e-05 -8.623796705136419e-05 -4.5210945531081636e-05 9.5086844605605e-05 0.06236388047494336 -0.020156367101121286
0.155 0.047658232544460395 0.21986194382352126 -6.929235029698025e-05 8.672339187541381e-05 4.744951802314996e-05 5.012290187583701e-06 0.061660374471855 -0.02313296181560435
0.156 0.05935579571341765 0.2178901413583704 5.176898294105704e-05 0.00012193696661039305 4.2461681201271164e-05 8.590436171022478e-05 0.060639860516724826 -0.026727835556878222
0.157 0.06843886928720627 0.21680263663041902 2.8065482675284883e-05 2.9548611939471134e-05 -1.008075306514899e-06 -6.908933048576083e-05 0.05965689732527875 -0.029925601162001228
0.158 0.07646259315467617 0.2150845006661994 0.00011478908677159619 1.1473371713436877e-06 -9.075646589841513e-05 -6.033770238276852e-05 0.058143029862621515 -0.03321833334542946
0.159 0.08637084486262196 0.21210812127994116 -5.790852484869149e-05 -1.0349298499876772e-05 -7.207285758766208e-06 1.214071512892521e-05 0.056543617594313665 -0.03627749761002134
0.16 0.09558994533428122 0.20952581803000092 -5.8969336188273615e-05 0.0001436927969148982 -7.619280495692435e-05 -8.772224281572887e-05 0.054906198698974576 -0.03955238771491703
0.161 0.10526569282580982 0.20690931390451597 6.740434302482504e-05 -1.9757558292469794e-05 7.443986631248667e-05 7.681703100957867e-05 0.053346239688343185 -0.04233562284946745
0.162 0.11443177613375986 0.20237013644703628 -0.00011303434988868252 -1.5100827220240111e-05 -8.418637546984755e-06 0.00017136530403414897 0.05129247483531973 -0.04548896170952133
0.163 0.12418920596061331 0.19966695193029277 8.612495956858009e-05 4.01696641870773e-05 -5.394838759572525e-05 -7.754559469684623e-06 0.04912659610815989 -0.048332564876508714
0.164 0.13412086454852357 0.1945923495361233 2.8250974880031345e-06 -9.79343957604807e-05 -0.00011489799008400597 -9.398014230135092e-05 0.046730834510846954 -0.051025686486698356
0.165 0.14305499440843428 0.18985385446442848 1.4444162191744618e-06 2.0337284895004152e-05 5.380715349081622e-05 -2.224576065610304e-05 0.04422972504285173 -0.05370341744235126
0.166 0.15110267062113006 0.18491469993344814 0.00011739755651446116 -0.0001512692103541477 4.39085546201738e-06 -5.742919394182021e-06 0.04174079932312361 -0.05621684434040003
0.167 0.1596997930148552 0.17998786739421377 0.00021530578637631172 -9.672545837452358e-06 -2.9716834435256706e-05 3.2958672498893465e-05 0.039058153080050464 -0.058640550267746616
0.168 0.16707559904217778 0.17314172659980773 -4.239250737525456e-06 4.184246418823262e-05 1.2840344394728951e-05 -4.02265411320763e-05 0.03597016959933082 -0.06115100070412457
0.169 0.1763915440896208 0.16692140772720937 9.705902311463767e-05 -9.062660251918924e-05 2.6168460523461363e-05 -5.737997323501203e-05 0.0330389770291184 -0.06304167474151313
0.17 0.1826717750021391 0.16096053120818146 -4.960663869362157e-06 2.3128658667265494e-05 -3.358058065918773e-05 1.612403823378627e-05 0.029935669688360637 -0.06505210028102444
0.171 0.19012099458334825 0.15291883360503447 -7.168323283457807e-06 3.56185951473531e-05 6.191288579087102e-05 -7.24006717811389e-05 0.026453282014988068 -0.06684798107184012
0.172 0.1968799692371513 0.1456315898567123 -0.00017487467200260977 3.451214502029739e-05 7.444066313416492e-05 8.488189890714844e-06 0.02340672903297217 -0.06820458190514823
0.173 0.20526501329348634 0.13760961610702294 1.5492432709493755e-05 0.0002133966928293659 8.231883804527548e-05 -5.718562046522752e-05 0.01981481006607088 -0.06973000608625558
0.174 0.21125303442731402 0.12929759006142788 -1.2435769590304953e-05 0.0001638662599611158 7.767130045216389e-05 1.0005163771752107e-05 0.016117887859097894 -0.07111818151007471
0.175 0.2180463919484899 0.12173133242436626 -6.0344627886137394e-05 -0.00010484986970557942 9.611004573060909e-05 -2.6861072763915125e-05 0.012467906540705205 -0.07252931483067149
0.176 0.22389908586709756 0.11292143796042321 1.6334424317963446e-05 0.00012874962812255437 -1.0020167056008587e-05 -4.277629203445036e-05 0.009085278286870157 -0.07280337754698166
0.177 0.22927287132551363 0.10384450863422523 -1.8160298602624952e-05 -5.859855418242542e-05 2.971305856890699e-05 7.34991158411977e-05 0.005288703383730449 -0.07396506285709284
0.178 0.23494627228074125 0.09457062061352918 -4.16494912250197e-05 -4.0264369735113456e-05 -6.148730248057275e-05 -4.870421064523345e-05 0.001668952680545777 -0.07394433322209704
0.179 0.23941424465652206 0.08491882580639647 -1.6043309534623666e-05 8.335457140133601e-05 1.3421264600538622e-05 -7.077082306011337e-05 -0.0022116199341868 -0.07438042678523962
0.18 0.24546334316193844 0.07490387949501419 0.00014094023950245063 -0.00011137343741497476 3.1484232059438586e-05 -2.4712451317931425e-05 -0.006149327594239532 -0.07487072756384486
0.181 0.24950947807665613 0.06568581601059709 4.389267044367629e-05 0.00010038426011031364 -6.827638356993435e-05 -0.00012092805024990888 -0.00981934132936555 -0.07478228150493056
0.182 0.25312951090566926 0.05563106581089692 -1.4241727286247509e-05 1.9588010718385963e-05 0.00011609520190074156 0.00010957007460123984 -0.01409687243040691 -0.07489101558251585
0.183 0.2565966913833926 0.04455979178685987 9.946583262569289e-05 7.041759075443304e-05 3.0406419831662406e-05 3.59175137226574e-05 -0.017404057716367827 -0.07418437871998881
0.184 0.25942657444973843 0.03350659977556426 -6.225491283674661e-05 -0.00019294279085876455 -0.00011938945209140482 0.00010112653668695896 -0.021616179702973127 -0.07365678818170507
0.185 0.26283104675945224 0.022518579947787262 -0.00012490288763021375 -9.586841806429705e-05 4.187699707432802e-05 1.7955432286740973e-05 -0.025023087746594404 -0.07204942217108419
0.186 0.26492576902105547 0.01166587438555444 1.3716451317976772e-05 6.442283690861205e-05 4.629854400593573e-05 1.21206430393104e-05 -0.029603929827720758 -0.07116810196048859
0.187 0.26669310420313863 7.67066455106877e-05 -3.0551586173416575e-05 -5.3285408015659754e-05 6.078087310671967e-05 8.001012711714565e-05 -0.03296247404167728 -0.07003890719282996
0.188 0.2683568699920012 -0.010696091707071195 -3.6870016651846146e-05 1.979154234422604e-05 -4.495109892427282e-05 -0.00015576064906434945 -0.03644841131514216 -0.06891176290306994
0.189 0.26900190157122544 -0.022886792623469206 6.919834231775582e-07 1.5959140783929262e-06 2.5390932260394596e-05 2.8120776452729448e-06 -0.04027028103043135 -0.06683508079207544
0.19 0.2687321946325581 -0.033996237162195256 1.1878963405850026e-05 -4.158733449467738e-05 4.2877315976644165e-05 7.89637730219218e-05 -0.04353380852331041 -0.06512411008701598
0.191 0.2684674218035267 -0.04665658068012591 -5.6590369289950745e-06 -1.2724410714653011e-05 1.9024261264534204e-05 -6.823782037595128e-05 -0.04712294926283729 -0.06295295700728383
0.192 0.2680119010414291 -0.05835852875413146 1.4303729072540994e-05 -5.385191644811885e-05 -0.00010633976922182807 -1.544814324377326e-05 -0.05020070566896054 -0.06039328067033211
0.193 0.2668696487120832 -0.06980633301613218 -4.227714749475425e-05 -1.0577622303310124e-05 9.75749069785206e-06 8.820581067810325e-05 -0.05416642921739197 -0.05870923370362098
0.194 0.2651211766458218 -0.08173805048598394 6.559979728303941e-05 9.660081968925938e-05 0.00014417760394386922 -6.0155515708482905e-05 -0.05652183277568922 -0.05581720199136492
0.195 0.26259197300000575 -0.09397205661775253 -1.762427630383865e-05 -2.2710847470826314e-05 2.896748664689054e-05 1.2320448908610838e-05 -0.059791438910435916 -0.05320499293880747
0.196 0.25864324395317145 -0.1056079536963309 3.0859766536331964e-05 6.810895612022967e-05 -4.464351091009775e-05 6.477679297062431e-05 -0.06245207050450355 -0.05034749225452205
0.197 0.2558742666130763 -0.11707770353116521 -6.199437175354578e-05 -5.438256105563833e-05 -7.578873365615788e-06 2.721322642757488e-05 -0.06569076803658748 -0.047508516984586406
0.198 0.25231283070083266 -0.12995508817366747 -5.064285793097028e-05 4.080438198364171e-05 2.8777081892223138e-05 -0.00012511414378843402 -0.068563408608717 -0.04395622116534088
0.199 0.24717003046517083 -0.14115755257678575 1.5633257792809405e-05 -1.6350786903994796e-05 -4.531861713315087e-05 3.6723719189696077e-06 -0.07059616615142356 -0.040977198988798584
0.2 0.24206582550490904 -0.15259375749052556 -2.3045896777749076e-05 0.00012017860137953342 4.952603059444379e-05 4.44286337554932e-05 -0.07302584503715887 -0.037233614894868754
0.201 0.23595110424850807 -0.16387580205725916 4.890744406319982e-06 6.097343526371854e-05 5.6682888266325224e-05 7.418384760157957e-07 -0.07457519233830527 -0.03342257304579674
0.202 0.2299579901116833 -0.1740366541950107 -6.864559936040987e-05 -3.450637727673513e-05 0.00010936625991611364 4.703824926539428e-05 -0.07687130337554002 -0.029773010745685533
0.203 0.2217961382996101 -0.18468344434958311 3.2059783788674154e-05 -1.3697008618466537e-05 -1.3197259292628193e-06 -6.912506578702076e-05 -0.07834904287639984 -0.0261558404708326
0.204 0.21651951674140582 -0.1959731390006314 -6.232391393103826e-05 1.3968525446735507e-05 -3.438295821293845e-05 -9.869540715053589e-05 -0.08024389198965703 -0.0225602632900111
0.205 0.208693615969815 -0.20628875024697782 -1.4501132255233973e-05 -6.781315183212413e-05 6.122684196323574e-05 -8.062571245444159e-05 -0.08159765590296439 -0.01814813857185226
0.206 0.19935823612025605 -0.21467878835036946 2.897814269224118e-05 8.251047106832466e-05 -2.7556141184576727e-05 1.1326185498201096e-05 -0.08247430140517063 -0.014171676887268284
0.207 0.1898923315010868 -0.22505558268424214 -1.120664036303717e-05 -2.5568266962334637e-05 -7.177520382902074e-05 6.12341433534511e-05 -0.08355019987337925 -0.010015912279851727
0.208 0.18194936224925476 -0.23523924238636879 -2.6279828454949028e-05 7.690077821383059e-05 2.4002727045995722e-05 -2.0175562171929728e-05 -0.08442590633305436 -0.005915202672781689
0.209 0.1709119444328353 -0.24414068791989063 -9.97517461512364e-07 6.711114233467436e-05 -6.379463302020515e-05 -1.1185941906594132e-05 -0.08485119229588196 -0.0015620976265504688
0.21 0.16082153107125718 -0.2520977517189499 0.00012118027137352428 3.4612690977181126e-05 -0.00011856941682497132 -1.1857661442217489e-05 -0.08522763300568588 0.0026853658427418185
0.211 0.15005502745368926 -0.25912716951709913 0.00013529381333097517 -2.1467439770247263e-05 -7.059864489340074e-05 6.9131529470644e-05 -0.08568805326971586 0.006884889526193422
0.212 0.1374280471817759 -0.2672581421161947 -0.00010523199952709367 -3.162429729499533e-05 9.67554299517804e-05 1.9199567837796322e-05 -0.08522677069039955 0.011409530551806563
0.213 0.12702410940365275 -0.27366956056093705 4.579764901763796e-05 6.937238971059672e-05 -1.4015979500286981e-05 1.7694650109922462e-06 -0.08488592290362584 0.01530206809139307
0.214 0.11560577349190712 -0.2810460718231627 0.00010735172912234527 -5.019934186095735e-05 7.591669205218186e-05 3.163234726246491e-05 -0.08451293903235967 0.020058335552038748
0.215 0.10451051155181121 -0.285926601423408 -2.6315968192581027e-05 4.398711061250927e-05 4.192497987179938e-05 1.8093712161815313e-05 -0.08370618601497981 0.02442289690390221
0.216 0.08943913118901452 -0.29175946648015827 6.248486533314969e-05 9.036723419681389e-05 -3.052740315070356e-05 -5.842845990162349e-05 -0.08272242881205667 0.02868563797492975
0.217 0.07834147299442056 -0.2960855118346593 6.99430460692321e-05 -1.4326313465311252e-05 3.4693395408320826e-05 -6.916447021573251e-05 -0.08157931801952685 0.03319332568681425
0.218 0.06570608234460545 -0.29947138753326863 -1.765915427196893e-05 6.463409189523713e-05 3.714604978426561e-05 -7.586510165661866e-05 -0.08033567831512999 0.03752784306088274
0.219 0.05286864205080147 -0.3037060152412458 -2.191248897317917e-05 8.788619297994144e-05 -1.076717437263873e-05 -9.613351831252447e-05 -0.07861479320956412 0.041731502058939676
0.22 0.03884452126998349 -0.3068467124383734 -1.8967965621633468e-05 -0.00010975927003329029 -3.107124397743513e-05 -4.368615532693668e-05 -0.07662666236347292 0.04594245702136458
0.221 0.025689680527506933 -0.3094212291648286 4.086343501625346e-05 -6.219754479370367e-05 0.00012520791345558175 1.3602364025565159e-05 -0.07474945701936946 0.049960734611583006
0.222 0.01056862984718892 -0.3111609011628583 -1.7573035720401032e-05 6.306568319538734e-05 -6.301703375775058e-05 -4.113095860013171e-06 -0.07231900266806064 0.053987802645229455
0.223 -0.0037978033610619496 -0.3129347192820443 -6.952297568521849e-07 -1.5956454869428278e-06 -8.124968089790274e-05 9.492129053639223e-05 -0.06976281742484122 0.05803721689461479
0.224 -0.014661477539104883 -0.31371398000267897 -7.34252210189932e-06 -8.594976355214676e-05 -3.502016633919889e-05 -2.993483145557027e-05 -0.06708670583545714 0.06164213426651612
0.225 -0.0314069137114616 -0.31318747369877464 -7.183630033911396e-07 -1.5863239423285937e-06 4.69539947980471e-05 8.793846095418182e-05 -0.06417663058834269 0.0650045162044883
0.226 -0.043141737977458905 -0.31221902472971935 3.900731336960063e-05 5.322208704373835e-05 -4.550369687746256e-05 2.6420693751189567e-05 -0.060956786647938535 0.0688045345116924
0.227 -0.057500932192581775 -0.3117892213537116 1.4170642977467039e-05 -2.428870091485861e-06 -9.375412072376424e-06 2.6521308724528806e-05 -0.057607732794894034 0.07215992436149028
0.228 -0.07086517703621073 -0.30742889058413064 5.506981739077333e-05 3.8356428277372744e-05 -2.592483944082444e-05 -1.0725997842583499e-05 -0.054245014027553946 0.0752104052826126
0.229 -0.08564893434536404 -0.3060831454144004 -3.356789314157679e-06 6.210679799196873e-05 -3.807225912649575e-05 7.532942192241298e-05 -0.05037239238797546 0.07852428569693937
0.23 -0.0962109934677307 -0.30398564543752793 0.00013320285956662493 4.239841175884925e-05 -7.083316275981475e-06 -5.6076371049859894e-05 -0.04677237274429627 0.08116540545146818
0.231 -0.11068042566481386 -0.2995092562278177 0.00013011032927884802 1.861836265750393e-05 -5.230233161495004e-05 -6.414679801815309e-06 -0.04270128584231212 0.08367902114357698
0.232 -0.1266239327935969 -0.29500241393072224 5.519815565818657e-05 -0.00011625522790002507 6.680914397345197e-05 -1.0106961446779436e-05 -0.038142249769926015 0.08617437226602048
0.233 -0.13889689586586879 -0.2925882545450181 5.4782506772243085e-05 -0.0001147532276219076 5.4009405421275704e-05 1.691581704095636e-05 -0.034038113359125766 0.08860009046690276
0.234 -0.14819331604558603 -0.28634288027292987 -4.123360409073424e-06 -4.3792673158469305e-05 2.0788408783180203e-05 -4.435173474573679e-05 -0.0295451584408572 0.0906152303323982
0.235 -0.16217236850343777 -0.2789111407857117 -1.1989314676648095e-05 7.2551788871360205e-06 1.6697906607294977e-05 1.466886429212859e-05 -0.025208816336251903 0.09199511367056065
0.236 -0.1755486112779248 -0.2731254722806265 -1.3460297153881608e-05 -1.3069584158856856e-05 4.979875524016325e-05 -0.00010862509245774265 -0.02052642128429415 0.09392114334453366
0.237 -0.18580786366215044 -0.26528413480678037 -0.0001632808514678701 0.00013009770060803968 6.628630027673545e-05 2.752818851571235e-05 -0.01567922315121983 0.09484694849638424
0.238 -0.20013751838383734 -0.2585175944431219 -0.00016924315592160814 -5.4276945310912854e-05 -0.00010465713567378849 -3.581301573163587e-05 -0.010491496740931345 0.0964656095523341
0.239 -0.2105569579229914 -0.2511405729872253 -0.00011202039145746235 -0.00010870943346251868 -3.7040190995693326e-05 6.04811145296088e-05 -0.006127838368397078 0.09630946173581642
