!Created with skrf (http://scikit-rf.org).
# GHz S RI R 50.0 
!freq ReS11 ImS11 ReS21 ImS21 ReS12 ImS12 ReS22 ImS22
0.13 -0.08367097871622717 0.17322637904063945 0.00022671936852380724 9.002659468953871e-05 -9.661241904276279e-05 -6.419293552918609e-05 0.04786448672572961 0.02836382724302265
0.131 -0.07626376560132186 0.17936010678298087 4.1085737040922465e-05 -0.0001448470818380482 1.3660396269242491e-07 -2.4434728546435044e-05 0.04986533529781861 0.0257716557158431
0.132 -0.06951744799807737 0.1840560730661735 -2.1252020365733754e-06 1.4749305042388403e-05 6.658359598503568e-05 -7.500108831085579e-05 0.05118586884450434 0.023241455190061072
0.133 -0.06087509446034113 0.1871805727841154 -1.1154020125263791e-06 3.586651921673026e-05 -1.5168723344237894e-05 -5.000457945956175e-05 0.052942645377084215 0.020655821784450634
0.134 -0.051897363061071546 0.19076727077940864 9.315658775155436e-05 4.435158249500575e-05 -6.120851609479288e-05 -6.882353245782814e-05 0.05459565187246147 0.0175039090429786
0.135 -0.04273931479446266 0.19504886844853603 1.0033308110041505e-06 -3.588473622628977e-05 5.418507207380844e-05 -9.014429761344518e-05 0.0559187794194573 0.014529219258989992
0.136 -0.03462388925399808 0.19865781605595692 -8.272506104397136e-05 -8.129369107898906e-05 -6.11845051338159e-05 4.5532889910131375e-05 0.056880454278553 0.011896403523029704
0.137 -0.026258926945232675 0.200512619961472 0.00016169186743104826 -5.8442507005686336e-05 9.051414166660882e-05 -1.2090276513687198e-05 0.058428306971075455 0.008648192598949373
0.138 -0.017609718226443576 0.20271250806671623 5.7665874708580094e-05 -9.912185788910427e-05 6.392040089279918e-05 -3.570560576176615e-05 0.05868430736917649 0.005431923227270087
0.139 -0.00752556628543642 0.20356577620190797 -6.084913675859634e-05 -1.1534230521179602e-06 -3.4259049764916924e-05 -0.00012552583584935121 0.059447462149374755 0.002203784362468608
0.14 0.0012239941435641596 0.20635623327583955 7.549512399472857e-05 -7.280042338763725e-05 3.761930381767793e-05 -1.8391040618360587e-05 0.06004568704590244 -0.0010449661517421677
0.141 0.011198570837637487 0.20719422987868658 3.060482613710377e-05 -6.726391958468178e-06 3.2583415405758744e-05 2.7437403848139417e-05 0.06014092217111226 -0.00444064115009679
0.142 0.021827065127866536 0.2075345451111275 7.037596464378449e-05 -5.91915774909149e-05 -3.980907067746977e-06 -1.049662322976076e-05 0.060334934867456544 -0.007678185704879315
0.143 0.03155867913577891 0.20739042548520964 6.813839337279764e-05 -0.00010840178533955471 -1.596752397570966e-05 -1.7767807437802015e-05 0.06027505527830397 -0.011111824308204003
0.144 0.04018918507022069 0.2075864706964112 3.0299763976469346e-06 -5.7815393804091334e-05 -4.236362278997212e-05 -2.486856846291455e-05 0.05997486856702754 -0.01461293299648362
0.145 0.05075887637908608 0.2066409633793871 4.6405628246917455e-05 -8.926321684633447e-05 5.119883454647887e-06 -7.038966966694494e-05 0.05933255016541529 -0.017859276530377492
0.146 0.06011696783151823 0.20562562871593812 6.613341510063052e-06 -5.131428848765602e-05 0.00016106486353681255 0.00011343467525600827 0.05859299156472439 -0.021106959443822872
0.147 0.07030325101823522 0.20449244454588084 -1.70845973783729e-06 3.687481223690523e-07 2.178180266617741e-05 -5.260621073928406e-05 0.05777769534856701 -0.024621698258282053
0.148 0.07896643180256699 0.20123200120277923 -2.9912652675579094e-05 -0.00012900404168079572 6.91636608298489e-05 -1.0443806057721799e-07 0.05677665883719631 -0.027764936845524505
0.149 0.089248665162909 0.19676185312996472 4.748039625571882e-05 -0.00011143410298925019 -0.0001001742281015905 -3.3639378969142655e-05 0.055299056666792586 -0.03121209010753713
0.15 0.09842392415606328 0.1954849729571471 -8.007397932840962e-05 -3.912229018706328e-05 3.553060061910142e-05 3.688348771313821e-05 0.05398914316501163 -0.034451826472271053
0.151 0.10744663051792706 0.19074481818562566 -1.584329091154797e-05 -3.223220409130996e-05 0.0001256640108008989 -5.566458893757202e-05 0.05219826159826375 -0.037404745289125754
0.152 0.11666521546537528 0.18691597898254464 -3.948479212502693e-05 5.948744482054139e-05 -7.663633980313511e-06 -4.541556652409511e-05 0.05060715681687958 -0.04047208535092446
0.153 0.12651423152156746 0.18129857645036096 9.748686596434404e-05 -8.724347993192796e-05 -2.1329895024738363e-05 -0.00021596227504601154 0.04848048755237245 -0.04339237616313778
0.154 0.13434924092306566 0.17699107132267028 5.583235293264635e-05 -5.088530407381906e-06 -7.793948039772849e-05 -8.833697573728958e-05 0.046162703584704694 -0.04628245355411426
0.155 0.14313027279273965 0.1716308125067659 -5.993083009948964e-05 -0.0001368353652256237 4.3744168617701555e-05 -6.399338438526127e-05 0.04383229332373698 -0.04905941709449801
0.156 0.15149178054385912 0.16590239747284946 -0.00013751555693670864 1.5440030689262717e-05 -1.9686168351043356e-05 -1.1466249770353576e-05 0.041379105381015205 -0.051640186059791295
0.157 0.15971259305599964 0.15978883224270823 -8.027112141451888e-05 -8.181827429363581e-05 8.886796723579321e-05 1.095851174311615e-05 0.03873272838958224 -0.05393099822743715
0.158 0.16816954896276298 0.1542467106193912 -7.037642614045042e-05 5.203127832373349e-05 2.896764002257326e-06 -3.916129425836949e-05 0.035978027433730256 -0.05636388926238679
0.159 0.17515216401898936 0.1473265823269466 -3.647615241799283e-05 -2.7463365812195007e-05 5.1018413042889725e-05 5.506700390896428e-05 0.03274862707343794 -0.05863618826551555
0.16 0.18243798425890445 0.138807603920561 -7.202160865060257e-06 -0.00010536985372812491 -8.095452099785815e-05 3.3934069274279886e-05 0.02969775128554788 -0.06064262727510897
0.161 0.18961714339983513 0.13105438292151253 0.00019226030005123134 -2.7794449185755576e-05 -3.0287921409254305e-06 -1.782426468152482e-06 0.02664212709822263 -0.06231556040395925
0.162 0.1971805117242542 0.12288518860220038 2.3356392985153664e-05 -0.00012679154147747808 -4.808466125063042e-05 -0.00015032232291547337 0.023253895987602163 -0.0640797925986597
0.163 0.20358364735599155 0.11372077381408198 0.0001118014747476293 -0.00011783025968359321 6.315884100850281e-05 -3.4262017644448464e-06 0.019717971058455564 -0.06562912256365265
0.164 0.20934975306811432 0.10544490296542662 -4.1581536341774914e-05 8.13476873621251e-05 -8.34645166140902e-06 -3.761200334499363e-05 0.016520074082039763 -0.0670170123787276
0.165 0.2157430880911947 0.09667252216175817 -9.667270052286781e-05 -0.00012935004336834136 3.1974129081655354e-05 3.544277805978491e-05 0.012437607452738426 -0.06822290857541823
0.166 0.22097208514878328 0.08718247145246377 0.00014788487146197895 -5.9737638650151644e-05 -5.267432501502948e-06 -6.787559953012808e-05 0.008850398686260504 -0.06885722306465805
0.167 0.22626923156063108 0.07745376252925976 -7.898776388389423e-05 -2.4137206372396453e-05 7.791022866831164e-05 -1.1436810692788072e-05 0.004910523049465445 -0.06994961550480328
0.168 0.23089515310640862 0.06699248604813758 -3.558551895844448e-06 -9.918909585796512e-05 1.716214460367863e-05 1.931085588658731e-06 0.0013033151153869769 -0.07053315620060013
0.169 0.23438863818596736 0.05754087313298759 1.7021958326918698e-05 -3.7175571302893883e-06 -1.2833047362739013e-05 -1.5931710707963005e-05 -0.0027806982744265807 -0.07065071309146176
0.17 0.23824743779619456 0.04642861844722856 -9.804543286350246e-05 -0.00014236569427445968 0.00010528259936251024 -1.794125167932011e-05 -0.006370827235332283 -0.07076252912984911
0.171 0.24084061313284502 0.0357840659984063 -9.050944123009158e-05 -2.995504318538401e-05 1.8541506554245738e-05 -3.798942453958892e-05 -0.010438020352544115 -0.07073285137677539
0.172 0.24410521490828554 0.02546616106549554 -0.00018209918396689886 4.788961590870683e-05 -8.624929197705718e-05 -0.00014826551449084496 -0.014395084620029372 -0.07019054835507202
0.173 0.2459253467428907 0.014250620581695237 -3.303786741046146e-05 -0.0001068105909993239 3.263717838214774e-05 7.59080075222432e-05 -0.018000439038277687 -0.06979880956293084
0.174 0.24822935341756086 0.0028083653729957985 -3.9278478184795606e-05 -0.00017666071429055388 -3.9578700359534696e-05 5.0247605275329886e-05 -0.022259194780769966 -0.06926112956516792
0.175 0.24899066308067974 -0.008782582865645107 -8.596873171516373e-05 -9.37952066848941e-06 3.760437660793855e-05 0.00011195624471312053 -0.025899433073562832 -0.06785722480414268
0.176 0.25000490508874745 -0.02006388205210213 -0.00010854492145922726 6.600851045117629e-05 -7.470051121464345e-05 -0.0001011681579979799 -0.02948880512179661 -0.06669744212638154
0.177 0.25033839270473635 -0.031187144727999928 -3.900191635600719e-05 8.881153474103008e-06 2.155468750261942e-05 -6.047518247240745e-05 -0.03303527050189016 -0.0652748230008642
0.178 0.24965164645655616 -0.042992190835687706 -0.0001283702252420117 -0.0001856388240506678 -0.0001785440047525179 -7.412653908886896e-05 -0.03714177877390404 -0.06379795549662932
0.179 0.24869202456086162 -0.05485137169234212 -5.257429011505903e-05 8.337558037333372e-05 4.599498389952011e-06 4.358977282237921e-05 -0.04085203659768856 -0.06201422742842472
0.18 0.24759113607877292 -0.06619260900488758 -2.1145698167431974e-05 -3.09612388500867e-05 -6.981271777846547e-06 -8.5213639644997e-05 -0.04400559938189461 -0.0603000951423348
0.181 0.2458648403310926 -0.07823098084537665 -2.0394718899451563e-05 -0.00013137453609433417 7.851684321487686e-05 -9.203300833702991e-05 -0.04727564713066443 -0.05795921584259763
0.182 0.2434469087338854 -0.0896520610971919 8.437149769313343e-05 -4.672129124595768e-06 2.9020317217903773e-05 -4.817508052880363e-05 -0.05063504436686422 -0.05563804215639826
0.183 0.2403948447952006 -0.10188202082492231 -7.382865535759932e-05 -0.00011192385773112664 -2.4195750460000744e-05 -1.4207982716395844e-05 -0.05380848264461265 -0.05310870131977038
0.184 0.23651611191351282 -0.11322834538508851 0.00010027455733840013 6.270603662268544e-05 0.00011241039251877167 -3.1729899664956595e-05 -0.056990735237725625 -0.050089618081790646
0.185 0.23248204438865536 -0.1247537485324038 -3.5104402227308875e-05 5.794820751221951e-05 6.35269144656693e-05 -8.456066740344367e-05 -0.05969131236778545 -0.04737439450917829
0.186 0.22718839255060966 -0.1360925436659884 -9.53074158316721e-05 0.00017221592328634823 1.1363109907699432e-05 3.922384819072899e-05 -0.06250246118024974 -0.04426188670816997
0.187 0.22226905215099718 -0.14746560530756792 -7.480338727105948e-05 2.402349108720158e-05 -2.0811111932650748e-05 -2.0080611791550367e-05 -0.06510270596541996 -0.041002321050416284
0.188 0.2162569919111642 -0.15977091324099052 5.195247936649418e-05 -3.2507853759280584e-05 -3.0332221759536254e-06 -5.9189837228125293e-05 -0.06733766305792402 -0.03762651838736433
0.189 0.20897629189010009 -0.16903702722430494 3.7143135015729676e-05 6.02834974681584e-06 5.115412553167659e-05 -1.0456010016646842e-05 -0.06934527359381432 -0.03377514305302734
0.19 0.20242355769089518 -0.17987805199602536 1.3260231183283581e-05 7.559423184553522e-05 0.00012113448107095783 -7.558704659232659e-05 -0.07176998614752805 -0.03027993251995816
0.191 0.19452168899359482 -0.1898179981586384 -7.728428345220697e-05 0.00013773657545138707 1.717983430875159e-05 -2.2452519457603483e-05 -0.07365838364860663 -0.026559500592518336
0.192 0.18571713697690345 -0.2010451137978079 -8.986098019279619e-05 1.260414830827946e-05 -1.730054081377343e-05 2.2331374826496017e-05 -0.07491655090751116 -0.022625328216179068
0.193 0.1775092306077028 -0.20992894329960157 2.9602957575848824e-05 -3.513081589749618e-05 9.592897742408319e-05 2.4131503622143866e-05 -0.07691954608105475 -0.018710967328543222
0.194 0.16832297288899553 -0.21950217230106606 6.939644257622698e-05 -8.721389432676871e-06 -1.3043909396140806e-05 -0.00010552035487634946 -0.07778109733252639 -0.014745227793253237
0.195 0.15836308965720447 -0.22677415506691884 8.752556452450962e-05 3.62857395484761e-05 0.00011589499417974856 2.7481527229276367e-05 -0.07910040604765751 -0.010424738799017638
0.196 0.1483354032411962 -0.23652420529264803 3.391690954916731e-05 -7.182527254903895e-05 1.562713267627956e-05 9.87882300220859e-07 -0.07950028227722321 -0.006354983256029858
0.197 0.1379143794287398 -0.24360780886771183 5.0369453718143065e-05 0.00011032628958005827 6.434779720695456e-05 -8.403155389446352e-05 -0.0803173340062248 -0.0021141425351929627
0.198 0.12556179332954287 -0.2530465465766769 -4.6471846918146164e-05 0.00014569098247123617 -5.860216578142586e-05 -4.209054447958426e-05 -0.08068971783110189 0.0023111259195012883
0.199 0.11489720538318397 -0.25929937162040123 6.2090936132487075e-06 3.417703120585431e-05 8.167230296602221e-05 4.800933854063899e-05 -0.08085338379113037 0.006751701609363883
0.2 0.10311427999311852 -0.2647303977460662 -2.1324044213130073e-05 -3.7912950028993976e-05 9.974101340881061e-05 -5.5001011755967094e-05 -0.08063645546544304 0.010739057435017617
0.201 0.09079476443369212 -0.2703153670539151 -0.00010704633070236594 2.49135388143136e-05 0.00014463383153971038 5.1314647166500094e-05 -0.08017481442937564 0.015266973607662819
0.202 0.0773026099017869 -0.27611084398274816 -8.116344713524515e-05 4.7864589455992016e-06 4.994044496136592e-05 -1.960228528890209e-05 -0.07989884635948279 0.019631970174185328
0.203 0.06503807155071077 -0.2795362600649206 4.458998088632578e-05 0.00010415779124988842 -6.10702699052659e-05 4.548670574799033e-05 -0.07891707124471214 0.023997998167304045
0.204 0.05134305994791083 -0.2834893110831062 8.954508289701369e-06 0.000133549817412178 -6.646952790718062e-05 -6.350925728211459e-05 -0.07781100350681293 0.02835694062392921
0.205 0.03861453647736214 -0.2884423886442128 8.959249927725561e-05 0.00014418604025434782 7.738638844720057e-05 -0.00014164013934794354 -0.07651740733956983 0.03276329742264408
0.206 0.023973495422693673 -0.2880360365994803 0.0001038064304225637 -3.80250794821977e-05 -3.0253004081859494e-06 -9.127164166138039e-05 -0.07491652317927582 0.036995552030403604
0.207 0.011745720820312609 -0.2918474761784195 0.0001530017673372447 -1.8982833591982458e-05 8.645985776128638e-06 -3.5553628365801296e-05 -0.07325408214488917 0.0412081502567958
0.208 -0.004063402611967904 -0.29358150011728584 -2.5571114413600318e-05 -4.4381263489772035e-05 6.619162208839712e-06 4.4414121815099815e-05 -0.07127414015868826 0.04516108737593124
0.209 -0.016911498827271568 -0.2932291643910138 8.465159104472133e-06 5.517413844057878e-05 -2.0167573757149542e-06 -1.7415765400834843e-05 -0.06893869545270663 0.049159312272583425
0.21 -0.030650925449561963 -0.29335547490484265 -2.2565686349250795e-06 0.00013675914282115935 9.429896626388443e-05 -7.486718193322116e-05 -0.06683610123365417 0.05289652490241029
0.211 -0.04475758782197522 -0.2935897728261336 3.535499050272982e-05 9.919417767958766e-05 -1.9213496251049473e-05 4.88239533233749e-06 -0.06394671995433095 0.05696506527660032
0.212 -0.05776351008451114 -0.28793372518319427 -6.077675464835772e-05 -4.060761158069348e-07 7.670701762153032e-05 2.9081126914741088e-05 -0.060926450059644116 0.060661186565187694
0.213 -0.07298169442682612 -0.28852010299747505 7.62706095880294e-05 0.00011852265586330707 -7.452838831996165e-05 3.7782302493372675e-05 -0.05774040966950443 0.06409206360673954
0.214 -0.0872329249303848 -0.28721592065354906 0.0001380360679387513 2.568934637449407e-05 -7.322571715650748e-05 -0.0001079889211382852 -0.05478997082140759 0.06741528758390464
0.215 -0.09967309651792286 -0.2825082957539495 0.00013878299546758995 5.409233444644178e-05 9.704538442592976e-05 6.730602226942124e-06 -0.05143816301609995 0.07039405671489364
0.216 -0.11527164780206747 -0.2787740653180953 1.3858836415467078e-05 -1.749505384641478e-05 -0.00011526905957071328 -3.508666754139278e-05 -0.04757180536269473 0.07400300325076946
0.217 -0.12578553608359433 -0.2724101653230815 0.00011885891205552685 5.803407229362068e-05 5.445517218396291e-05 7.173880645157331e-06 -0.04375098949120517 0.07635490249453376
0.218 -0.14009115124308433 -0.26947133966438097 -3.1837736972363175e-05 -2.8268418287910254e-05 0.00010745842910580289 -5.9034754296296306e-05 -0.03958666062414915 0.07912817717990213
0.219 -0.15271016001018173 -0.2628437737985217 7.598548480019608e-05 1.0661564806835677e-05 -7.622180830832826e-05 -6.0646534867300585e-05 -0.035310248721891646 0.08172554764563045
0.22 -0.16484895285572387 -0.2542244088911431 4.931034812176247e-05 -1.8562939011105284e-05 -1.0246393764722553e-05 9.131493792807657e-05 -0.030878777404969318 0.08352518053733594
0.221 -0.17802748765376136 -0.24715360553779758 4.5696393770730525e-05 0.00016080950587606672 1.4652251161751532e-05 -9.735931319775313e-05 -0.02650032381552044 0.08567487765608357
0.222 -0.19113272135200357 -0.24062330973890864 4.096118225896928e-05 0.00017665294083880315 -5.492331658175404e-05 5.710804826084364e-05 -0.021915823540820924 0.08764496685698192
0.223 -0.2011957251705527 -0.23049537466118775 9.101974570628088e-05 8.530573941324167e-06 -2.47930990403209e-06 0.000104479881133577 -0.01712196842221648 0.08925389374791891
0.224 -0.21368959276617483 -0.22310123020225517 0.00015051181650246924 -3.640883890504609e-05 5.152903957458829e-05 5.445621161189848e-05 -0.012194540266991731 0.09015573124244483
0.225 -0.22395552949558686 -0.21281623479880027 9.937322541534467e-05 2.7051313373521054e-05 5.49593156270643e-05 -0.00017919563046255604 -0.007706031020714942 0.09100963408647927
0.226 -0.23386545348460464 -0.20357622951776017 0.00016200934324176936 -8.711838447950512e-05 -3.205005621658355e-05 4.630774185276749e-05 -0.002219042990105066 0.09192649839607583
0.227 -0.24347201916033523 -0.19274662267486384 3.935482159047821e-05 -2.3187182936788077e-05 9.106650375472988e-05 2.7721364668276964e-05 0.003010264868872669 0.0923390986215774
0.228 -0.2524395860917968 -0.18235835683737814 6.114910441576303e-05 -3.6058894616567546e-05 -9.92242290057851e-07 -8.708798810560445e-06 0.007894608554803168 0.0924867005987548
0.229 -0.2620139324864631 -0.16974777598529933 -5.572217402726152e-05 -1.603606315276213e-06 7.6218484921654126e-06 4.3519377233219466e-06 0.0131310033831506 0.09229030209193413
0.23 -0.26963012430097383 -0.15956800267727475 3.368565768839018e-05 -9.473395576256442e-07 3.2588667613366554e-05 2.7517858238942873e-05 0.018219849318093104 0.09182637674500978
0.231 -0.2788482554777922 -0.14685483617540854 0.00016994137659223532 -3.005037455640909e-05 1.4226554419321199e-05 6.550199902728167e-05 0.02348149820454077 0.09125806808812416
0.232 -0.28438926047648067 -0.13588479489822713 0.00016423079866280485 1.3313997397898365e-05 4.542015637151514e-06 2.6572352895304296e-06 0.027994449995707504 0.08994029904258737
0.233 -0.29384409970145614 -0.12298356367346282 0.00015513271677301108 6.533876935861903e-05 0.00012458162273869776 -4.926543095116225e-05 0.03348725127342081 0.08921325532350999
0.234 -0.2975585074093135 -0.110236314547149 7.189870560860019e-05 -0.00014493575260975263 6.31557795597314e-05 -3.482178092894639e-06 0.03819391720138015 0.08717282932337675
0.235 -0.30528938042520326 -0.09644046620313612 0.00018283156613958622 -5.8260420917144355e-05 -3.055413593968806e-05 -9.065890363594037e-05 0.04306301349354766 0.08505278774641183
0.236 -0.30913226803607863 -0.08206419591594445 3.114562115581561e-05 -0.00013570828768284622 4.2862905844437557e-05 -7.548847744744213e-06 0.04786425927261413 0.08296209844131029
0.237 -0.31353548583787555 -0.06874703377952163 8.234917670157355e-05 -6.166374260421839e-05 2.8837865079895192e-06 5.048106256657988e-05 0.05270380139100533 0.0807824430676951
0.238 -0.31794957661791645 -0.055035517723938214 9.125354476229145e-06 -5.235757825140352e-05 1.268217224074149e-05 -5.7372154858180165e-05 0.057342205283918944 0.07803741828107223
0.239 -0.32071867408806737 -0.04031183289032087 4.237157066825839e-05 -0.00010977729340514472 7.401358325551199e-05 1.969133050862443e-05 0.061191743757314315 0.07469725981303073
