!Created with skrf (http://scikit-rf.org).
# GHz S RI R 50.0 
!freq ReS11 ImS11 ReS21 ImS21 ReS12 ImS12 ReS22 ImS22
0.13 -0.08869682199233916 0.17089672930546937 0.0023017687422208027 -0.0008609090950470278 1.3919583617281826e-05 5.4465946288755154e-05 0.05484316578980829 0.011237326999670245
0.131 -0.08162680615887424 0.17696702152210478 0.002433456271146236 -0.0011655395317319802 -5.000014706851148e-05 6.0993161820013976e-05 0.05561002034678217 0.008082425295536868
0.132 -0.07372891560946344 0.1813808295177615 0.0021670448497452016 -0.0012157877544469783 -4.869161567862571e-05 3.956178411709857e-05 0.0564183633170588 0.00485966988742696
0.133 -0.06537940714464652 0.18546921494467064 0.0022054922262019733 -0.001459242928642091 4.436324698090902e-06 2.0554090098053262e-05 0.0571010048731381 0.0017852651901463104
0.134 -0.05742205776497117 0.1898074692889892 0.0021489504546989085 -0.0015563846502286512 -0.00011332371686123698 0.0001332726910755517 0.05749325730288687 -0.001403107148304405
0.135 -0.04938992908764114 0.19425125705806764 0.002003144379701802 -0.001740947224243448 -9.524772359796668e-05 -1.4513814775737208e-05 0.05782619243934264 -0.00471047184914681
0.136 -0.04079484902551349 0.19599475360314678 0.0019160751934078082 -0.0017519181648894225 4.3070618965474564e-05 -8.124442069970593e-05 0.05761714611895854 -0.00814062804040029
0.137 -0.03167401308345875 0.20042401001926408 0.0017904324431723315 -0.0021224155338424554 2.2323698899217497e-06 8.569730924760577e-05 0.057497435222056664 -0.011545999494108604
0.138 -0.02259975623344486 0.20177940883426218 0.0018700024385282048 -0.002154897935077274 9.528837316474715e-05 -4.1960847406712385e-05 0.05724650568294076 -0.014933063441973825
0.139 -0.012412340890499451 0.2033951142453411 0.001670499460613066 -0.002214313842659028 4.897771288245675e-06 1.3270417378434869e-05 0.056788388366426926 -0.01829876240571319
0.14 -0.003388591538253677 0.20621758337541238 0.0014015124623159888 -0.0023263966526552112 -2.702556129890319e-05 -8.129752067512366e-06 0.05594476504323264 -0.021624105531529453
0.141 0.005332623837581704 0.20687860965984925 0.0012584133009280588 -0.0023804168168175327 5.600974630475853e-05 9.382631125103336e-06 0.05497693383434783 -0.02500013323211219
0.142 0.015017492957053716 0.20842880423603918 0.0012138402851938678 -0.0025551726697420167 -4.7633042670109385e-05 9.005816232848306e-05 0.054042155881978915 -0.028223944977376188
0.143 0.024877620385095077 0.20788256526712906 0.001165241090358603 -0.0026389335659681608 -2.31571555709369e-05 0.00011303193915758676 0.0524249823683152 -0.031333728951549
0.144 0.03496261502444699 0.2084917234508332 0.000842954733541075 -0.002782263254231433 2.8441547707516684e-05 6.569258806757862e-05 0.05077832082444255 -0.03501378025174865
0.145 0.044240999236901855 0.20765020098280867 0.000697095927316974 -0.0027598011401591604 5.005702182441673e-05 3.2058019659452916e-05 0.04907664448565088 -0.0379350171535481
0.146 0.054443702035065225 0.2065057291168372 0.0004521317437898996 -0.002808772304136904 -4.6881755179965695e-05 2.455967729920861e-05 0.047193730367686954 -0.040762932236245115
0.147 0.06333005652037808 0.20528970421804701 0.00036202552177935017 -0.002851965479779171 -4.830198373541577e-06 -1.3307547042234104e-05 0.0450147093067289 -0.043440554526670894
0.148 0.07346393239776694 0.2031755521952974 0.00019918403811371705 -0.0028484644527284587 -4.4144884695746264e-05 -4.40867700258467e-06 0.04261056416636754 -0.04649172470439335
0.149 0.08245293208617593 0.20103321396470628 0.0001606750417993344 -0.0028710740370936 4.824522660413405e-05 -0.00010349906510147944 0.040124849519585525 -0.04902844206546457
0.15 0.09273793368672179 0.1988771405849314 -0.00022864756589463612 -0.002912859518292357 1.784380249284125e-05 5.352346332971529e-05 0.03763168603147875 -0.05126082248786417
0.151 0.10265146335728767 0.1947054773786729 -0.0004438009050224686 -0.0030159418036239368 9.861247556957477e-05 -6.493713067609552e-05 0.034704682817732015 -0.05377701936668709
0.152 0.10977890590961648 0.19084813347136778 -0.0005111097289524775 -0.002829779044466243 0.00015199560917713746 -1.2374259929807388e-05 0.03182171165259728 -0.0561419354125464
0.153 0.11947939018705717 0.18612781502556602 -0.0007214172730741714 -0.0029569193535639022 -0.00013657581016272006 2.39668070108586e-05 0.028843408403509616 -0.05807384799234939
0.154 0.129984338267516 0.18160205155101622 -0.0008756829479317596 -0.0028853234594156734 1.330334356973572e-05 1.1446310541473413e-05 0.02565765640930334 -0.059911170420695846
0.155 0.13766502759633648 0.17636424126655847 -0.001156424397268228 -0.0027967079208675097 4.4701049862382335e-05 0.00018436496895110635 0.02212933681032105 -0.061358946562935925
0.156 0.14653870901132654 0.17059503705334403 -0.0012790674842665473 -0.002813262330859132 5.394741301484012e-05 -4.070998601971078e-05 0.01878431498551988 -0.06324058637845024
0.157 0.1543732952618185 0.16474388144338678 -0.001353268693322855 -0.00276360493183753 4.016912539251178e-05 -3.0476215364498585e-05 0.015095452115971233 -0.06458156346071912
0.158 0.16247344123564464 0.15835019732116346 -0.0014875627781525185 -0.0025879307612172242 2.006762416247273e-05 -0.00011946902489893273 0.011700958598899663 -0.06539437893532836
0.159 0.16985057157950226 0.15210790608068242 -0.0016269625255064194 -0.002443567455982931 9.406119436812071e-05 -9.307877105036298e-05 0.007904318049713954 -0.06627991565322024
0.16 0.17817547823542246 0.14409268256924798 -0.0018438448139295128 -0.0025215301377081506 -5.218443572620484e-06 -0.00010681824027027329 0.004416768542703274 -0.06689765934862861
0.161 0.18531745241296385 0.13765633214266268 -0.0020740838189975005 -0.002277141806914884 1.72322418630225e-05 6.087844078964983e-05 0.00033158719120798515 -0.06754984534064401
0.162 0.19200091666962774 0.13035551860661113 -0.002215287460525294 -0.0022008356797540893 -6.277528150832809e-05 -5.8331201269145645e-05 -0.003377743221303868 -0.06762657497144349
0.163 0.1995652274938157 0.12136924271708296 -0.0023059231439162475 -0.001915157991200272 -8.044447414798794e-05 -4.689913243782637e-05 -0.007264763683649133 -0.06774206453452021
0.164 0.20596164004333845 0.11342868040715595 -0.0025270536297154174 -0.001984358153770452 -5.1957150876318184e-05 -7.487412218100558e-05 -0.0110739698716283 -0.06767677915967335
0.165 0.21167116161232344 0.10372168556296332 -0.0026194851525422297 -0.0017322588570812616 5.2032178328903726e-05 3.869977731414811e-05 -0.015002173660034685 -0.06710727046463347
0.166 0.21768015070671232 0.09493250275611988 -0.0027344537307835573 -0.0015069708746033189 -2.4226068137264583e-05 1.248560526496935e-05 -0.018859445783897134 -0.06671383371903498
0.167 0.22284781035669782 0.08513386375493034 -0.002918958551982785 -0.0014069573766398947 9.809086635969656e-06 9.111566215061512e-05 -0.022764310150486994 -0.06538741834396825
0.168 0.22655496002241388 0.07604046022738926 -0.002976538794772822 -0.0013462070182273824 2.6554853876934237e-05 -0.00012083339276765858 -0.02674704643406051 -0.06492334875202269
0.169 0.2321260900881704 0.0655197201551441 -0.002943260825069161 -0.0011132664310178385 -1.548289146429067e-05 3.374931677294949e-06 -0.030318472008044994 -0.06327510422349608
0.17 0.23587851778474814 0.0557542248005492 -0.003123881404676777 -0.0009434342776469744 1.714548695499952e-05 -0.00011205647786949324 -0.034037091204173024 -0.061751586220456456
0.171 0.23991201543053828 0.04552965529973188 -0.003064872923636812 -0.0006231202502436198 4.3539213258662775e-05 -9.595383925029069e-05 -0.037796105231455435 -0.060093675119724695
0.172 0.2424777129471056 0.034763141123565024 -0.0033184847989520226 -0.0005167870093127087 2.3522884422369592e-05 -0.00012031390761332931 -0.04104117374309187 -0.05834155523226412
0.173 0.24580006085923795 0.024488411466317115 -0.003142730565749597 -0.00031472494916301804 9.239054495370802e-05 -1.3259354426988617e-05 -0.044838814689890434 -0.05624407313691507
0.174 0.24813296992031916 0.01257157003316212 -0.0032155431156208475 -0.0002799981939471369 -3.221471440649116e-05 -0.00010023846461600016 -0.047599267912333584 -0.05381596977632029
0.175 0.24895703346955117 0.001635012786502345 -0.003338767583741007 3.323462553280206e-05 -4.735351978339252e-06 0.00014465003916418854 -0.05131475463446968 -0.051482957147151696
0.176 0.25077792993014747 -0.009591966442991054 -0.0032059792022312915 0.0002672766803652082 -3.853777647281117e-05 -2.0289125647298106e-05 -0.053947638412379546 -0.04853472755708362
0.177 0.25177830728057876 -0.021572694921885828 -0.00335736106197326 0.00033205794824345416 0.00014925260144428866 -4.714587950844063e-05 -0.057058423103428485 -0.04612775937839876
0.178 0.25160037024326887 -0.03298749349933809 -0.0032366158847372825 0.0007467668215999582 -9.127488348923918e-07 3.617595709330546e-05 -0.05950066005809603 -0.04219706292855341
0.179 0.2512097437030466 -0.04418469393229669 -0.0031975128455677213 0.0008600428951200514 0.00014765353206622596 -3.994151285761014e-05 -0.06188010344742384 -0.039743003606433604
0.18 0.25040713741052656 -0.0563451362515865 -0.0032040444825095268 0.0010832433388507986 0.0001071290463121657 -2.6452861167297675e-06 -0.06500519800434937 -0.03606773900802137
0.181 0.2482007433681144 -0.0679127716030885 -0.0032164087658509343 0.0012095692491518176 3.603743648627052e-05 -1.5381143569454303e-05 -0.06689147190164804 -0.03274943857495038
0.182 0.24653332702881664 -0.07949540229032158 -0.003086205181745619 0.0014896462439653142 7.233639506026866e-05 9.911418824215553e-05 -0.0690409166679218 -0.028995546706602263
0.183 0.24471312312119997 -0.09089121656332548 -0.003038122540110809 0.001531339825058984 4.724369158587664e-05 1.1622351477885648e-05 -0.07091423155527282 -0.025340800491133696
0.184 0.24137536051651248 -0.10327931826284364 -0.0029801063791461183 0.001840214420613898 -2.6725794806816793e-05 -8.069690100119261e-05 -0.07273442477969166 -0.021372424331243572
0.185 0.23804832005044027 -0.11479587361049066 -0.0028651922875437973 0.002026675653549241 3.809285245615897e-05 -4.493183097409381e-05 -0.07418969158890616 -0.01759752623114693
0.186 0.23341818776512605 -0.12645770522832603 -0.002625574909488131 0.0021356497690184456 1.448489623002283e-06 9.317687868271939e-05 -0.07500894226363349 -0.013215554817754153
0.187 0.22820443196722162 -0.13724613950847492 -0.0024689335747145997 0.0025399685768702357 2.9406661487053415e-05 -4.9062050663863044e-05 -0.07609658650227863 -0.008859357806870234
0.188 0.2236836639797386 -0.14914100654467946 -0.0023936776140723 0.002411367727368209 4.3020300999270035e-05 -0.00011049269526877682 -0.07699691158616591 -0.004582888199113318
0.189 0.2170693185782302 -0.16062284633084847 -0.0022423224830597707 0.002718643803616601 -7.259579240537571e-05 -9.139324610739717e-05 -0.07734446564029517 -0.0006011463877852956
0.19 0.21002832987672712 -0.17067112854932487 -0.002080763038562244 0.0028692689936016176 4.442409989946224e-05 -0.00012480044378534143 -0.07734456825643578 0.0036517051324497134
0.191 0.2035877985802646 -0.18148474710779436 -0.0019148038803532411 0.00293800371925627 3.772332208940626e-05 -8.22184881487327e-06 -0.07755618650417194 0.00811940933079738
0.192 0.19643308348179958 -0.1920757340069534 -0.0017993647296553287 0.0030714510989031515 -6.77652172001892e-05 7.276870058858377e-05 -0.07714111479788542 0.012067044826394235
0.193 0.18851962721732654 -0.20202443516631602 -0.0014861093124643005 0.0031437776079240925 -5.798210003343476e-05 6.246080972108463e-06 -0.0770465728311883 0.016640464807103336
0.194 0.18008663909541264 -0.21212502880891865 -0.0012870038768318676 0.0033548104707344564 4.321625871768444e-06 2.7788173898644276e-05 -0.07617206671540107 0.020711107563770353
0.195 0.169528957712144 -0.21961393330193874 -0.0012251994357700652 0.0035099699342306732 -0.00010467756945563025 0.00011724912237786937 -0.07525684899147798 0.02547761299325459
0.196 0.1603309910262126 -0.22915922374092315 -0.0009245030291447129 0.003743842134051998 0.00014977274369272757 1.3713497481893658e-06 -0.07394649640893658 0.029466603043373146
0.197 0.14935688715529077 -0.2377566642078681 -0.0006271880836143052 0.0037291834335068585 -8.72060793357068e-05 1.219539223042157e-05 -0.07274833149756924 0.03388688167565172
0.198 0.13804642155525632 -0.24612556402238545 -0.0005261480722488158 0.003527118478890161 1.448552233274018e-05 3.2781316272189987e-05 -0.07101311002317195 0.03793240305555591
0.199 0.12800587066984442 -0.25190459604857146 -0.0003249884545598708 0.003729276305075692 5.889314009974443e-05 -3.4574532304661576e-05 -0.06914936333487254 0.0420383063368867
0.2 0.11523800391278238 -0.26011636225393486 -7.426845282862455e-05 0.0037301538550350536 -7.298056558287456e-05 0.00010197636065310807 -0.06704122028995764 0.045955122632369
0.201 0.1047255970851982 -0.2661806747370186 7.292833836029762e-05 0.003752834363550554 7.11604355466575e-05 0.00013454059821897408 -0.06453563315133526 0.04980013709825203
0.202 0.09266652195846152 -0.2714052542986315 0.0003480056244197484 0.003588530938912316 2.518945906723203e-05 -0.0001280958690603183 -0.06213789637011526 0.05360051802681596
0.203 0.07969062435171607 -0.2769874650609826 0.0005427436708610127 0.003714698983446403 -6.905616028020374e-05 -2.768167783648737e-05 -0.059228299786118134 0.05721171363518121
0.204 0.06782582356537317 -0.282514887303042 0.0010098878321348902 0.0036386477722447482 -9.092670873060162e-05 -0.0001227228379086649 -0.05608292307664808 0.06095301264835037
0.205 0.05348001419360078 -0.2849727118535027 0.0011484659246461441 0.0037473233803578298 -1.884095354959883e-05 4.166158939982877e-06 -0.05267112885753374 0.06421565859346837
0.206 0.041128234161580526 -0.287940574965113 0.001411502187150333 0.0035576755666027245 -0.00017145895443425403 -0.00011167942928742624 -0.04941116797898569 0.06729207388322472
0.207 0.024556770402267863 -0.2921521331306812 0.0015257681730112074 0.0036184666532312402 2.3102850927527053e-05 -4.1160905302037524e-05 -0.045937379421540435 0.07058976447989464
0.208 0.015774723692525777 -0.2944691338231233 0.0017582109951246128 0.0034905947300972835 0.00010148793314972718 2.0212381383464275e-05 -0.042015835384570356 0.07336146467783541
0.209 -0.001665234533674978 -0.2942762943282271 0.002026537327081023 0.0034272740695832963 -5.046201541872827e-05 -4.58490269080784e-05 -0.03801242551888517 0.07556902722917012
0.21 -0.015299670284726997 -0.2950136954529875 0.0021570970284663935 0.0031283044610828027 5.522826820420047e-05 8.033416030556444e-05 -0.03404391338711922 0.07809172350371066
0.211 -0.027756439261724535 -0.2952221045819332 0.0022933293230799783 0.0029322359791812505 7.64525687712306e-05 -7.490465432720623e-05 -0.029601814935828533 0.08056044199998108
0.212 -0.042720271932378324 -0.29336887405177237 0.002598396900060043 0.0029618852803825917 0.0001273022140445099 -8.475965382388095e-05 -0.02486053535726682 0.08237860042416442
0.213 -0.05725223952904221 -0.2930436431560313 0.0030051341743573324 0.0028595636020684995 3.0342094684653444e-05 -5.7145045569964885e-05 -0.020720475784530314 0.08381086383429567
0.214 -0.06942466637492829 -0.2907459190350786 0.003000002221271941 0.0026629414583534765 0.00013193510030432278 -4.3909946998818545e-05 -0.015977926227438665 0.08507571890502785
0.215 -0.08297013064744614 -0.2884603359789841 0.003029269303422635 0.0023501391037695097 0.00010548440801381204 -5.943361934179126e-05 -0.011013454266424957 0.08666721816045446
0.216 -0.0980874826175677 -0.2854355663793407 0.003319162344504668 0.0023119827206069038 7.527250517372924e-05 -0.00011079587085907344 -0.006565208095763009 0.08753796862588967
0.217 -0.11085972539009331 -0.2809842881298377 0.0034846457020865996 0.002002922501281773 8.514591630146812e-05 -6.367200815621091e-06 -0.0013626937139050775 0.08804411213780318
0.218 -0.12414433378621353 -0.2759920769959494 0.003639134210220233 0.001730223229887129 -5.4851349088884326e-05 -6.655849591318111e-05 0.003859148301332553 0.08852752748267904
0.219 -0.13849279866291747 -0.2703477130251059 0.0036416169537663123 0.0016139949890844434 -5.1438250489945387e-05 1.1219760761462756e-05 0.008964333082966425 0.08878198088060021
0.22 -0.14978655884715175 -0.2658876534370797 0.003830740200669692 0.001299050531940831 2.1129764731784862e-05 -3.3577353008248725e-05 0.013648590878460416 0.08839571939519479
0.221 -0.16335734101203986 -0.2582420141300387 0.003840910247839616 0.0011578392998093593 -3.910232352612304e-05 0.00010282776349344331 0.019043585978425343 0.08776715413590498
0.222 -0.17595957131242163 -0.2521735044720265 0.00396458924483406 0.0008707081047561755 -6.326237744055507e-05 2.2063181261700916e-05 0.023686515435634433 0.0866018756796386
0.223 -0.1876911497715482 -0.24508788012123303 0.004131610420062141 0.0006243863389527948 -5.981313400591969e-05 -5.8330990904308496e-05 0.02931172612363246 0.08581103861385639
0.224 -0.19900658514890293 -0.2365111282305016 0.004086157975457594 0.0004036293435744364 6.197778757742388e-05 2.937408883588243e-05 0.03397927437197178 0.08453276128187594
0.225 -0.20977465835662165 -0.22767920120585866 0.004049283701757221 0.00018161026001176696 6.829503087026676e-05 -1.5799644738749127e-05 0.03862421760164862 0.08237491495988448
0.226 -0.22052942477400492 -0.21825586206306924 0.004087327634532848 -0.00013612851010593653 -3.5667763241540535e-05 1.0946167246587585e-06 0.04375882090833576 0.08085644620786812
0.227 -0.230188681612879 -0.20908867699460654 0.004307979019202569 -0.00044005901386428035 -7.817762674174594e-05 -0.00011155207356786696 0.04853555090414574 0.07887654186761879
0.228 -0.24177571581992777 -0.19919380631579334 0.004165009041312005 -0.000607232112205185 1.1471662406651043e-05 1.898341774386892e-05 0.05307541309088813 0.07603099514694293
0.229 -0.2490139502194817 -0.18860547063099253 0.003935917398475103 -0.0007867390071833509 3.877476560343004e-05 1.9869244459209314e-05 0.05757696583592934 0.07322580859594419
0.23 -0.2597869592124344 -0.17760941645928782 0.003861151049700075 -0.0012750410843519087 -8.853505589348391e-05 -8.32999170772839e-07 0.0615095439792171 0.06946661249458277
0.231 -0.26713776984084664 -0.1659149671589756 0.0038996492327505843 -0.0013574947795083096 -0.0001104733582124906 5.215830125859416e-06 0.06608024192521307 0.06675949318343141
0.232 -0.2768142149983745 -0.1550729953876271 0.003872658901827834 -0.001619363403576853 -3.0180142960083993e-05 -2.906520172831068e-05 0.0704263401692254 0.06337304877893446
0.233 -0.2854438360040598 -0.14265738488376437 0.0038028539110359326 -0.0019326731879258012 9.225437234449802e-06 3.374782912588887e-05 0.07381745244933181 0.05909597660989499
0.234 -0.2889863554182189 -0.12932659491161558 0.0036339702402913513 -0.00201337107571375 -2.110802198090319e-05 -3.835074483189815e-05 0.0771056769993604 0.055484204636765254
0.235 -0.2979671811201799 -0.1166221066660426 0.0035586985937461515 -0.0024168224481018385 -1.891043986937589e-06 7.60886783658716e-06 0.08110136991075098 0.05158180504734423
0.236 -0.30421359363177813 -0.10386834892784817 0.003281334235232889 -0.002643679268561676 0.00014761733597381 -0.00023602222677249267 0.08373850754043194 0.046437538571944166
0.237 -0.30879754848455543 -0.09014334246785505 0.0031047883606441077 -0.0026920837339091787 2.0418124489400688e-05 2.5416568543459318e-06 0.08667218021719751 0.042046324159284276
0.238 -0.3127013033879832 -0.07633678193080262 0.0030876182968318285 -0.0029973803955938368 7.527783887963822e-05 -3.224468480220976e-05 0.0888352277257533 0.0369227670794013
0.239 -0.3172537106214954 -0.06288086536311528 0.0030203641140627065 -0.003175637549313787 -6.449085182281922e-07 -0.0001295788929108041 0.09131075816454719 0.03175798837436114
0.24 -0.3222374244579672 -0.04829347310805292 0.0027837400566178634 -0.003554026227364024 2.820679316137957e-05 -4.231429800738281e-05 0.09338822913898222 0.027016524472287744
