!Created with skrf (http://scikit-rf.org).
# GHz S RI R 50.0 
!freq ReS11 ImS11 ReS21 ImS21 ReS12 ImS12 ReS22 ImS22
0.13 -0.0859722271588226 0.172905687380842 0.0003071977799289893 -9.939798713356223e-05 4.861113166324844e-05 1.581303637530978e-05 0.0379524297856385 0.040267539294134555
0.131 -0.07973508277080804 0.17765178429337175 0.00028030038861645264 -0.00016216929140749472 -0.00011353573112019126 -0.0001585073923902117 0.04038149543804314 0.03837034606342664
0.132 -0.07161656566077615 0.1829054259462144 0.00038804966552530046 -1.53732026839962e-05 6.958208246199457e-05 1.722347451355398e-05 0.042576530447081 0.03670399192385506
0.133 -0.06260863876648916 0.1867366369744257 0.00031023301252949365 -0.00021559246751248407 -0.00011190080672285861 9.499325939761177e-05 0.04477404807286558 0.03440971478855519
0.134 -0.055218647050250425 0.1898802017803319 0.0004454429434098494 -0.00014149169870091092 0.00011099924845684317 -1.0572979696964079e-05 0.04713027814047006 0.032472233340877746
0.135 -0.04610653877375957 0.19461762036862454 0.00038035704203673954 -0.00013749964691368708 -5.857388339015286e-05 -8.63812704034433e-05 0.049417103852837554 0.030138207268088156
0.136 -0.03778128759923989 0.19789517947954866 0.0001893663100353391 -0.00011057362220450884 1.7525457930417245e-05 6.042827931695738e-07 0.05092209217954364 0.027478983742764918
0.137 -0.02908558561976058 0.19888082132344329 0.00033653059888635764 -0.0001005652586956661 -6.516358234162205e-05 4.660149162733152e-05 0.05287547628250254 0.02516722893255843
0.138 -0.020250446632177784 0.20333216122167147 0.00021579420688411122 -0.00019574531454264813 -2.4992576448506103e-05 -4.288234691521511e-05 0.054506859609942525 0.02221696508113148
0.139 -0.01004168886819183 0.2052598890018562 0.00034580880335029446 -0.00023085749870947856 -5.3930651432641933e-05 -2.263229446607351e-05 0.05624643713866734 0.020010741283761183
0.14 -0.0023171275424180653 0.20597298990495877 0.0002720004908993364 -0.00030010629502345837 -4.0667514249657765e-05 -5.721979453907772e-05 0.0573719929869892 0.016687405784022807
0.141 0.007832107807654832 0.20689068531046179 0.00036820794397803133 -0.0003614916830758274 7.631597706171472e-06 -1.3761128188082474e-05 0.05861981464353138 0.013834773717552713
0.142 0.017604497547135597 0.20791233200777862 0.00014626750130663818 -0.0002023189686128449 -8.86484272999248e-05 -6.04470630653813e-05 0.05999309820633293 0.010645364510064209
0.143 0.027880706740862994 0.20837097688948242 0.00016235854280725962 -0.0003306785782938425 5.247337397929753e-05 7.155442145850938e-05 0.06045411110987549 0.0076784315547556315
0.144 0.036844041338659664 0.20729965202696254 0.00027007046394818566 -0.0003886539708776799 -5.9261296933658685e-05 4.780183073464478e-05 0.06132385987018395 0.004530876063706877
0.145 0.04824487931534534 0.20703865542305258 0.00031414796262422217 -0.0002759364004139372 9.985004504424131e-05 -0.00010954307572476141 0.06162095300691301 0.0016708167669452752
0.146 0.05732727383312838 0.2055179547696423 0.00023084838958926942 -0.00031825998728323703 5.489838748235557e-05 -6.148312882559819e-05 0.06246246615752517 -0.002165715013574808
0.147 0.06739285448290262 0.20489178512486217 0.00015071048351586068 -0.0003316022168210465 1.1540820748276291e-05 -9.091630396838118e-05 0.06257585742712395 -0.005180322687444618
0.148 0.07558927815531503 0.2013353787335479 8.151428046284862e-05 -0.00048427018201582057 -2.6974780048057668e-05 -9.21253012227313e-05 0.06249859458185624 -0.008486970432131672
0.149 0.08626597474436798 0.2011296748863659 0.0002589581585475087 -0.00039840371128333754 -5.717717689774562e-05 -2.2621814124152346e-05 0.06237412782945079 -0.012183338617711943
0.15 0.09589989550245323 0.19696462968117937 3.676375109248945e-05 -0.0004933506581916923 -6.71995193112886e-05 -0.0001004821835246376 0.06201074320542319 -0.01528039467458574
0.151 0.10429535456725114 0.1930758110253762 0.00010829471934237132 -0.00048272010429971065 -0.00010909106259592384 0.00013062338916234784 0.06156999260735189 -0.018710291454671193
0.152 0.11498151959804837 0.18976069140569166 0.00013739392044903682 -0.00036063991787503704 6.768841078918013e-05 2.3353456071865872e-05 0.06088301020349586 -0.02204333263351659
0.153 0.12204409015642752 0.18347665383864875 -8.029732584672161e-05 -0.0004032508531353652 3.776690056240764e-05 -2.6901979123120664e-05 0.059958272216928905 -0.02553765928907226
0.154 0.13167825483515144 0.1802169700384958 0.00012041900707191846 -0.0003465721056320096 1.15271447029406e-05 -0.00011179932229552124 0.058940397519331326 -0.028601796194254906
0.155 0.1412700541454447 0.1745512965356804 -7.396090720082354e-05 -0.0005147944558421297 1.8546280998891858e-05 -2.743542973696514e-05 0.057564745511281296 -0.03180228598387336
0.156 0.14966266781995896 0.16877991275249082 0.00017470987552949786 -0.0005342295087398618 0.00010833563387613765 1.5934224746743192e-05 0.05628762339029083 -0.03522045245850433
0.157 0.15676757734277014 0.16213836549798272 -0.00011753901285874086 -0.0003783553089565242 -2.14301344001778e-06 1.3999548793418774e-05 0.05455660338379099 -0.03830636024256638
0.158 0.1651542944579764 0.1558079468073544 -7.494407618548825e-06 -0.0003242073619173661 -8.554433126008706e-05 -1.084705609239294e-05 0.05275979009557294 -0.04129872252884765
0.159 0.17309292138659724 0.1488177111254542 -5.190963065662155e-05 -0.0004080430363261529 -7.467551318236795e-05 3.265160979145699e-05 0.050812457799288946 -0.044307623972195335
0.16 0.18128072962878727 0.1418311673717773 -0.00015378512559848854 -0.0004478142575723701 8.043302705874428e-05 9.558454196451458e-06 0.04881027109846476 -0.04690136059621887
0.161 0.1872575580842159 0.1347964609044854 -1.3987478672173523e-05 -0.0003804676381073274 -3.1422463616413114e-05 -4.347329287841585e-05 0.04614986150635692 -0.04985981388766559
0.162 0.19537367259254798 0.1263853393924503 -0.00010265509012503225 -0.0004153442300073711 -6.637849023892825e-05 -7.210314655877118e-05 0.04395705715616959 -0.052382354321656076
0.163 0.20071755305469186 0.11706418661840945 -0.00032595775081134884 -0.0003257800169021585 5.703360172010611e-05 4.3262062339280954e-05 0.041446728843984725 -0.05506022103887161
0.164 0.20741191444399776 0.10886302612006912 -6.326355753673806e-05 -0.0004369504734591316 -0.00010997731791030373 0.00010961800558180496 0.03848912603318796 -0.057433363222261447
0.165 0.21406130046834695 0.10052112055971772 -0.00011826309745732417 -0.0004966267833126835 -0.00013851355665187717 -1.1947101460428385e-05 0.03574231381369196 -0.059840425299682226
0.166 0.2192454683367196 0.09123940543172851 -0.0002711371756142637 -0.0002916347768190385 4.346274052130142e-05 1.526935269586536e-05 0.03259305535034534 -0.06200049013802591
0.167 0.2234439697501658 0.08148656982107831 -0.0003443964362164377 -0.0004852010931896704 -9.504092401631666e-06 9.800338625676934e-05 0.029458208553855468 -0.06391125408866197
0.168 0.2289404893892309 0.07124196106011872 -0.0003034144077174341 -0.0003718778568274477 4.085590154017521e-05 -0.00011789641345503645 0.0262833776793096 -0.06567157717228142
0.169 0.2330464108529844 0.06172141933180038 -0.00029388418278230216 -0.00034705404578696283 5.207838635405555e-05 -3.318757516991525e-05 0.022717399805179592 -0.06725454258576898
0.17 0.2371582167164604 0.05148998005370152 -0.0003202881377366955 -0.00019357964748785753 8.571296178594346e-05 5.246872042151e-05 0.019569518184841293 -0.06858218763303814
0.171 0.24037221761532532 0.040995658139534194 -0.00037796324028739007 -0.00031461035350230333 6.84818690956232e-06 7.182082597964668e-06 0.01544273292266173 -0.07004173955882417
0.172 0.24374261061206762 0.030192483367904845 -0.0004406994247882336 -0.00019866520284329267 -4.0529005710257765e-05 5.673440259457781e-06 0.012198084807192162 -0.07110484659982645
0.173 0.24621141411241546 0.0192590336041365 -0.00040862766964093857 -0.00022432581417471665 4.079435147128604e-05 -6.191747090824523e-05 0.008347084199111867 -0.07208148185956817
0.174 0.24747819324323417 0.007903668147994772 -0.0002555375564958859 -0.0002718671734647351 -3.9508624336667945e-05 2.6798088560134798e-05 0.004475017228643903 -0.07251677845792366
0.175 0.24915614744000936 -0.0031473516361714845 -0.00039932223947360915 -0.00016190697557828416 -3.27902379968303e-05 -6.44957154234475e-05 0.000844441869556894 -0.07328691372318642
0.176 0.24976273476596522 -0.015014442396231767 -0.0004960766531654908 -8.099953536293817e-05 4.350076707503705e-05 -8.338367503300933e-05 -0.002614846427500326 -0.07358484183334396
0.177 0.25034450024167504 -0.02660997472945125 -0.0005589553451423697 -0.0003038828441459075 3.06060188595086e-05 -2.7206522746470714e-05 -0.006607295801509016 -0.07361383154485991
0.178 0.25020994116850204 -0.03791965495716249 -0.0006388683439643144 -0.00010941895574628045 5.254591218270325e-06 2.1396614566778595e-07 -0.01072681657916896 -0.07320816892268386
0.179 0.24987334797247052 -0.049740533236366076 -0.00040350608042850287 -0.00011368170161881484 -1.0906391390335889e-06 -2.1057849851570477e-05 -0.014716218758855532 -0.07281519666993377
0.18 0.24907361623140095 -0.06133952184915778 -0.0003824451254832205 1.6384442280109405e-05 3.227221139856607e-05 -0.00010408382659882458 -0.018401780709213035 -0.07251935145968622
0.181 0.24751704098631908 -0.07321235532402537 -0.00044827996990402834 -7.702469915313735e-06 1.1857379379656467e-05 1.4344256485714732e-05 -0.022328095632646667 -0.0721513184235548
0.182 0.24496844558934308 -0.08470917828307127 -0.0005626108902844346 6.324674931457795e-05 0.00015642379707227634 -9.557588468074747e-06 -0.025822779989249346 -0.07075232990758322
0.183 0.24137283309743168 -0.09646017386452443 -0.0005562729708233929 0.00012268627928152838 -4.374136498572729e-05 -8.113152147000558e-06 -0.029723054410584003 -0.07006296677384614
0.184 0.2385852961330244 -0.10869029759024454 -0.000535817463361657 -5.5430421938868606e-05 -0.00010001849224617498 4.4956649844143416e-05 -0.033435308533836056 -0.06833956086549389
0.185 0.2350826793570558 -0.12035148370003138 -0.0005550389092626893 2.506766295428891e-05 3.141637872877311e-05 -5.518537894731805e-05 -0.03738716513930217 -0.06678094456594871
0.186 0.23024765174064127 -0.13100450727516175 -0.0004213505541752716 0.00014334967932614853 1.0526324459477729e-05 2.59921477054046e-07 -0.04091631023088302 -0.06514328329251809
0.187 0.2246102660912602 -0.1433078968243981 -0.00036690195165510866 7.261734930780158e-05 2.8792400555338618e-05 -2.7463209894991427e-05 -0.04473094080538178 -0.06311918366648753
0.188 0.21896252713643805 -0.15451249788642876 -0.00048223738256080096 0.0001748501601209944 -7.103344463850095e-05 -7.281847971900269e-05 -0.047251104065827276 -0.060922617197986494
0.189 0.21289219563656134 -0.16450237709789353 -0.00039757862890322257 0.00025642147683317186 -3.430380346543899e-05 -2.8928079557864885e-05 -0.05128933693600655 -0.05885560397387331
0.19 0.20674494936679208 -0.1750830198435432 -0.0004924189763531703 0.0002963322791446525 4.059061918663961e-05 8.579138565338444e-05 -0.053978871807095895 -0.05652576952300629
0.191 0.19851084363812094 -0.18704671497863826 -0.00044922894248053353 0.00011611315527523702 -5.687532002340595e-07 -0.00012639782022181315 -0.05725066277863317 -0.0539296650543175
0.192 0.19197448384831134 -0.19627598982435157 -0.00019846632467264202 0.0003502306969003526 1.8213742456508203e-05 4.2674108332049764e-05 -0.05967638891029199 -0.05089812834487589
0.193 0.18253462593107936 -0.20657313160152277 -0.0004604343013338253 0.00033117939456561214 -0.0001267276172400436 1.7581387567337794e-05 -0.06320232858188223 -0.04804656780443554
0.194 0.17237018109165134 -0.21526441624269319 -0.0003349389145575358 0.00034807202773103855 -7.677844577527138e-06 2.081607868871074e-05 -0.06541271972570405 -0.044943785606605335
0.195 0.1636470816084877 -0.22480548050972923 -0.00035330866146070916 0.000369373405097154 1.660931180980615e-05 -3.4669947420307445e-05 -0.0685203384007518 -0.041707101339775926
0.196 0.1544431355737624 -0.2337534089275181 -0.00023408297524461823 0.00027076946795385825 -1.2646487512049185e-05 -4.945633656382337e-05 -0.07042723586686175 -0.03815187614668073
0.197 0.14353077034738873 -0.24039486209034047 -0.0002735489780893791 0.0004220469361262064 5.802908991357724e-05 5.108995666101882e-05 -0.07282741510631902 -0.0344812641101934
0.198 0.13330310401046425 -0.24794722103633574 -0.00016206291969322247 0.0005249593866741697 -8.223728621964217e-06 -0.00014785175814185342 -0.07491859842319527 -0.030996401227124337
0.199 0.12031297762865915 -0.2561402850584099 -0.0002949438772405378 0.00039357670370441616 -2.0991321872135857e-05 -7.846209198069865e-07 -0.07629447322581351 -0.02734554776827215
0.2 0.10846503539544643 -0.26322721024656653 -0.0002633579428744426 0.0004190411619912645 -9.237074372032998e-05 -1.740667633578483e-05 -0.07819099754998117 -0.02339335918718667
0.201 0.09609041800594598 -0.27017961552226344 -0.00011626884048591554 0.0005290617878819542 8.99669858990183e-06 -6.775172172251457e-06 -0.07951505457886938 -0.01959516204166123
0.202 0.0838454077616173 -0.2748490322692355 -0.00011125376573763217 0.000514263499633958 5.849287250712233e-05 -2.674468130528241e-05 -0.08093394390146265 -0.015194354121948004
0.203 0.07144646560357457 -0.2788495778163209 -0.00011746293739635513 0.00043552588725720475 3.895685512630088e-05 5.0076787437197905e-05 -0.08197451560450328 -0.011429594257768728
0.204 0.059990679837527594 -0.2826129077867429 -0.00013622643202407277 0.00048126371727399584 -9.816382745791468e-05 -9.461480202391579e-05 -0.08271420907882847 -0.007020674212756173
0.205 0.04487023868145064 -0.287612876895201 -0.00018085592322902055 0.000623017471805408 -4.369153467687987e-05 4.765484572513253e-05 -0.08327367338019603 -0.0029079807528408917
0.206 0.03162805882731373 -0.28970626349533285 3.9130048228179425e-05 0.0004591540550257797 -0.00012166602210650429 5.845994290830609e-05 -0.08361245283451385 0.001493674099074769
0.207 0.018415185528567572 -0.290677023539664 3.870863542667905e-05 0.0005814676081386971 9.435906429619991e-05 0.00012084200710664883 -0.08395864731171608 0.005870960541597906
0.208 0.003573901559449089 -0.2928401308493992 8.02042854778813e-05 0.0005489419660299028 2.09222389120697e-06 -1.397332882590668e-05 -0.08403329025478071 0.01012031941917931
0.209 -0.009097538896044288 -0.2944762031889612 -7.919156276046565e-05 0.0005897098460247966 2.534062125258822e-05 8.50373042938573e-05 -0.08344637611386028 0.014303569773472583
0.21 -0.02390248227769215 -0.29471712003062117 0.00010066949838745966 0.0005844294991416315 9.770656269703282e-05 1.653884697967654e-05 -0.08311968934818233 0.018700869307134303
0.211 -0.038406947960453505 -0.2929643857184553 9.261573505297187e-05 0.0005303226703255617 3.001295607924981e-05 -6.224827702792722e-06 -0.08235418723453361 0.023299034702905168
0.212 -0.05150548989119564 -0.2917531943695963 0.00024960889113010977 0.00044009644293530905 0.00011408849895590736 7.305473209977964e-05 -0.08140592833403601 0.02726273025870254
0.213 -0.06554938053535589 -0.2903301942845994 0.0002145784325556562 0.0004556959030442064 2.3235712695619938e-05 -1.333710758931906e-05 -0.08036838353631312 0.031733926235445055
0.214 -0.07924378829124681 -0.2890315534368438 0.00023483955353068074 0.0005034358159199156 2.3582837784296827e-05 -2.7393769894399518e-05 -0.0790366442711835 0.03611021985583241
0.215 -0.09222305999123454 -0.2840969882985302 8.626230753564229e-05 0.00038760317291437095 -1.4465523620792333e-05 -9.872402394225355e-05 -0.07739275144583264 0.040301529809576506
0.216 -0.10643039671659316 -0.2817295767360052 0.00016178097492881597 0.0005308440061813734 5.3388434183701875e-05 4.323310155924429e-05 -0.07540457989113025 0.044819258255169456
0.217 -0.12050622551446462 -0.2773004308318782 0.0003148376716511327 0.0003863086633258595 4.2661805915227576e-05 -7.571130138065995e-05 -0.07341824967869245 0.04858008414581916
0.218 -0.13203571678644893 -0.27094771628429526 0.0003960723981758329 0.0004731660401993042 5.254694339470691e-05 8.291865000257712e-06 -0.07098458820942286 0.052630757214960605
0.219 -0.14680893281803406 -0.26613258166333614 0.0003065258831133579 0.0005467728491662096 7.044241689798613e-05 -5.651469906091394e-06 -0.06876711391142296 0.05665574444858725
0.22 -0.1591843029126152 -0.25936808724838617 0.000310272128854427 0.0005623197352138099 3.411686575506408e-05 -2.711310419528539e-05 -0.06590638713692128 0.06027645213100571
0.221 -0.1708833055480095 -0.25319594919266136 0.00047075686268123907 0.0003874963512368887 -6.061905413368245e-05 -8.602260300164281e-05 -0.06321317493927164 0.06385424726043708
0.222 -0.18352790871679917 -0.24500628396194635 0.0004996607275610784 0.0002305842979054605 -6.795994419440031e-05 6.16459581780051e-05 -0.05972163756992111 0.06744741687588154
0.223 -0.19641761690558993 -0.23880388646795875 0.000553657961620507 0.00034056842418549264 1.3380441014329699e-05 -3.46312247264933e-05 -0.05655709005203001 0.0712215304969773
0.224 -0.20759116671366853 -0.22847744787471583 0.0004112661215471978 0.00037693334831228546 -3.8535875998077255e-05 -1.3772688876276311e-06 -0.05298487725328313 0.07429277158614288
0.225 -0.2183852338794293 -0.2195197269188471 0.0005235838032705992 0.000279116023170526 -1.8230456289070817e-05 -4.247244966795379e-05 -0.04890537938924437 0.0770439692745034
0.226 -0.2287201882564869 -0.20918217607946335 0.0006017108396234171 0.00015244941303229847 9.798016703636407e-06 3.526514425577998e-05 -0.04531285384448014 0.07989943760163143
0.227 -0.23947097506276094 -0.19977429665213517 0.000544544272519765 0.00028704394870581243 3.9231252696782123e-05 -3.429148659298622e-05 -0.04142677155099518 0.08270763262545046
0.228 -0.24837986506262874 -0.18865872305165457 0.0004436420932876583 0.0002254472128188555 -8.550204709781712e-05 -2.94146366840692e-05 -0.037189787513214896 0.08495980755838164
0.229 -0.25797971241484485 -0.17803059023527393 0.0005537745711524296 0.00021094050271676054 -1.1904053324115593e-05 -0.00012642851091474925 -0.03241063849166445 0.08737560222133614
0.23 -0.26581305219518503 -0.16685534969434396 0.0004939522053067841 0.0002861159075196562 7.011292482657462e-05 5.8397263068474255e-05 -0.028451939006223618 0.08940839223640204
0.231 -0.2745734735594507 -0.1556923476298324 0.0005279280122244385 0.00019653339932713203 0.00010554896923720822 8.557915639506018e-05 -0.023666348889618726 0.09092258168706972
0.232 -0.2805663579004285 -0.14290751471190072 0.0005971061957907774 -4.866792977897251e-05 0.00010447459245344465 4.486262593955328e-05 -0.01877461069282533 0.0927656467724876
0.233 -0.29042823772801674 -0.13039988642859013 0.00047473616839611857 -2.8904131211319113e-05 -5.761319517024341e-06 2.795663000651167e-05 -0.014399679965654727 0.09355622299479299
0.234 -0.29467579924505594 -0.11788987662092802 0.0005470901352539976 -0.0001865339902997315 -4.59356846913847e-06 -2.1219479169853218e-05 -0.009325246050939753 0.09487975004736228
0.235 -0.30188153411856633 -0.10417641733845617 0.0006571475016391389 -7.357934418112085e-05 2.8224024053746963e-05 -5.542078548988346e-05 -0.004383729188404544 0.09575923949038177
0.236 -0.3080588141232712 -0.09157110291674578 0.0005717509309652622 -8.702701514402377e-06 2.0744225718465938e-05 -5.5610052932429915e-05 0.000935812960224641 0.09598466549808699
0.237 -0.31169903639652896 -0.07645247795530903 0.000577054297945182 -0.00022065317862687825 3.7626031360780145e-05 9.912858145897555e-05 0.005625815122958165 0.09606496300751032
0.238 -0.31623937872401336 -0.06344201788248975 0.0005551139345091766 -5.447333878790916e-05 3.3419493592984065e-06 -5.6083482436135425e-05 0.010867880177064587 0.09614368999524942
0.239 -0.3194549781690968 -0.04903505982571937 0.0006140561460536209 6.711239729505786e-05 7.158806227519131e-06 -6.862425517499745e-06 0.01536028522083781 0.09567191081249077
