!Created with skrf (http://scikit-rf.org).
# GHz S RI R 50.0 
!freq ReS11 ImS11 ReS21 ImS21 ReS12 ImS12 ReS22 ImS22
0.13 -0.08458780977881768 0.17247467670524433 0.00015573425788747403 -1.982606107897894e-05 -2.326004892438951e-05 -4.8080582316752056e-05 0.04791696851820955 0.02809449751293999
0.131 -0.07691909247269223 0.17869802663196815 0.00017050945385791637 -0.00016723956187118582 5.758197531145001e-05 1.7227505382667803e-05 0.049872023522723526 0.02572128203871975
0.132 -0.06984312662176241 0.18269174616733705 0.00011158074435095251 -2.0114243791459877e-05 -7.644017861326808e-05 -1.8186389155169015e-05 0.05139568294312051 0.023026784057007223
0.133 -0.06079838694010647 0.18781505430009943 9.833641738929689e-05 -0.00017614118388295093 0.00011616599231420193 -3.3327205013279907e-05 0.05334800014546874 0.020277282843307244
0.134 -0.05317205928427109 0.19158008335576857 0.00026535155297629007 -0.0001679053189729549 -8.162262395660959e-06 0.00010407422853885168 0.05471325401511994 0.017234620092192503
0.135 -0.043806520974776456 0.19570332900726958 0.00019213760573201838 -0.00020331583267386633 -6.751539468194096e-05 1.8048025454730432e-06 0.05604477932808216 0.014276784904058844
0.136 -0.035278497304616345 0.19825589748271508 8.14308004657027e-05 -6.16633381569356e-05 1.6807641748001304e-05 -6.153398021413247e-05 0.0569303797240541 0.011626580027344093
0.137 -0.026009002112432712 0.20137603839483573 9.953697905405018e-05 -8.478045730938807e-06 -2.8441761776898813e-06 -2.41714958844531e-05 0.05804292152482047 0.008098644047043647
0.138 -0.01673001952106033 0.20217457394024121 0.00011609530829209023 -0.00017665421624029303 -2.8855691206482496e-05 1.8228596636601373e-05 0.05888520598285738 0.005069374110429724
0.139 -0.0074659113987258436 0.20498035319256103 0.0001864222751710759 -0.0001680856498843733 5.0108093547626814e-05 -0.0001388774883341409 0.05945798182861304 0.001898899256392193
0.14 0.0028653108304000597 0.20600424409667586 0.00021666703496660056 -0.00020752682728774762 9.724396538899101e-05 -4.0980615235260324e-05 0.05996682821201071 -0.0015210020488571085
0.141 0.010546219140382347 0.20745763653767307 0.0001740069418800587 -0.00024139836880516987 4.054088905042605e-05 9.47352145816786e-05 0.060161026410270234 -0.0047045979654776965
0.142 0.021615164853357214 0.20701209780129826 9.993950891126759e-05 -4.8024650415372805e-05 2.954865615021099e-05 2.0198672245236283e-05 0.06011400468814101 -0.008058831020900757
0.143 0.030103810289975698 0.20594127494402412 0.00010656408667379771 -4.8680356896625177e-05 4.016030888835235e-07 0.00010710134312815893 0.060100222050703846 -0.01156593606533547
0.144 0.040764185237166815 0.2079719173926918 7.757526613133147e-05 1.1461263314539244e-05 0.00015809442833832226 -8.404301741865318e-05 0.05974788691833997 -0.01478545872459679
0.145 0.0503453651866457 0.20623166074355612 3.8336511384007684e-05 -0.00017132114290104703 -6.158042320294177e-06 -2.5603947596698366e-05 0.0593759612775433 -0.0182604488642861
0.146 0.0600891359019666 0.20553043166560667 3.683557510644093e-05 -0.0002444203779220144 7.004790070372862e-05 -9.971287124428703e-05 0.058582340091814795 -0.02151012909719717
0.147 0.06989560961218007 0.20067760776380902 -7.74979274701879e-05 -0.0003584657744658872 -7.120274023037737e-05 -6.425141383078791e-06 0.0575968947942217 -0.025203924959804266
0.148 0.07909814957068714 0.20172942267851515 9.765772997413348e-05 -0.0002136723541074415 7.519630332604183e-05 0.00011751233152749207 0.056431823723397924 -0.028323464249361757
0.149 0.08841251842086328 0.19738143990529575 7.22923293644533e-05 -0.00018657691371095736 -3.1136115427946235e-05 6.284589474214967e-05 0.0553640475166421 -0.03153058843027106
0.15 0.09896065807405607 0.19369859296856143 7.150359929334503e-05 -0.00015418993430089183 0.00010225150536774854 3.79563852068053e-05 0.053726445831900164 -0.03477590473590632
0.151 0.10822029878175893 0.19167491077988966 -2.0590242308481373e-05 -0.00025366263093766896 7.764829924778413e-06 5.702579460795459e-05 0.05177478205998339 -0.03782732047826907
0.152 0.11652011645854539 0.18685363179419975 0.000106283139002494 -0.0002808184466286894 -7.606800382728471e-05 -0.00011701216115004105 0.05003278354155252 -0.04119803242991162
0.153 0.12617933168825834 0.18166188207423778 1.6713977636986686e-05 -0.000351971135689695 8.654255999387913e-05 5.200603913816632e-05 0.0479304518658376 -0.04392016722940858
0.154 0.13563686048442342 0.1759195534642645 3.952436503166035e-05 -0.00030917143709162 -2.8192964521991488e-05 3.0448451748294115e-06 0.045608637651292465 -0.04668466516675775
0.155 0.14317889895994076 0.17151074925062404 6.415938894851819e-07 -0.00022952913973994397 -1.0845651595760772e-05 2.9124246046667646e-06 0.04324087679264906 -0.04950046311502927
0.156 0.15262082538058014 0.16509298802749584 -3.395611539225484e-05 -0.000168664679963524 -1.2165522673576582e-05 -4.32485314997323e-05 0.040890795708263344 -0.05205196143567159
0.157 0.16036907476838477 0.15970351608664787 2.7513423279070383e-05 -0.00013685582987215056 -2.5792498276509195e-05 8.051901842374687e-05 0.038044219277948536 -0.054502636409385005
0.158 0.16840592460437082 0.1528330229163724 -6.800787940453002e-05 -0.00028593410489195553 0.00011148858074918663 9.217889548843255e-05 0.03514576156613374 -0.05674303184085323
0.159 0.1762774688359926 0.144586748452111 -5.1308416712900125e-05 -0.00022929098852130116 9.068800125528105e-06 -0.00010349432401561646 0.03214838026589393 -0.05894135142171749
0.16 0.18305713652555144 0.13812942503223727 -0.00016924279645532663 -8.690314920769175e-05 2.0890678932530735e-05 -2.1535757003951385e-05 0.029027377374624876 -0.06097480159058048
0.161 0.19015562045575593 0.13052815416783395 -0.00010134541340860981 -0.0002145795985334421 7.730678744599657e-05 -8.118123238845084e-05 0.026029818560731048 -0.0626481629501408
0.162 0.19720510235596886 0.12251352037617264 -0.00012124435762409054 -0.00011587627722840901 1.977263598149574e-05 1.615941753017771e-05 0.022214487413974235 -0.06435872287611877
0.163 0.20406931912957427 0.11394643687710283 -0.00011198279530088691 -0.00012137451545344949 4.814623161357073e-05 -7.088868309796577e-05 0.01892092002599778 -0.0658157058570272
0.164 0.20984030758075212 0.10422537586075761 -0.0001310440334661827 -0.00011090629269838093 3.853844333234072e-05 1.6829679408294677e-05 0.0154661990935787 -0.06703316780402199
0.165 0.21540935527134422 0.09526483861705282 -0.00023677327812493128 -0.0002502576560923014 -8.233558779252351e-06 -3.4172055331690284e-05 0.012173192375969982 -0.0684371975205276
0.166 0.21972064814045392 0.08577682748737611 -0.0002225316326400972 -0.00010214731913356317 -5.075184917976813e-05 6.184130715565674e-05 0.00814016533112998 -0.06901777479971566
0.167 0.22545690360695825 0.07624100419429801 -0.00024381883384062066 5.8641218960662376e-05 2.688026405151794e-05 2.6643073824172845e-05 0.004452038321733917 -0.06989619902645568
0.168 0.23021667146652497 0.06562518708198589 -0.00029260399991000815 -0.00023418427983327447 -5.3843740554071515e-05 -0.00013768030868736007 0.0002691013714226518 -0.0704836476742249
0.169 0.2342812628901374 0.056562799784161275 -0.0002840811483393689 -7.595327194967805e-05 6.139050315945336e-05 -2.672321609984747e-05 -0.003521399345190157 -0.07079336337973693
0.17 0.2376027115330346 0.0452991196560599 -0.00023243894840065278 -0.00011672199840757337 -3.545086678956683e-05 1.504229567320311e-05 -0.0075799385822018315 -0.07063556781203355
0.171 0.24075970175953773 0.03507610531280962 -0.0003800235942495726 -0.0001577145534884258 -3.0250857388335005e-05 -3.603160804333797e-05 -0.011800150698640443 -0.07036755558526804
0.172 0.24318000937605422 0.023691695855350435 -0.0001501901126955917 7.020940157424947e-05 -9.52664982214183e-05 -4.045356067968011e-05 -0.015463789035183008 -0.07009178485729278
0.173 0.24552994454613908 0.01282886310246153 -0.00010185698777622865 -4.635182804793642e-05 -7.683917437316208e-05 -0.00010114879558210115 -0.0192358101515943 -0.06969409895992007
0.174 0.24746779498721752 0.0018447056079367698 -0.0003343982668240845 1.9445980519431403e-05 -1.3165508641164298e-05 -4.4114480753898176e-05 -0.02283011377760079 -0.06848017725363614
0.175 0.2485595527422667 -0.010270894877138856 -0.0002484789983620499 -6.96030745622114e-05 2.7212614105435388e-05 3.4674364076590084e-05 -0.027059406337265324 -0.06753046978665259
0.176 0.2493975384692526 -0.021652417306081105 -0.0002903269507463012 2.5918970585066092e-05 -2.5662027340920224e-05 -6.453961460394986e-05 -0.03025369160942974 -0.06611075245828671
0.177 0.24951067183154022 -0.03307803110075715 -0.0002762421111970148 -1.2740357813976124e-05 -3.243585185160139e-06 -2.4166251557546436e-05 -0.034193049754271274 -0.0648829087475722
0.178 0.2492909076226124 -0.044778631035525915 -0.00011987128105879949 -7.838088785781668e-05 -6.317733558284523e-05 -7.397115595532064e-05 -0.03799565198687416 -0.063284239030627
0.179 0.2480744997517138 -0.056696062019510995 -0.0002537143484737084 -5.8683899550114383e-05 8.068506047127414e-05 1.1950227557143426e-05 -0.041272941420175964 -0.06126169982922466
0.18 0.2466785026508476 -0.06872478925868471 -0.0003214871508933634 -3.135392097610153e-05 -2.447053701770823e-05 -0.00010116718367333035 -0.04496270605478453 -0.05975224058191078
0.181 0.2445731739461523 -0.07975247583757686 -0.00017442431858237636 7.53333544946926e-05 0.00016866453103661416 -4.230479004610817e-05 -0.048457119020439546 -0.05694006823290929
0.182 0.24135947646658806 -0.09238971805271909 -0.00018467314165124808 0.0001606665872729395 -2.1055686408907433e-05 -0.00013984321453924911 -0.05164730108422385 -0.05476787050220545
0.183 0.23856576065523524 -0.10401189144214616 -0.00016264809501349853 0.00014346454753715144 4.602343392656516e-05 -5.633378889261292e-05 -0.05441056314401658 -0.05177488155514839
0.184 0.23504697918347855 -0.11524570921806072 -0.0003367582510300171 0.00020053666443036673 -4.147829008450208e-05 -7.813778648738852e-05 -0.0578469028216451 -0.049133729264681236
0.185 0.2309260138917412 -0.1272952498483832 -0.000300827931243984 5.8858237953573266e-05 -0.00012546832883437753 -2.3218790499370918e-05 -0.060629350594758005 -0.046456898279780924
0.186 0.2262688219823352 -0.13776277529584635 -0.00035228891259864794 0.00011787422126798254 -9.286298630080953e-05 -1.5069370890947858e-06 -0.06331696675182996 -0.042871327571394356
0.187 0.22030047139706307 -0.15022817853912934 -0.00024219980007262508 0.00013624641059344664 -2.0927850416476576e-05 6.73662566797121e-05 -0.06607927499500994 -0.03987631531479672
0.188 0.21353042410292067 -0.1609751997475817 -0.0002715255709119053 0.0001467559165321774 -2.609323192825782e-05 -0.00011105152141964122 -0.06814894178517288 -0.0361282298433585
0.189 0.20729683912366012 -0.17164326710932443 -0.00010797620425628268 0.00022902324819994732 -3.258478314939438e-05 -2.182390731410236e-05 -0.0701429445640796 -0.03273148305865225
0.19 0.20035285927752716 -0.18224965417118547 -0.0003128638687474498 0.0002174207474207861 -1.619106599863985e-05 -9.095359075236344e-05 -0.07197358422724459 -0.028760062141985197
0.191 0.19184362997535048 -0.19340641574905676 -0.0002741083167220766 0.00017362954502869445 -4.564495661042335e-05 -2.7063283232473836e-05 -0.07450970136386603 -0.024862833256001072
0.192 0.18317185825010507 -0.20270919906190718 -0.0001433798476160379 0.0002710833670791548 -5.0767807593943966e-05 -6.317840960306699e-06 -0.07521481773145071 -0.02127921733362586
0.193 0.1747140182329274 -0.2120039426867683 -0.0001343786868263628 0.00023355902780096465 -2.474295407182102e-05 -2.6309722160531365e-05 -0.07710542514510309 -0.01696154489026992
0.194 0.16561400660619036 -0.22054269829204162 -0.00011756184707165384 0.00027769499268300994 2.86707586320088e-05 -7.942874441712728e-05 -0.07821274986525861 -0.0131321826583263
0.195 0.15515932329886034 -0.23096605433461648 -7.377763230138459e-05 0.00032389521625009925 -2.2584326367517893e-05 -0.00010177280038738173 -0.07938117839717773 -0.008562231344599606
0.196 0.1438604446201934 -0.23731173330745745 -5.071973676518989e-05 0.0003177079259626845 -1.9839442629016658e-05 -4.692547783626727e-05 -0.07975251979135763 -0.004506857348333662
0.197 0.13345424099978873 -0.2451938368421852 -9.820916107928844e-05 0.0002541847106455481 -2.2717782689086546e-05 0.00010504616790897746 -0.08029155696675454 -0.00017516928174255388
0.198 0.12143370990012921 -0.2533453144528148 -6.564467841662829e-05 0.00020008229968449751 0.00011991356204257301 6.737515111963982e-05 -0.08067694201291034 0.00422809937024328
0.199 0.1099915245602288 -0.2616994515249799 -0.00011567789387218978 0.0002234038088816605 -3.632241195794254e-05 2.262108094794492e-05 -0.08055456622471695 0.008422207568561265
0.2 0.09876870079139172 -0.26716321882975497 -6.535470581590604e-05 0.00034080848379524774 -1.9142185313474622e-05 -3.108477897035826e-05 -0.08053085871682408 0.012856160082300713
0.201 0.08591167667369333 -0.27061026181192116 -2.1221572407890417e-05 0.00046013558256935677 -4.022010841813637e-05 3.608545955926256e-05 -0.07980679535034665 0.017213837923077516
0.202 0.07273342398534985 -0.27626089581828067 -9.847878891562046e-06 0.0003945790854767028 7.155405174423089e-05 6.0562415538623646e-05 -0.07919404959984785 0.021764888919030015
0.203 0.05884763968389553 -0.2822452663063611 -0.00011146588775091879 0.0003299190036288898 2.7475524667469844e-05 1.1659352366573626e-05 -0.07813227822227889 0.026154541490098663
0.204 0.04736492818522552 -0.28483072855050307 -8.72737502836973e-05 0.00039609387584372836 8.060124723751319e-05 3.425373978073526e-05 -0.07710339653214099 0.030529826567992347
0.205 0.032938182568796416 -0.2871797434279003 6.184788619213255e-05 0.0003404324798541207 -3.433117102446826e-05 -7.56195995076327e-05 -0.07557808361514196 0.03472957755340748
0.206 0.018686745893211554 -0.29056795027298327 0.00010708834989240218 0.0004494282924215157 -2.5216534001759577e-05 -5.668926214112019e-05 -0.07393419634691856 0.03911775014629023
0.207 0.005852304078463358 -0.29193353369903974 1.6028766145773057e-05 0.0004590038071629788 -8.146049852720916e-05 5.652761313456852e-05 -0.07222686347205665 0.04311727624540319
0.208 -0.00867003305632169 -0.29293202550347036 5.239651378207942e-05 0.0003454363168888875 4.6646693391897834e-05 -9.441157892218516e-05 -0.06996293464152314 0.04695500455405453
0.209 -0.02266287580135227 -0.2922898406422395 7.715611834857538e-05 0.0003816310477212375 9.729418573361604e-05 4.869765595319515e-05 -0.06757692569699346 0.05095176538806852
0.21 -0.03691979786301122 -0.29292481951204924 0.00012095075629621952 0.0004098616165543695 3.359249818112674e-05 -1.6466451746606266e-05 -0.06475593800874332 0.05494132182209394
0.211 -0.049523351556430235 -0.29226642265580155 0.00017165979392322786 0.00041069623202038993 9.425170977170742e-05 -5.4005516459568925e-06 -0.062147081733885216 0.05887882276522943
0.212 -0.06435752303811586 -0.28973708969363104 0.0002915818794525894 0.0005606367503078583 -8.620092454509297e-05 8.526570985666717e-05 -0.05915557968007624 0.06240510574016125
0.213 -0.07810163911809263 -0.28840968112756576 0.00028760397599279515 0.0004161525765534424 6.626342199446929e-05 -2.448565157878435e-05 -0.0558829768378597 0.06564776555054931
0.214 -0.09280534743998298 -0.2826066979871782 0.00020964672754929673 0.0002402431908906788 4.367962266626209e-05 8.001152940236257e-05 -0.0527059623024585 0.0690184186973139
0.215 -0.10572149445917206 -0.27979535473123 0.0002930112488219725 0.0002790460786295749 7.770042330011576e-05 -8.129997041217337e-05 -0.04890800096588923 0.07199972155517917
0.216 -0.11939198459829986 -0.27643619081403287 0.00020202791078342884 0.00016086898862305144 1.010711109870791e-05 1.1993615707265127e-05 -0.04466076701040103 0.07568907983740795
0.217 -0.1328940522454707 -0.270085672233213 0.0001738893140784185 0.000134184965083078 9.612119315370226e-05 -2.005563051659334e-05 -0.04128331042345889 0.07759156038752511
0.218 -0.14585893072319384 -0.2641123341983371 0.000238610866194636 3.613683776115326e-05 4.849137434543553e-06 2.0448893858748474e-06 -0.03689140874726234 0.0803403739500925
0.219 -0.15945131324219844 -0.25692608493643687 0.0004167790440931818 0.00037395957794765294 -7.757796979673401e-05 -6.389706270904888e-05 -0.03240719116988931 0.08286630977058405
0.22 -0.17202849325465594 -0.25140302422948946 0.0003307017105271477 0.00042310048606535966 8.865422092050079e-05 -0.00012233749928368452 -0.02776466045535423 0.08501674031238036
0.221 -0.18293069386046779 -0.2443478572313467 0.000430145181422481 0.00041797279895392647 -1.1870675854696667e-05 -1.2536441785977951e-05 -0.023483630505566115 0.08662549285450391
0.222 -0.1957968416452402 -0.23444310133560323 0.00040334649029214186 0.00032238817241957797 -1.6756277667015794e-05 -7.595017020559291e-05 -0.018667621959074288 0.08832751615689435
0.223 -0.2072152620760894 -0.22663160375676178 0.0005005547552885546 7.351366030640721e-05 -3.801062137805782e-05 4.483793517672164e-05 -0.013219726201008532 0.08954070724116049
0.224 -0.21882066689710855 -0.2164466285339092 0.00046784989768190824 0.0001471881960849124 -4.237363179780558e-06 -9.311785229806673e-05 -0.00889825401997613 0.0907896556158113
0.225 -0.2278392980193341 -0.20684127695659205 0.00026792754854343203 3.273281957783282e-05 -2.3138312491395513e-05 5.1058083700758494e-05 -0.003664171553573133 0.09104415442479533
0.226 -0.238603345800853 -0.19723646152267643 0.00042815499952393555 2.360308911079908e-07 -1.630116475682747e-05 0.00012284870096907345 0.0014521965592580767 0.09180446351674487
0.227 -0.2467911209339352 -0.18618157302813523 0.00043808536455516324 -7.247393106342184e-05 -4.041367199835897e-05 6.672269084513639e-05 0.0060997993844449485 0.09229361258371306
0.228 -0.25757906385600077 -0.17543075101810765 0.0005723681401350076 -7.15582366833821e-05 -1.7286397762161702e-05 3.0409298593897704e-07 0.011435867790769381 0.0919967165470499
0.229 -0.2656143650018959 -0.16341703278729672 0.00045995892447922836 -0.00014912042588682056 0.0001012148668349777 -1.737324686691244e-05 0.016817237103194438 0.0916088131528623
0.23 -0.27352351377035344 -0.1517628591265267 0.0004999255915563909 -4.804276274844041e-05 -5.25300006491051e-06 7.432039500328179e-05 0.022254830000917575 0.09132545179957723
0.231 -0.2817454685545521 -0.1389892521554669 0.00038058620892721096 -0.00013725985980014976 -6.315524951410016e-07 3.7806421886717154e-05 0.02684008174635892 0.0902039530061053
0.232 -0.28837131127499405 -0.1262298974000696 0.00039723566836398277 -8.360037970709727e-05 6.554884129472722e-05 -5.5910616402122736e-05 0.03210583643098543 0.08900219472055043
0.233 -0.29675170657452127 -0.1141444960888723 0.00047217329185998485 4.553212795101281e-05 2.659416130387778e-05 -2.6829086828766782e-05 0.037212394825823114 0.0875175656090917
0.234 -0.2989677395521239 -0.09989723718106559 0.0004935009770078651 -6.144402489070526e-05 -0.00012787464631450394 6.039487902762305e-05 0.042096340270381956 0.08550985025907339
0.235 -0.3071706212327898 -0.08617909476379877 0.00045700437269362575 -6.14440253726614e-05 9.673486788720301e-05 -1.211736791620516e-05 0.04716278773357984 0.08310857139179786
0.236 -0.31132531139281194 -0.07209871180110666 0.0005237088860057458 -0.00028993494672086614 -9.233202105999801e-05 -4.7061373984287605e-05 0.051372915420632444 0.08079117971738424
0.237 -0.31519069500314567 -0.05823934528215847 0.00039955751763672736 -0.0001706479246631549 -2.8577645951307713e-05 -4.594184703060546e-06 0.05628942586140811 0.0782134345152403
0.238 -0.31811705796942613 -0.04404512792236917 0.0003615248976063735 -0.00023029943562457382 3.4775677402775425e-05 7.546133698468153e-05 0.061011877622986946 0.07530139683486209
0.239 -0.3217292742544392 -0.0289435232886144 0.0004661538322482107 -0.00031308555291843494 -4.328528167360071e-06 -1.70095914347892e-05 0.06554387692786107 0.07186723062262322
