!Created with skrf (http://scikit-rf.org).
# GHz S RI R 50.0 
!freq ReS11 ImS11 ReS21 ImS21 ReS12 ImS12 ReS22 ImS22
0.13 -0.015600585375906695 0.012350331480911133 -4.648872249822014 -0.6708186263925117 -0.002164051891251209 -9.803247431305548e-05 0.0047265243636098455 0.0028727568170752163
0.131 -0.013643437459003632 0.01358403623189734 -4.688439907605027 -0.018539414456157206 -0.0021575047339511297 0.000201213888229797 0.004784219404637257 0.0021245047909731335
0.132 -0.011548124216498905 0.014300571823512118 -4.65561805191751 0.6277836556863693 -0.0021593111301291567 0.0005084502786010756 0.004750630820136375 0.0014974230538066704
0.133 -0.009463721017859292 0.014346951866853003 -4.51836222189359 1.2696554866046177 -0.002230459253101048 0.0006959119683177722 0.004516311544644895 0.0008031751996892663
0.134 -0.00747182497189657 0.014027071105239037 -4.289402272734139 1.8964647470283833 -0.0020356500524458874 0.0009901055491246598 0.004362274359205284 2.478026464716806e-05
0.135 -0.005997299582938752 0.01330382190065076 -3.9804141885735618 2.5000867864728864 -0.0017457891272967538 0.001236302044905411 0.0038132668404985927 -0.0005164144450214632
0.136 -0.0043967877106571495 0.01202138946833361 -3.5721520301358427 3.0374530744556103 -0.0016624720712863977 0.0015308983337252978 0.0032684053132535362 -0.000908119011643234
0.137 -0.0033669249484172517 0.010607869691036397 -3.08908261489524 3.526301564456636 -0.0015797593627065738 0.0017005814699809015 0.002589194087140571 -0.0011538941115236446
0.138 -0.002842300201877546 0.008933853743533362 -2.5437596624901384 3.9340530295989846 -0.0013172528303835613 0.001941181030472123 0.0019604699251241516 -0.0012663139646323883
0.139 -0.0029397196377972464 0.007138371628109242 -1.9237707861884683 4.265176032160868 -0.001090982117860941 0.0021101374217014504 0.00114939610311637 -0.0010606031798784223
0.14 -0.0034678024941363138 0.005489497624569968 -1.300092313435873 4.508428250804248 -0.0008267239647437687 0.0022437594472920408 0.0006068091385693219 -0.0008512673442171261
0.141 -0.00445752223343775 0.003940433065502774 -0.5840953188579434 4.647029489203539 -0.0006048742471028285 0.0023587669407420494 -3.107625764150311e-05 -0.00039314783774693524
0.142 -0.006056694008146544 0.002910212562217054 0.09173574372839545 4.671462638756288 -0.0001488432100662948 0.0024472552795550937 -0.0004790125431678797 0.00025010575951361176
0.143 -0.007614810992473264 0.002324675697243595 0.8200158827904576 4.608274082338244 5.960215970298926e-05 0.002497319517709316 -0.0008694814201116776 0.000961430498205118
0.144 -0.009561270054387188 0.0021799462510751727 1.5306889639229493 4.412192415253802 0.0005237992623492983 0.002519985452230417 -0.0008381698526242836 0.0017526447425934193
0.145 -0.011501720997839545 0.0023661947572663523 2.182534495011409 4.12576260880919 0.0008037913143753974 0.002492885190576054 -0.000730818331422536 0.0023857443485787635
0.146 -0.013395158523756261 0.003567696758045906 2.8196897980013644 3.7149093033734135 0.0011377439914895917 0.0024157767015453 -0.00024087890284134444 0.0031094373014155653
0.147 -0.014611954180240796 0.00463781649921228 3.348095532705136 3.2263877184503906 0.001470306789747648 0.0023339958280772792 0.0001740364985140182 0.003592569689714253
0.148 -0.0157705611393942 0.006489592824989436 3.83710456297346 2.6260140857763608 0.0017648481607730798 0.0019829169752675914 0.0010488461694067143 0.004027257809261872
0.149 -0.015870567620657684 0.008250695942760533 4.198241023584699 1.9751227636495634 0.002084661179284772 0.0018556578989162226 0.0017037315836295388 0.003976750820166361
0.15 -0.015508156557470003 0.009936362503368747 4.452197271406136 1.2388314476998397 0.0023025328017367273 0.0016413150997051503 0.0026854949243979645 0.0037924767101660366
0.151 -0.014142594996683695 0.011033886932108371 4.596239172910783 0.47627363758818786 0.0025485380116361247 0.001040555988602579 0.0033124111789714916 0.0032316531736463114
0.152 -0.012547977370137218 0.011295151860853645 4.598016432484865 -0.31635687580530736 0.0028161571958900144 0.0006952935302658504 0.003597022166554834 0.0023884067886924087
0.153 -0.010389140661323645 0.010178794545435972 4.476757582354561 -1.1069057366879251 0.0029402336598484515 0.0003849862661580873 0.0036358735260477145 0.0011027948312215333
0.154 -0.008600011417345226 0.0076065571094375084 4.1876669312311465 -1.8883815121879135 0.0029118554410394355 -0.00010403840398475547 0.002907250325271372 -0.00025984477719619544
0.155 -0.007525215644898016 0.003149553924550922 3.76485095321091 -2.6300613382128724 0.002826561270478302 -0.0006372310270517605 0.001559376865156196 -0.001364342727825767
0.156 -0.008259168830807169 -0.0031342714982991672 3.1912022016688963 -3.280555851356575 0.0028208080821563006 -0.0011307419968323233 -0.0006969859210029483 -0.002050957121657747
0.157 -0.011698718678720804 -0.010909231656387604 2.467931877925375 -3.8368298330694914 0.002456168959402485 -0.0015857858507623392 -0.0037417689878578107 -0.0021474054244055804
0.158 -0.019148385013996096 -0.019122293238762814 1.618067288580258 -4.218647703663864 0.0022170781602056087 -0.0020306047955660905 -0.007307424545328881 -0.0008618597762149133
0.159 -0.031219739713798673 -0.026597986536366438 0.669768501015735 -4.403456697199608 0.0017307414851042353 -0.0025245076782728546 -0.011359509846390555 0.0021791449169834306
0.16 -0.048827642309616885 -0.03165227793176474 -0.33388942214315404 -4.356364040665828 0.0011735814798415694 -0.0027076300972376528 -0.014550423561065205 0.007111457440270115
0.161 -0.07100149855746962 -0.03064236838955608 -1.2678517607195994 -4.04804093074488 0.0006929999337361248 -0.0027650111765307535 -0.016217587856547293 0.014078333821348245
0.162 -0.09535097691615152 -0.021234306228321956 -2.075075780753281 -3.4652685874311984 1.032439824021453e-05 -0.002753357603874601 -0.0156733621240136 0.022517583259673766
0.163 -0.1188467041963382 -0.0025283933921769895 -2.697879341854863 -2.7045090732128774 -0.0005445512186977296 -0.002573123888297159 -0.011722494282463353 0.03126872246136833
0.164 -0.13725131010617114 0.025051069228334485 -3.0224355948061663 -1.8357509829669012 -0.0011250091690585937 -0.002276595674892501 -0.004532541924351619 0.03923452646934814
0.165 -0.1472451104562337 0.05958432613765509 -3.0779124017986934 -0.9773876409272859 -0.001333932108439917 -0.0017300956394176047 0.005437655222158301 0.04471452689004352
0.166 -0.14666488999563124 0.0955868430780294 -2.8979615598003026 -0.2272793466328576 -0.0016999863571335403 -0.0013785418808166085 0.017309849919648596 0.04694997100910204
0.167 -0.13614250407130132 0.1315071677666045 -2.558734533219374 0.36209751377222177 -0.0017954035134404636 -0.0009308972702747354 0.029321822960796353 0.04605375289904854
0.168 -0.11757915831697024 0.16351576799673256 -2.142887449882179 0.7806091103507413 -0.0015952652801360157 -0.0006238731644160496 0.04046970777468517 0.04162556529911356
0.169 -0.0924623808944914 0.18853093955115133 -1.708105263423862 1.0282360849014567 -0.0014559857083627614 -0.00016247070468270545 0.050378469317740426 0.03463933588807543
0.17 -0.06361895850331627 0.20783481790992445 -1.3010261453580205 1.1567557392467918 -0.0013522103337593357 2.43406673032757e-05 0.057810282915765246 0.026307594124037843
0.171 -0.03334417697218932 0.22363255051995057 -0.9462846483400961 1.1879794798857992 -0.0011912216582783486 0.00012027787186694885 0.06332365280587625 0.016542530337477025
0.172 -0.003118440999173293 0.22983724384439347 -0.6425409775536597 1.153973914746342 -0.0010090508188736382 0.0002502697577094443 0.06687750582981995 0.0062937826917359
0.173 0.026441591068821393 0.23235654733252017 -0.4027359005482266 1.0814345270405357 -0.0007672761051228849 0.000426950782500209 0.06847587038143278 -0.0037194652371200696
0.174 0.056249716466418555 0.22899434403609598 -0.20775062838604796 0.9849820306187003 -0.0006249443270225007 0.00034808513837236504 0.06844389808111445 -0.013483410707154543
0.175 0.08489118795204956 0.22475995800088688 -0.06284400504676695 0.8797467760386571 -0.0005035051658062469 0.00040523563996368073 0.06669472064666859 -0.023116252746841027
0.176 0.1102334742665301 0.21550928843306094 0.04859204283668649 0.7745392562071408 -0.00037341674751419817 0.0004136992195555297 0.06395346333612253 -0.03148010852720567
0.177 0.13364751784024173 0.20336220183100226 0.13034853255812104 0.6691236160230274 -0.0004999458702787846 0.00031591909730551554 0.06012809675473105 -0.0397831826200296
0.178 0.15589385030895198 0.1906453229089157 0.18333289788875728 0.5717918365537218 -0.00017799779413144352 0.0003246045580727033 0.055625144967727434 -0.04700559192297699
0.179 0.17455024190547896 0.17593616406071808 0.2229152825337179 0.48319400392717476 -0.00022998853516537882 0.00045153010882801014 0.050278364342761304 -0.05327982278322091
0.18 0.1932190374578517 0.16103313734577376 0.24579394168268898 0.4038443395333163 -0.0001901531827041705 0.0002614609105199495 0.044350661703346075 -0.05908127924536031
0.181 0.20748333181476658 0.14352809790495097 0.25553871125690575 0.33185185994575006 0.00010661623693423164 0.00037344802901083347 0.03796537144381972 -0.06376457474689395
0.182 0.2220801515827349 0.12436588843817585 0.2579467557317397 0.2706342243603091 -0.0001245452098476741 0.0002853165909586569 0.031259995461075225 -0.06774742106912582
0.183 0.23412377572100304 0.10507649555166956 0.25515852757424534 0.21526213761547142 -6.026577753574302e-05 0.0003698867998140856 0.02436750150675234 -0.0709884012338804
0.184 0.24446802472814924 0.08470877769573384 0.2482624098341905 0.16703678883637482 1.423214074336992e-06 0.0002174479878280258 0.017370669987505905 -0.07325552471318532
0.185 0.251752782121084 0.06414493271309489 0.23549870761141425 0.12787056279720638 -1.2521281635322408e-05 0.00028063749694414174 0.010321757173268333 -0.07507656391157376
0.186 0.25848074059519616 0.04294466699343377 0.22160425488475624 0.09148630326642222 4.602595645044654e-05 0.00021156528109483996 0.0034338818388140683 -0.07626245184656216
0.187 0.262893853242282 0.022320857139466535 0.20699941205630196 0.06229975174950628 7.601081231959582e-05 0.0002894304712925115 -0.003935022734584949 -0.07668514672623851
0.188 0.2648160540779486 0.00034909786879144594 0.19101667481212936 0.038290121856878044 3.559797919413163e-05 7.762126502844858e-05 -0.010724630628204558 -0.07646100290831133
0.189 0.2657175507970898 -0.01972914769531013 0.17410985404390864 0.018758863661243755 7.448290171496707e-05 7.794403220872927e-05 -0.017599951470566668 -0.07545881156807631
0.19 0.26508282129626737 -0.04109620896091254 0.1588795596209369 0.001801306937332019 9.662284685926393e-05 0.0001632304231752074 -0.023920903421177562 -0.07365514203558757
0.191 0.26285071702759855 -0.06220529116796572 0.14364429873511808 -0.012855942921947864 -8.7945688535874e-06 5.582226328942302e-05 -0.030883894287272534 -0.07145399182555567
0.192 0.25924384489725144 -0.08141876372591089 0.12810169218787146 -0.02229748166983055 0.00011146855898520842 2.3357989050524603e-05 -0.03675131960038012 -0.06891502287464715
0.193 0.2539691900050801 -0.10227300258621894 0.11488983559190455 -0.03117850264496624 -3.335841953312158e-05 6.226618471373032e-05 -0.04258295557290111 -0.06637156679970768
0.194 0.24690716306752578 -0.1207947583672723 0.10128807075887858 -0.03698710436034798 7.310907745651419e-05 1.6232733343532736e-05 -0.047847679639527456 -0.06257686173484105
0.195 0.2387521251020368 -0.13913798152471765 0.08916601407620925 -0.04220028320773702 1.4250566644583224e-06 1.4056109567317781e-05 -0.053300112592210264 -0.05895284261993945
0.196 0.22847635089989718 -0.15700451193588646 0.07746977857652194 -0.04500933049090374 4.797933183128684e-05 -4.130745110145396e-05 -0.05806550361203119 -0.05457781725032784
0.197 0.21870682205386982 -0.1748576206869171 0.06686027137689769 -0.047382153371854585 9.718119108074407e-06 4.920684672725196e-05 -0.06225876706205956 -0.05033187512085134
0.198 0.20677827039695404 -0.19068685445164293 0.057234283031406215 -0.04845239712456277 -1.5499968202843513e-05 -2.1236291835322348e-05 -0.0663617646892807 -0.04551597824753893
0.199 0.19341126738091768 -0.20574271852349568 0.04838394468089149 -0.04852268749353291 0.00010693772291035966 8.640951139652997e-05 -0.06996305309595141 -0.040342324981663985
0.2 0.1795038790879359 -0.21977821790732685 0.04018787428704947 -0.04811013115954605 1.546157415537999e-05 1.4362085694693506e-05 -0.07322422096017742 -0.03514702723340366
0.201 0.16472436389847564 -0.2318867786285975 0.03303848888271153 -0.04698245553813634 0.0001007623468378058 3.7472007918416705e-05 -0.07604310611519914 -0.029702928253947224
0.202 0.14989376297126525 -0.2442304792681855 0.026996314868803408 -0.04560639686620276 4.730816687604901e-05 -8.332504557619784e-05 -0.07811281023425586 -0.023928076649173045
0.203 0.13326245117520008 -0.25425701321064453 0.021180131420513667 -0.04393391870335267 5.94184492648884e-05 7.881739976694825e-05 -0.08022923409394937 -0.018303578275474373
0.204 0.11654020399708674 -0.2639785109171869 0.016128823225724873 -0.041803913816398745 0.00011119894221151314 -3.9343486440415616e-05 -0.08138554788133051 -0.012197188996909544
0.205 0.09766733676842249 -0.2715602656406725 0.011462941534090583 -0.0396493526262748 7.605465713200749e-05 -2.603701210108158e-05 -0.08228630510032145 -0.006250329532824127
0.206 0.08044814517030452 -0.2786906120151114 0.007673997546002971 -0.037135374278398706 -1.650410006218184e-06 -7.049961876009523e-06 -0.08325539322537633 -0.00024974899992238593
0.207 0.0627243953538279 -0.2866283564468168 0.0043425429577943885 -0.03485626771231927 2.569232976935249e-05 7.04396359378147e-05 -0.08353737464130385 0.005658388492057835
0.208 0.043306338473660444 -0.2893646101820536 0.0012856570516311693 -0.03227344394060953 -9.507840755474911e-06 2.7822112860538984e-05 -0.0828522892188087 0.011598051938472773
0.209 0.025829670265967147 -0.29179725178350097 -0.0011071618149487536 -0.029893406338109607 -2.481261978879603e-06 -4.212334753078908e-05 -0.08231760555084684 0.017567548101534068
0.21 0.006551950792102712 -0.2938417577792266 -0.0031953799240178726 -0.027479022091069755 -2.1288075309022385e-05 1.3647853358749903e-05 -0.08137022493835959 0.023272511173023737
0.211 -0.01123934311965592 -0.29476871348650435 -0.004805170710955893 -0.02528134492940097 2.210068513929749e-05 -4.8644856490982064e-05 -0.07988900009339606 0.029460233013155552
0.212 -0.031312297839691035 -0.2938687410069116 -0.006347023777964572 -0.022880570735317504 4.6060874858687904e-05 -3.435617170150024e-05 -0.07794674396931477 0.03470412634153911
0.213 -0.04946667094938806 -0.2948601620188311 -0.007488978133589445 -0.020685429864596597 6.994575240496809e-05 8.43642497052937e-06 -0.07558566825658505 0.04022928184725726
0.214 -0.06766313520401201 -0.28992320518092873 -0.008466484965119134 -0.018578005682873763 3.5938731769734584e-05 3.5955887208945955e-05 -0.07306733733975337 0.04589338595221379
0.215 -0.08657516419569972 -0.28547012983078585 -0.009274405361573227 -0.016712655125563546 -7.810118959687037e-05 -3.667881428419705e-05 -0.07000395792808191 0.05102145097272332
0.216 -0.10363608715757741 -0.2810949436379522 -0.009775207572120245 -0.014659903518697576 -1.3291706283502744e-05 -0.00011230105936275327 -0.06660594144839659 0.05651093284890428
0.217 -0.11972884987192967 -0.27540884887018113 -0.010092945472673477 -0.012914750943479892 -5.560204922821839e-05 -3.6151523941442295e-05 -0.06291583556749317 0.06077369738121741
0.218 -0.13902994627841264 -0.26756376822214684 -0.010373628941444148 -0.011286795361443263 -3.1672472038120916e-05 2.0827188247942895e-05 -0.05889050915172192 0.06527912739583373
0.219 -0.15362095789679125 -0.26169340316789313 -0.010308916504806125 -0.00979081411232525 5.613540987020433e-05 7.826883191423628e-06 -0.05472430929768637 0.06939799018586523
0.22 -0.16932668181410407 -0.2520366473202008 -0.010364527967065666 -0.008439932510042904 6.743672481484285e-05 -3.3424894254165066e-05 -0.05030725155977461 0.07329380880169106
0.221 -0.18388319406356946 -0.24202409065825353 -0.01004970102395544 -0.007006287656040272 5.040352195371894e-05 1.5507652690888813e-05 -0.04493361571266318 0.07677205843468951
0.222 -0.19923371925051478 -0.2305220114649728 -0.009865713241630426 -0.005690592554174901 4.0845141217282774e-05 -1.9862938359005838e-05 -0.039870838196697164 0.07980495850042846
0.223 -0.21225790204530978 -0.21979949190950757 -0.009575935840491575 -0.004428823899687347 0.00010351621174634728 -5.931400598292091e-06 -0.03461522584134669 0.08340766434693443
0.224 -0.22555137065569875 -0.20884000970685365 -0.009325614227761956 -0.0034187473147316346 2.8287559659909096e-05 -2.0656903009616663e-05 -0.029585296158122335 0.08571306828582155
0.225 -0.23757871894452393 -0.19519276529984939 -0.009030919365951559 -0.002444921439508608 0.00012014322792106931 -0.00011653653089697366 -0.023484305598482365 0.08764462167401038
0.226 -0.249057653143609 -0.1830870100624774 -0.008707653783562891 -0.0017172532362872207 -4.564149494265757e-05 -9.898630543852505e-05 -0.017991214054080787 0.08974424193608597
0.227 -0.26029032136153185 -0.16873191505830482 -0.008187966781424442 -0.0011906186815982044 8.241812254283232e-05 -6.127196384987574e-06 -0.01233957576996388 0.0913217387300311
0.228 -0.2690696827143824 -0.1542243638656541 -0.007787586863384738 -0.0004741775732402831 9.898587641836754e-05 -2.5322478868195452e-05 -0.006144351521892039 0.09229830355981763
0.229 -0.2789492561591921 -0.1392689839210954 -0.007429916106107415 0.0001286762641291395 -6.464795546084082e-05 -1.5297021990852247e-05 0.00010751184115126109 0.09276193110466993
0.23 -0.2865306586255081 -0.12314956997983376 -0.006827592078498046 0.0006386352294022194 5.2756449114033026e-05 -0.00011786521250540258 0.005662568604661573 0.09341832125128971
0.231 -0.29394622287881567 -0.10816935474930223 -0.006407144462215102 0.0010632092764365825 8.878255209956648e-05 3.661902228594911e-05 0.0122521327538455 0.09214171116326501
0.232 -0.3001365202087507 -0.09256705041366736 -0.005872053091482902 0.001531436416293347 9.14910737364698e-05 -3.3705013159184744e-05 0.018396682707550353 0.09228905248425658
0.233 -0.3072873576924559 -0.0754148184473792 -0.005393635391015161 0.0019390040861991698 -7.649880253690357e-06 -6.312138801440497e-05 0.024092963831556232 0.09141023227295868
0.234 -0.31037492216871354 -0.05940896697930953 -0.004946886004887781 0.002171048450254109 -5.134813298423805e-05 3.4340116158272616e-05 0.029800283130654043 0.08961151231901568
0.235 -0.31527260259771106 -0.041856345766252065 -0.004481153837125652 0.002427532815733936 1.0452496101564844e-05 -8.394564852001384e-05 0.036363187989118445 0.08829887929164108
0.236 -0.31817302840415623 -0.026132378393678855 -0.004053583035067573 0.0026679314689629064 -4.526297752624694e-05 -9.129730049648954e-05 0.04082961453491488 0.08608388744874781
0.237 -0.32011006959541044 -0.008426055501578105 -0.0035964740931577433 0.002751888452110604 -4.5004795432549016e-05 -3.560845504712035e-05 0.04732261605542739 0.08345647853645204
0.238 -0.32072470942778863 0.007654561307214823 -0.003220355477087667 0.0028593224368019484 -1.589345387091028e-05 6.771961791047091e-06 0.05329183612284183 0.08076618466549536
0.239 -0.32144983837239993 0.025166347962582568 -0.0028335754601750865 0.0030378070990491795 -5.050485251378448e-06 5.601160848089436e-05 0.057856962988307226 0.07727088229498641
0.24 -0.32154642341563366 0.042600042708348496 -0.002388029206567753 0.0029979665206941626 5.311541765664348e-05 -1.9746645594450417e-05 0.0633274173586596 0.07358634441174136
0.241 -0.32028243728313693 0.05990306865358258 -0.0019581975846599256 0.0032250263769279426 1.7900763567227565e-05 -2.786533248535265e-05 0.06799543586479688 0.06963760836250968
0.242 -0.3181235277882771 0.07683362773807371 -0.0017075280914946025 0.003189850851098296 3.078168941560501e-05 6.329790831359423e-05 0.07235995950944155 0.06538134457061436
