!Created with skrf (http://scikit-rf.org).
# GHz S RI R 50.0 
!freq ReS11 ImS11 ReS21 ImS21 ReS12 ImS12 ReS22 ImS22
0.13 0.020300480469136278 0.0072063047146753885 -2.247593120076335 -4.2222455283409674 -0.0012478376363038819 -0.0018529914178981013 0.0025273437800540505 -0.0059903511332122
0.131 0.021174162838725055 0.006250880129234365 -2.5421740844680802 -4.051713595414741 -0.0014033629560561466 -0.0017972327043918586 0.0023158477040126657 -0.0062919069485640935
0.132 0.021573256006053528 0.005272512281356111 -2.775089371630651 -3.882687520188301 -0.001439844429734435 -0.001643635440717696 0.001871314850865345 -0.006495953235759854
0.133 0.022185043796836234 0.004261539763062514 -3.0263581047843786 -3.7040773151509234 -0.0015275751132252317 -0.0016367808831685227 0.0016591768861564855 -0.0066526627806642565
0.134 0.02258979119578246 0.003335927512578013 -3.2343158237698106 -3.5315694005922182 -0.0016346901194877275 -0.0015786018986773326 0.0013103949103465192 -0.006904617584872501
0.135 0.02317008165289896 0.0021296287940886457 -3.4654674947350372 -3.2859127282356444 -0.0017506086101239514 -0.0014207795475085821 0.0010430161868172842 -0.007162606193816071
0.136 0.023766650688320404 0.001040261726219311 -3.6313102547909986 -3.052942204370257 -0.0018109180967772422 -0.0015560893533611564 0.0005542953877756648 -0.007290780666259051
0.137 0.023966222194978536 -0.00016486492710136562 -3.834609179589797 -2.837461530843373 -0.0019412897925049218 -0.0014124527417713748 0.00023214756509944064 -0.007497770714147708
0.138 0.024348509359715893 -0.0013928091253436635 -4.007308235697067 -2.5729548213292426 -0.0019139109523104519 -0.0014844143232792151 -0.00026832419308689534 -0.007668809202620323
0.139 0.024704071628900707 -0.0025431938418878546 -4.160010480534624 -2.3289727305875867 -0.002009508578628209 -0.0014156655706733744 -0.0006158402628714229 -0.007485610666673673
0.14 0.02480201996376428 -0.0038793019731978547 -4.281587887547116 -2.055127171208421 -0.0021185480637008593 -0.0011940449740557536 -0.001222681439639334 -0.007702711753104174
0.141 0.02491830582871456 -0.0052018491562728295 -4.4160894217181825 -1.7758161572416233 -0.0023287700317152155 -0.001211877389409045 -0.0016128188709793438 -0.00784780490755187
0.142 0.024894930346178224 -0.006599908308195122 -4.497927592669717 -1.5077139070678804 -0.002327925704339035 -0.0011543265820516968 -0.0020296457147507617 -0.007870188856108146
0.143 0.025108955950318076 -0.007956834890730048 -4.602532800704039 -1.233244947086402 -0.002255619806605985 -0.0010320337949775167 -0.002674310877311161 -0.007742747251671829
0.144 0.024665186903119925 -0.009427101550689366 -4.651843986335142 -0.9312452934501028 -0.002428655736165987 -0.0009099248972139041 -0.0031533395970515703 -0.00760990016940829
0.145 0.024759416329975612 -0.010815414376250063 -4.710657868606893 -0.6195164362110028 -0.0023944974272862977 -0.0009315450171667862 -0.0035265296481841904 -0.007546541910916145
0.146 0.02449887246694422 -0.012387223055244945 -4.735948578895015 -0.33181871428803816 -0.0026330392722554337 -0.0007659031015414592 -0.004008482292183072 -0.007457709240169515
0.147 0.023979586476448135 -0.01386697273974019 -4.737008573256177 -0.052966773612776956 -0.002641128549618596 -0.0006562126828585225 -0.004534603158595227 -0.007178232701996978
0.148 0.02357802815907331 -0.015398742243040974 -4.729795007248067 0.2666362533878893 -0.002673882008254303 -0.0004808814743987172 -0.005084451519376886 -0.00712813813593804
0.149 0.023064849387838576 -0.016811711751657916 -4.7041494447196 0.5574232023372818 -0.002690360924013342 -0.0004464417351976744 -0.005561837944457728 -0.006893245971696914
0.15 0.022439435737669638 -0.01823959136213149 -4.657626831866332 0.8435479021408574 -0.0027275322020022213 -0.0003909176867029319 -0.006078682664392158 -0.0064865970406002334
0.151 0.021625239254852022 -0.01954097435018051 -4.5813102880192575 1.13362708827728 -0.002909370029953596 -0.00020144984774853584 -0.00643506342940066 -0.006226149456347673
0.152 0.02080993252460296 -0.020952294083307878 -4.501805824859786 1.4086235332220707 -0.002926869762439913 -0.00013378819856966996 -0.006790219594349029 -0.005933602443040775
0.153 0.01970402194356555 -0.02233877071542844 -4.406925319390463 1.6923496162731961 -0.0030108307085054105 -1.5190047909400346e-05 -0.007239531540544137 -0.005558225299278515
0.154 0.018829342669903448 -0.023719820986856342 -4.287703531669178 1.9533130515135642 -0.0030201078244464115 0.00018306438737430208 -0.007733768493510275 -0.005105232176426079
0.155 0.017736805180458098 -0.025051674722751785 -4.155368660150437 2.218905861973259 -0.003035680983290457 0.0001566030231801606 -0.007882988727676262 -0.004735114664522267
0.156 0.016463723444354803 -0.025920797178805008 -4.007619200204646 2.4739483933416206 -0.0030655089197799495 0.00032219797071358236 -0.00824959129600412 -0.004258786326199214
0.157 0.015138934797991081 -0.027381760245913944 -3.843753488555073 2.7220013137389527 -0.002991581994301685 0.0005203493929148427 -0.008702914625960113 -0.00387763140062363
0.158 0.01396976163609173 -0.028298686186001985 -3.65073338729246 2.9464280641901275 -0.002985252525713368 0.0005356190188461884 -0.008965993424351452 -0.003329970556003738
0.159 0.012427070920521551 -0.029533520183004824 -3.464232823695889 3.1726469928705043 -0.0030313284966935923 0.0008211087097230919 -0.009274343702095237 -0.0027251911264213357
0.16 0.010811741663355738 -0.0302818644072387 -3.2571990685888883 3.3821452353352917 -0.002996198628942923 0.0009352739664870678 -0.009423898006544274 -0.002206830859558811
0.161 0.009434640006103927 -0.031201364168618757 -3.028051637496987 3.5670048925903566 -0.0030677848332082308 0.000999559249473451 -0.009590403647484065 -0.0016129501248740646
0.162 0.007631308879791286 -0.0319594177336479 -2.7968625580506377 3.7555909729421884 -0.0030214256893783746 0.001184939323449237 -0.009777155328289037 -0.001139632491174396
0.163 0.006233629659371155 -0.03254280766207258 -2.5661144087986547 3.9215505570109315 -0.00307509689107046 0.0012287838465926254 -0.009874598466632831 -0.0005269572157563439
0.164 0.0043405921808222095 -0.0331798101212396 -2.299577258672143 4.072907493781015 -0.0028977916943149326 0.0015428110943356088 -0.009935711613253894 0.00011109597535292399
0.165 0.0022099776473323302 -0.03393040938970759 -2.043847147362264 4.216011213334351 -0.002959223233757671 0.0016461313443221443 -0.010093489331560372 0.0006615622426791314
0.166 0.0003467967763053245 -0.03413787172002503 -1.7894555161656889 4.339361102253165 -0.002808864767359001 0.0017039369966629857 -0.00987129133043979 0.001313275802513285
0.167 -0.0015941349276627713 -0.03461602290080798 -1.509225794269445 4.443050074099681 -0.0028760868443864908 0.0019502326679873845 -0.009857398483778056 0.001846431437371769
0.168 -0.0034521084839209174 -0.03456659013362808 -1.222739941638699 4.520156054805166 -0.0027530301914451003 0.0020511113009654457 -0.009985313918516776 0.002538845584952662
0.169 -0.005335715417416255 -0.0347296892346776 -0.941719935327475 4.593425178375096 -0.002785260934954496 0.0022379069849497242 -0.009909868903161314 0.003151330882295257
0.17 -0.007164699446706672 -0.03445740356015346 -0.6442679419383165 4.634633119001026 -0.002722539453718948 0.0023003424423290457 -0.009672599593660573 0.003700862270451061
0.171 -0.00907840244589356 -0.03426387840668999 -0.37094291930654555 4.680636796769494 -0.002614575650512799 0.0025111231116970298 -0.009401248191770645 0.004346475710938985
0.172 -0.01116691509112117 -0.03394252606619298 -0.06563574162618685 4.673123067973674 -0.002514838094787651 0.002521705620195889 -0.009401952840019259 0.0049662659228707825
0.173 -0.013056813167666152 -0.03352140308212414 0.24111182457408703 4.661493120987689 -0.002430172676430894 0.0027902106740261053 -0.009009322586786564 0.00545187517234519
0.174 -0.01480987851595154 -0.033196508719357865 0.5329015645674844 4.640645311554612 -0.0023016548472202603 0.0029065700890795925 -0.008750802552395425 0.005933791965322028
0.175 -0.017135247110537388 -0.03276364639623254 0.8138831059836247 4.624979156500321 -0.002314644536374506 0.002919700280065742 -0.00840262454162948 0.006403982042521529
0.176 -0.01867796052953529 -0.03154637171470126 1.086330040879729 4.535787257598012 -0.0022804815323076368 0.003101750609869412 -0.008077241071509906 0.006934886297015039
0.177 -0.020751408948338504 -0.031020039290194912 1.387418943899535 4.463920360009685 -0.0021125277728313114 0.0031574255251203887 -0.007724694834974766 0.007535335604738022
0.178 -0.022167384348482845 -0.02980847966360607 1.649119160533846 4.371656965766346 -0.001856688510688826 0.0034184831844006787 -0.007240358763151708 0.007779207363937943
0.179 -0.023893703360916344 -0.028840865256541618 1.8948270092137516 4.26288869896986 -0.0018147697365055763 0.0035235931778094497 -0.006914630064268581 0.008337035739728478
0.18 -0.025592601915333437 -0.027792169459260222 2.1854787477175144 4.127242815339772 -0.0018108022379761367 0.003618922835050819 -0.006347854194897397 0.008770979028256175
0.181 -0.027030906271503972 -0.026490843599420017 2.412859178075164 3.9894424286407792 -0.0015424655959434242 0.0036727446373141792 -0.005965058888188485 0.009088764266424054
0.182 -0.02875478166514768 -0.025113408609455736 2.6920700823126293 3.8113959217336566 -0.0014023628630109631 0.003774305201761702 -0.0054427519776972496 0.009378331755749598
0.183 -0.030142447541245947 -0.023822426636787287 2.9085758478692476 3.6491704871433717 -0.0012065259113019033 0.0039434835134588 -0.005018316730184524 0.009872284428549281
0.184 -0.03136534594176865 -0.022250307291712394 3.141674031040015 3.4419384882799466 -0.0010391426214802642 0.003937126724634843 -0.004381656457936894 0.010194748637522321
0.185 -0.03279524524429168 -0.020974694488292922 3.312572158795873 3.2541459445718894 -0.00101831700010589 0.004084246408320121 -0.003914927530908003 0.010412478143812348
0.186 -0.03395763161541159 -0.019248994926700812 3.55184576592668 3.0149746408559013 -0.0007167074904932223 0.004138862429080329 -0.0032338696142798864 0.010650183041805173
0.187 -0.03486658975168948 -0.017604028421512517 3.736053123416383 2.823313173818896 -0.0006014726910114308 0.004178370601729713 -0.002603266289441832 0.010876044810002192
0.188 -0.035926120061602416 -0.01587223169288407 3.8785385340795715 2.5622080382096493 -0.00044235989529163306 0.004322123455771534 -0.002169847010708012 0.011014482231391681
0.189 -0.036923269194796965 -0.014052341656524038 4.030653323274706 2.3184964080166943 -0.000331006665144032 0.004284250076678222 -0.0015449389132977675 0.011271470897363915
0.19 -0.037601101946971326 -0.01224001597376943 4.180493172832699 2.045405506554289 -0.00014222604069981748 0.004390320773270348 -0.0007665280450820619 0.01133953537629333
0.191 -0.03852519168557785 -0.01029464808408383 4.3059121355797405 1.802512949091817 5.662989381033849e-05 0.0044180101828572875 -0.00020387350021997238 0.011456106146011731
0.192 -0.03902310623882976 -0.008729402103126224 4.370401374183733 1.5215338804274814 0.0003267042808188864 0.004360135503641213 0.00026513580781024583 0.011537843775768011
0.193 -0.0396697072880418 -0.006655115237136661 4.481413247531443 1.2376252531832397 0.00047084433508149146 0.004465142302717786 0.001032873281031906 0.011481172067048104
0.194 -0.04009991844620835 -0.004973610327584981 4.558095667504606 0.946221255187603 0.0007502676987236945 0.004506066551572457 0.001575972572537198 0.011480430901923166
0.195 -0.04051956416814039 -0.0028389560109879845 4.600940219796668 0.6696269248097413 0.0008883532170752294 0.004533864097438402 0.0023613367911167627 0.011663312300560204
0.196 -0.04062289884477785 -0.0011746139696180978 4.595076478893994 0.4066737335826157 0.0010980632493147195 0.004547802214991972 0.0028417182209132673 0.011494275582523616
0.197 -0.040882177583419006 0.0009645574204504983 4.625597266188697 0.08959286513090699 0.0011272117302937633 0.004524941802460023 0.003524611042271687 0.011248122456333148
0.198 -0.041141459638083716 0.0027754382356392155 4.627236606626772 -0.19509612847395838 0.0014816650182274717 0.004476864615417271 0.004267384698092369 0.011238123765190884
0.199 -0.041078924377908485 0.004788189954199377 4.60217180480783 -0.4782362386719594 0.0015426306272619476 0.004454458582188425 0.004836157832603009 0.011001176139286292
0.2 -0.041013274584259296 0.006558938222797073 4.548498571410353 -0.7704055019790134 0.0019427904963362824 0.004473949906750471 0.005290182932311714 0.010807184359043582
0.201 -0.04085810205506215 0.008574083877320272 4.498115582345032 -1.0450553156244031 0.0020492535198503633 0.004438805280144456 0.00595261038190602 0.010435541002402557
0.202 -0.04074526059527945 0.010460420414792634 4.428933161242981 -1.3332045655592952 0.002286848111924762 0.004329019799965586 0.006667751598278013 0.010279707346392164
0.203 -0.04020573565679343 0.012124472048382913 4.328602974368164 -1.5954811756622667 0.002350578799761297 0.004352551672637284 0.007396874823792333 0.009974952400537506
0.204 -0.03995287579083377 0.014197121302618396 4.213421991155055 -1.8642455467774308 0.0026968291543295764 0.004261650699807062 0.007811480379290014 0.009653101267360843
0.205 -0.03943916792082278 0.016109884179750684 4.088068149098529 -2.116614021957066 0.0028160558586647995 0.004164554713453424 0.008433260916696831 0.009100619455974946
0.206 -0.03900964646190869 0.017777720111735597 3.9457220121872405 -2.3676265000939916 0.003111610149162638 0.004131296835337733 0.009033694689496026 0.008827284232492369
0.207 -0.03850846236176899 0.019502138704370738 3.7879922953139546 -2.609122606017204 0.003201215199619844 0.0040698456050777335 0.009577182899692413 0.008337936107021198
0.208 -0.03769387070040117 0.021414458516743323 3.630028622387374 -2.83429613976292 0.00357450742660482 0.0038695257963310523 0.010109255808466444 0.007988510400371717
0.209 -0.03702017610706988 0.02312575521649524 3.433962379003312 -3.046889154736764 0.003714677371443054 0.003789115505638038 0.010575537113411814 0.007432504256487232
0.21 -0.03640627313431048 0.024643108660227904 3.2289127323273115 -3.260991467167582 0.0037723588999298797 0.0036275480877220206 0.011139296427574616 0.006975397435565683
0.211 -0.03512292004494653 0.026655218601607224 3.019101608158512 -3.4561493401674483 0.004066495249396472 0.0034487340920063823 0.01152896796009052 0.006227697787756973
0.212 -0.034623284392823146 0.02824906924252594 2.810079593318113 -3.6287569846425733 0.004231050003067756 0.003405272422510314 0.011956393464264513 0.005719926781856611
0.213 -0.03342773917946942 0.03004074805911876 2.5657533859883825 -3.8080845714806437 0.0044009402207585485 0.0033048355191020906 0.01250978310292485 0.005131084319034049
0.214 -0.03259781866174729 0.03155674836730584 2.325587346781179 -3.9542260628262356 0.004520188413131317 0.003120498303993507 0.012954468404364611 0.004552162833545177
0.215 -0.031184663455023787 0.03325006224950205 2.0784071090383516 -4.0873669307799885 0.004706015836677037 0.002966135823618862 0.013123059074589948 0.0035348988545760244
0.216 -0.030179981831203632 0.03487145778344426 1.8390305889909007 -4.1895838315957565 0.004869443765026632 0.002717433299400638 0.013436170584195188 0.003022846604856005
0.217 -0.028664563878948994 0.036309881795060416 1.5334055541615204 -4.319905109688261 0.004994511503342496 0.002480612875625404 0.013821015293251313 0.002185773938176172
0.218 -0.027440433746375385 0.03790964895912158 1.2721105182077452 -4.400123508089899 0.005087479850310533 0.002414692996256894 0.014037976765640484 0.0014056953614528913
0.219 -0.025971043838683087 0.0394070288934582 0.9981388465984535 -4.477747101892804 0.005263227468631374 0.0020605047888993073 0.014101860227741637 0.0007541114948212582
0.22 -0.02443844329381066 0.040962844971522694 0.7119968500857407 -4.529340711833109 0.0054795991658264575 0.0019170202877685795 0.014332547794448468 -8.004307806335136e-05
0.221 -0.023205214727603153 0.04218832416713099 0.43278533845110245 -4.553208456856973 0.005547380690688748 0.0018301953524531877 0.014482423399938715 -0.0009849319099817044
0.222 -0.021312795477558766 0.04364482939130954 0.1572681815359049 -4.584217199897561 0.0056391023847371605 0.0014966829232558696 0.014469907163513764 -0.001873896041874895
0.223 -0.019614855485822 0.045060663476109465 -0.14576267835291518 -4.596322115104755 0.005777985723249896 0.0012973349127489884 0.014405692499434915 -0.002766562538184126
0.224 -0.01782177829065598 0.045912004420361016 -0.4283521812435861 -4.562700656528006 0.005930385036849852 0.0011560022486465334 0.014615644101860111 -0.003617244174047466
0.225 -0.01606862373531852 0.04716753873705637 -0.7073268649837497 -4.529825251995933 0.006014888267184174 0.0008636403576510623 0.014313181768632936 -0.004454527297582133
0.226 -0.014111326793604651 0.048413768959254394 -0.9797308069461229 -4.466815272948195 0.006133328785892591 0.0005017992997689844 0.014172928778550854 -0.005394518545428928
0.227 -0.011971332942068647 0.049418691039118806 -1.2643393768484705 -4.401346726728061 0.006138978875345599 0.00031677291439148646 0.013983575372059569 -0.006278510156749452
0.228 -0.009824652648045964 0.05010560350908787 -1.538600534365458 -4.303800227800033 0.006139220639028244 2.663388300932221e-05 0.013614502703372196 -0.0071667884925024836
0.229 -0.007789410948272241 0.05135352019594522 -1.7990592518891315 -4.211151015686984 0.0062000040121918286 -0.0001983059657016633 0.013208292643402567 -0.007981144801701966
0.23 -0.005527807790827504 0.05184542498744516 -2.051633347206631 -4.08421211665004 0.006312621610640288 -0.0005207738917818743 0.012824930546107493 -0.008786037459420531
0.231 -0.0033339374650302703 0.0524549637040743 -2.300970999709762 -3.927061135729835 0.006411385886588208 -0.0007628823150099273 0.012531763156967704 -0.009639056876244466
0.232 -0.001175051314548844 0.05318678949445619 -2.5813121446686056 -3.807882910471574 0.006300025207398432 -0.0009092395768251146 0.011976502606501904 -0.010463452375287619
0.233 0.001514435324550019 0.05416469977520521 -2.7649753322732717 -3.643339376546248 0.0063809092946568256 -0.001335061908083897 0.011405205905046041 -0.01112031452772469
0.234 0.0039052855202086002 0.05430502567546734 -2.9896083472872776 -3.457199724486787 0.006309516026956941 -0.0014733840265518988 0.010802718857955512 -0.011996812321568696
0.235 0.006374413106752381 0.05471991877201171 -3.214498026867799 -3.240904744368057 0.006281432383882001 -0.0016852851530139363 0.010174262043381111 -0.012739911039514723
0.236 0.008832542868039875 0.054303851946371676 -3.3987003740184134 -3.040957672628701 0.006170176265296455 -0.0021305632261529378 0.009440586771454075 -0.013276335220758032
0.237 0.011604146464676716 0.054998717197678966 -3.5893399588184467 -2.828020641796321 0.006122372072268033 -0.0022854936513869964 0.008479416199632947 -0.013948974504328405
0.238 0.0143576593927482 0.05448894339670938 -3.745139447856279 -2.601122519805325 0.006222093780661678 -0.00266656684577999 0.007850968729357557 -0.014516277919116999
0.239 0.01651143609465932 0.05409880085173089 -3.8925431541193225 -2.3584236556232625 0.006142527696561593 -0.0027936234092159934 0.006895839687777795 -0.014966282989805572
0.24 0.019456320049893575 0.05410913160143343 -4.042661707142536 -2.123429387015838 0.00598314791656232 -0.0031894108926375855 0.006091166721528795 -0.015398638498973353
0.241 0.022138877653961306 0.05339648826736885 -4.171837980807893 -1.8472071112597874 0.005973022226755203 -0.003391748562644736 0.005117340326793933 -0.01587837519272781
0.242 0.024692319200418367 0.05265263862834674 -4.258474001021401 -1.5921781869662608 0.005730162007961759 -0.00371538151733385 0.004241383518267898 -0.016290206725406826
0.243 0.02699312446535336 0.051749895800352205 -4.365372002531447 -1.33332652033808 0.005723566177514814 -0.003961626579567618 0.0031880184637817477 -0.016606356822107652
