!Created with skrf (http://scikit-rf.org).
# GHz S RI R 50.0 
!freq ReS11 ImS11 ReS21 ImS21 ReS12 ImS12 ReS22 ImS22
0.13 -0.07697133702870661 0.17712101452554463 5.012683110135182e-07 -1.6663555486063896e-06 -4.6975372688652586e-05 4.443210928833045e-05 0.049358910275786996 0.025955016514646694
0.131 -0.0690272243972237 0.18174531088190715 -3.560377112147825e-05 -0.00010128749460773892 9.866876718860065e-06 -2.721288215956211e-05 0.05101720287642863 0.02322992907054229
0.132 -0.06147190034797578 0.18578037910433948 6.406784637704154e-05 -4.466578260891169e-05 -7.011708197095633e-06 -3.600657666847972e-05 0.05237910984683842 0.020583194212496405
0.133 -0.052546414447243055 0.19013045826228286 5.647099725765326e-05 -6.880054370889027e-05 5.2637599591542795e-05 1.903161528803868e-05 0.053781811655563186 0.017809822614453238
0.134 -0.04461046540086956 0.19523208466057432 -8.563821026737225e-06 -2.053615346200421e-05 -3.731657972739146e-05 -6.72019862761308e-05 0.05536530804051358 0.014979309754823854
0.135 -0.03546580463636365 0.19666442418772181 2.2036291287630708e-05 -7.350904638485547e-05 -5.690402719038044e-06 5.589966788251146e-05 0.05636444688274875 0.01202281135439913
0.136 -0.02579601548251744 0.19983422229739423 6.410511169983657e-05 4.787179774234982e-06 3.264454422592646e-05 -2.48006645199405e-05 0.05741542668661886 0.008765465180084834
0.137 -0.017024913033930344 0.20205042140534876 6.444123714806959e-05 2.8208113759892424e-05 -3.158531553839561e-05 3.2010225198586104e-05 0.05845115773047631 0.005568636721565419
0.138 -0.007146552477898899 0.2042512334762586 5.679614148290932e-05 4.007324342701237e-06 4.533037335604245e-05 -3.07446347283093e-05 0.058928613238315795 0.002700943781608128
0.139 0.001948184489186239 0.20557243389479385 -3.28386885570152e-05 -1.157338789097201e-05 -3.817556272301773e-05 8.827465487511262e-05 0.05945800987083418 -0.0008080907061923208
0.14 0.011224412997927072 0.20610786057270344 5.748398559689487e-05 5.0180304091432506e-05 1.2547402138692179e-05 -7.62897217676979e-05 0.059614931394636264 -0.004065822642583766
0.141 0.020710182886661706 0.20708925779135484 5.7658234424908355e-05 -9.373071335714766e-05 -5.925688987255738e-05 9.248506432216219e-05 0.059798076956389834 -0.0071863668445174824
0.142 0.032686304823605364 0.20682949988677704 -2.4115431864853837e-05 -4.147477572188204e-05 -3.3551593037813706e-05 -3.208361184751331e-05 0.05971813343475652 -0.010817193483195093
0.143 0.039849287315283706 0.20681291678876645 2.28881849299887e-05 -7.848596774832247e-05 -1.887646658775377e-05 4.748345952966943e-05 0.05942400736887095 -0.014113882585185865
0.144 0.050494592075663515 0.2049617558882245 -0.0001423825064711304 1.61634409509032e-05 3.489329352965002e-05 -9.548351282705656e-05 0.05887066002858875 -0.01728449920327283
0.145 0.06009838476130528 0.2034999689010072 4.954264845949061e-05 -9.235431160875492e-05 -3.9641131925740164e-05 4.553916396043415e-05 0.058226110699828665 -0.02092099609387359
0.146 0.06986017567321827 0.20212735205303967 2.8552143022069665e-05 -0.00012062976825240286 6.717334749115381e-05 -3.533283720578906e-05 0.057337841752813486 -0.02408513168804936
0.147 0.08011888765681724 0.1997898803323605 -6.805690082232368e-05 8.535368777705876e-06 -5.792572131093358e-05 1.5115513066327542e-05 0.05638067649276161 -0.027410719726354973
0.148 0.08793507519391894 0.19714357933611815 -3.630822710725865e-06 3.704559824532319e-05 5.851655536217359e-06 2.8771846254069444e-05 0.05516362171260883 -0.03103283007582263
0.149 0.09786823743106582 0.1939366946256933 -5.4919011641103284e-05 6.347365665074304e-05 1.2925737149964348e-06 2.1300211172022007e-05 0.053638019321526155 -0.033866081346015445
0.15 0.10859286090353722 0.1901033803775615 6.134015256138791e-05 -0.00018171923771419455 -2.4922572043321155e-05 -6.610829254996801e-05 0.05208159182363798 -0.036871558022116516
0.151 0.11645721979970365 0.18703665319616453 -7.186337434849656e-05 2.2045863634572568e-05 5.788207591848933e-05 -7.207426278904694e-05 0.050187730960878967 -0.03995185915536046
0.152 0.12607941880860646 0.1816105123011672 0.0001626017116412559 1.4779612020553391e-05 -3.575957616347048e-05 -3.148992920787158e-05 0.04813636084406194 -0.043004635097717396
0.153 0.1341606463070433 0.1763678079361424 -8.561940406103427e-05 0.00011813268312595619 -7.248520919498082e-06 -0.00012080997326543438 0.04578095629849971 -0.045790320870525654
0.154 0.1439752967638336 0.17068309037004376 9.744310690169245e-05 1.4136209092879727e-05 0.00010435012474598262 3.089250433038112e-05 0.043695536611471755 -0.04856209009741605
0.155 0.15166536713823991 0.16492582050078627 -4.39879098153977e-05 1.5240813031944516e-06 2.6989554900867228e-05 0.00010200492627426142 0.041502745902188935 -0.05094197116113394
0.156 0.16052741973048623 0.15877499310324417 -2.0234338031318058e-05 1.9444324274700566e-05 0.00020043143501813734 -7.031286047801612e-06 0.03860539358035311 -0.05353385233611915
0.157 0.16804459687529663 0.15277693089064612 -7.83383150079479e-05 4.377339391101471e-05 -4.667270880679886e-06 2.770482451094169e-05 0.035711683359245766 -0.05573275100517235
0.158 0.17526728696613125 0.14547539347867736 -2.3094420763140904e-06 -1.697812218577293e-05 -2.2158238487836518e-05 2.5879586589726192e-05 0.03279070588249278 -0.05818392487622092
0.159 0.18276479348335736 0.13851600469135897 8.570972206156907e-05 7.73587444801251e-05 -4.456775116667489e-05 -4.686212667465347e-05 0.02972509396303501 -0.059859293255116505
0.16 0.18939431587638295 0.12984416817240635 -5.072620645785022e-05 -9.849101592095316e-05 -7.100964773539762e-05 7.753587242351217e-05 0.026832219036110813 -0.06175592870718213
0.161 0.19634947024749255 0.12280447529944982 2.2530382261746548e-05 -2.795300202784109e-05 7.55183880367835e-05 -0.00014046615485708615 0.02336911568983027 -0.06365195317682604
0.162 0.2029901320468158 0.1147458318348251 3.868356872749977e-05 -0.0001319468050491712 -5.603828925371965e-06 4.175118942939309e-05 0.019959007688286092 -0.06498179450787257
0.163 0.2077385737514043 0.1052333487094259 -5.830472170304875e-05 4.7650214309417854e-05 6.774209448320261e-05 2.798532397508104e-05 0.016638183505360043 -0.06650028881072544
0.164 0.21400093603705075 0.09604521511880368 -5.605186790895485e-05 1.7858120873285313e-05 6.7372009211505354e-06 -0.0001334263756219442 0.013018376876464855 -0.06761340270014753
0.165 0.21963019486680696 0.0861127272327858 5.1933311625479916e-05 4.5994074748748844e-05 -4.835416544544759e-05 -6.784872971199e-05 0.009100980951475502 -0.06844359059609705
0.166 0.2247699180496928 0.07749734975023907 2.9529339211358964e-05 -2.5683604416960744e-05 -0.00014816421296017125 -0.00010005564379004085 0.005534245972032839 -0.06935198442636477
0.167 0.2291365389092322 0.06653728591165119 -3.222808785065762e-05 0.00013225195085635002 -6.0423049390055374e-05 -1.3265868447258106e-05 0.0017460257434414833 -0.06976804174005534
0.168 0.2334547863938962 0.05721670315168108 -2.7315640286134783e-05 1.9360688891128025e-05 3.671885015394218e-05 -0.00016536124812601625 -0.0019851853981891652 -0.07031499954441597
0.169 0.23740666010465422 0.04702754864159328 -9.36788008660357e-05 2.09692005539541e-05 -5.8822492933718205e-06 -4.2937112871055275e-05 -0.0063154002973659406 -0.07030790264335662
0.17 0.24065563583813246 0.036144464846887187 4.358501654484305e-05 -0.00017059231521022767 8.053185791239198e-05 -1.3152082806640709e-05 -0.009716564156093191 -0.07010776367792773
0.171 0.2431590652550875 0.025344412063146866 4.502437890679079e-05 -7.721667422306254e-05 -6.715999546585864e-05 2.194316177130989e-05 -0.013776127612646986 -0.06992977479890317
0.172 0.2451720678033789 0.014584356308133614 9.827937207419853e-05 -8.708172612597287e-05 -5.796449257887476e-05 -4.028168337501032e-05 -0.017250562636658792 -0.06955172895783986
0.173 0.24712621123656106 0.0031750271332367705 1.1459162241122883e-05 3.438019706301481e-05 7.408448512749535e-05 1.4859751096566251e-05 -0.02141542082795689 -0.06855611084454437
0.174 0.24785641466180544 -0.00801089720350841 3.73181727490663e-05 -3.274050479086816e-06 -0.00013278100442615806 -2.7618488639627806e-05 -0.02521920435839445 -0.06783221326588879
0.175 0.24855915666411618 -0.01937767701687956 -9.259069872736768e-05 6.481389194821162e-05 4.6246367065357565e-05 -0.0001646645846382528 -0.028784681582515147 -0.06667205875039917
0.176 0.24932201401898535 -0.03132164298314333 6.605018199212262e-05 -8.071214715090704e-05 -4.676818594355754e-05 9.535019584877271e-06 -0.03215005877043672 -0.06508197574782335
0.177 0.24918230162285346 -0.042659956234844316 -0.00011620750026538041 7.972730100879103e-05 1.8836746324707798e-05 -0.00012487461517264852 -0.036533306552784674 -0.06405173401472268
0.178 0.2482463068226015 -0.05410561664502112 -6.488516020145471e-07 2.7032233597397994e-05 -9.263312946192822e-05 1.1977002388053187e-05 -0.04005665085240389 -0.0621818208958187
0.179 0.24674224498806643 -0.06516871836609936 1.3230645984952025e-05 -0.00011769309248777929 5.198967297192788e-05 -9.055754449805854e-06 -0.04297564581857439 -0.060327898443528837
0.18 0.2447758051901241 -0.07752625201734308 -1.9540351865899884e-05 -3.136618859676348e-05 7.114645315108927e-05 2.8574494146518894e-05 -0.046728638064073916 -0.05788236078037159
0.181 0.24289072983529109 -0.08824094044021485 -1.796714811050926e-05 -6.311335622979031e-05 4.631255056882614e-05 8.904708995675712e-05 -0.049608936209656423 -0.05594960348954418
0.182 0.23935796678980945 -0.10009780502760932 3.8901302318867456e-05 1.5400274442884222e-05 3.3930574627735696e-05 -6.011066062017193e-05 -0.053352277914483735 -0.053265051796125916
0.183 0.23614293525176738 -0.11209635783627403 -3.40075555566084e-06 1.168525426072409e-05 5.613011110307579e-05 -6.4588091167989e-05 -0.05600007062711106 -0.0505195581393975
0.184 0.2329862324141904 -0.12406950929687646 6.412289005136515e-05 2.814563447717036e-05 -5.595937673623754e-05 1.5905805845437608e-05 -0.05905792052023751 -0.047810829159803885
0.185 0.22738092268797502 -0.13448630379568785 2.4085896715065727e-06 -8.343900635924407e-06 -3.162487676424408e-05 -0.0001720725311860666 -0.0613447667256783 -0.044365425751745804
0.186 0.22229171456543853 -0.1461854687959337 -2.9288492101387744e-05 -4.836997897366004e-05 5.6627388152443216e-05 8.335767359204599e-05 -0.06448171810091001 -0.04133943628940888
0.187 0.2160434027587774 -0.15748290683374405 -2.671956901441542e-05 -3.17463192051461e-05 7.059009975045211e-05 -3.499835073088879e-05 -0.06653715886384537 -0.03846364901505201
0.188 0.21037092351542389 -0.1673717169967434 -1.8081007042126866e-05 6.162629284559013e-05 7.074883818724939e-05 -4.8542702438122124e-05 -0.06887182628522215 -0.03462009573342371
0.189 0.20325305648954287 -0.17919413633770187 7.510931383003671e-05 -8.641279403133816e-06 -7.392645549045493e-05 -5.342576037852183e-07 -0.07089785552489898 -0.030976813967867813
0.19 0.19560328993613127 -0.188879015912284 9.339161929288652e-05 0.00015063214123588867 -0.00014366198068965365 -9.844799601841609e-05 -0.0727475949332782 -0.027731879035467737
0.191 0.18727560683813332 -0.19844181259730334 -6.43031735641649e-05 2.097094431544621e-05 0.00014451950838137876 -0.00011310154256413494 -0.07474048650178036 -0.023722539585146536
0.192 0.17872991038812572 -0.20889065876309187 3.660642675069083e-05 -7.82379785907383e-05 -6.125620055041635e-05 -2.0468178955906986e-05 -0.0755821970919746 -0.019799981284159714
0.193 0.17035488025777865 -0.21796771679858812 -1.9289815177092306e-05 -5.6686261452289166e-05 -1.2017987624410365e-05 4.808976245853484e-05 -0.0774356299579884 -0.01573246679494823
0.194 0.16097206739402523 -0.22691572366085422 3.8391265917126344e-05 -5.564400317381982e-05 -1.4127645754108815e-05 -7.179156147363308e-05 -0.07809251361638622 -0.011649233146615147
0.195 0.14932078810063285 -0.23380586610182608 -5.079062425248505e-05 7.204408712684433e-05 -5.550020803097093e-06 4.1826020176027355e-05 -0.07946726108135002 -0.0074003710381609815
0.196 0.13915602611820305 -0.2425313179907493 -6.851587923519325e-05 6.169197476199037e-05 -5.935784135636418e-05 6.445937740795218e-05 -0.07941385564879286 -0.003315409917561343
0.197 0.12929027215290897 -0.2506126840894876 2.0629896687001603e-05 2.9383597633927538e-05 4.626784984971201e-05 -7.291086026095173e-05 -0.08017942350409994 0.0009402615688665145
0.198 0.11776740708709837 -0.2570688742672634 -4.705564686998163e-05 -3.7231118821419504e-05 -2.8406236998581783e-05 0.00013083119505664614 -0.08067123755289621 0.005353758358035719
0.199 0.10479652028584333 -0.2632479862533776 3.513426325489194e-06 -5.9028927696848565e-05 8.23163424330502e-05 2.3055898481932313e-05 -0.08037373431066841 0.009624004264079918
0.2 0.09238516337592016 -0.2692597890890051 -1.948789814158779e-06 -1.8651579129740066e-05 2.136455046267479e-05 1.6077659215982585e-05 -0.08009792199539294 0.014010839471197219
0.201 0.08036124805063645 -0.27431410959707175 2.1035878679089325e-05 2.491669040002971e-06 -1.0988736499542668e-05 -5.037909387274573e-05 -0.0797345536369156 0.018259362135141996
0.202 0.0688675960910871 -0.27929335285715456 -4.194522367985493e-06 -3.5626610316332866e-05 1.6661029190956145e-06 -9.117615976314088e-05 -0.0790890568423736 0.022771817741037186
0.203 0.05519811723511392 -0.2835568240025978 -1.2783158331201405e-05 -5.619080143918249e-05 -0.00011070741702757021 -0.00012373119923532604 -0.07807424578637243 0.026883118711012313
0.204 0.040522281973296895 -0.28719436352330374 -1.9269401109136707e-05 8.863290123510986e-05 -6.802478112952197e-05 2.819852308650016e-05 -0.07672210317968779 0.03131459189124328
0.205 0.02758600871737159 -0.2889694622958542 -3.8120783093864745e-05 -9.146678871376054e-05 6.657409181206575e-05 -7.093974599838727e-05 -0.07531356354454852 0.035407265930934614
0.206 0.015135293661833207 -0.2918441268241537 1.1075208066533165e-05 3.592730352012002e-05 -6.158566055883563e-05 -5.516374546442178e-05 -0.07366782930505617 0.03960904626868579
0.207 0.0005387842319780104 -0.2926935959059386 8.139995625253961e-06 -3.0760382941242018e-06 6.869025766783109e-05 3.507763080658339e-05 -0.07191701596718114 0.04357325917359287
0.208 -0.012827039082408955 -0.2937874958240595 -6.670582543388573e-05 5.692498235035897e-05 -4.233894169498641e-05 3.816398876250404e-05 -0.06961739736610754 0.047553781236208174
0.209 -0.027603591545875793 -0.2931674514574066 7.929746402195375e-05 -4.752907083423132e-05 -4.445728465707789e-05 -0.00013878674659574276 -0.06751368913404382 0.05133860218103682
0.21 -0.03990686986495904 -0.2933798251828796 2.7536334510061305e-05 0.00013108556486623378 2.9612127119505403e-05 2.7940270559797285e-06 -0.06470922958605 0.055266903160666424
0.211 -0.0535584755622422 -0.2914143357827056 4.5875777215605456e-05 -3.394628942622681e-05 6.111773510135086e-05 -5.049364648189115e-05 -0.062104148790465975 0.059095785118027815
0.212 -0.06803368092825146 -0.28919382462846793 -0.00010452003631916707 -3.8867408542347554e-05 -4.16389084332922e-05 -0.00010896126942415974 -0.058952423677400285 0.062292783027208004
0.213 -0.08161785752770946 -0.2875930190563888 -4.007852513620146e-05 1.3617016320540168e-05 -2.994599358458927e-06 4.896126671962415e-05 -0.05588144189892832 0.06566410011573717
0.214 -0.09644397600668234 -0.2844970781578468 -8.481865551782476e-06 0.00010082647708809987 3.994455877539818e-05 7.45902843501604e-05 -0.05258466193370198 0.06923067761823429
0.215 -0.10929784137870342 -0.2806623381717497 2.6746205101446658e-05 -4.102615013017107e-05 -7.42274303929074e-05 -9.145907187435433e-05 -0.049116482896311264 0.07189462426717273
0.216 -0.12234683122755691 -0.27595924359475077 8.428638923541309e-05 -6.397051179537183e-05 -1.6102596179377027e-05 -0.00010724477669698492 -0.04496917273534866 0.07485283059213083
0.217 -0.13575138909778284 -0.26973748023636396 1.8575407608521484e-05 1.0941324827317829e-05 -2.659853488585404e-05 -9.401680155791e-05 -0.0411343198872797 0.0779640592299475
0.218 -0.14882552222464146 -0.2647301063390028 -1.5533675419086368e-05 -9.509427079655737e-05 -0.00010488797621357806 1.1487101626794952e-05 -0.03724215381830171 0.08030875798167131
0.219 -0.16013492286397407 -0.2588540240679239 1.7152968655400023e-05 -3.301646814153054e-05 8.536132983968857e-05 8.25864283405654e-06 -0.03286848656206394 0.08279524985654467
0.22 -0.17439251951293197 -0.2513491867649794 -8.83335700554674e-05 3.1172159425281786e-05 6.212578048314119e-05 -2.1826061640960386e-05 -0.02867219430349972 0.08459818068776782
0.221 -0.18469198747628202 -0.2437089017300861 2.577693611821287e-05 1.1076727590277065e-05 -7.923658354591623e-05 -0.0001561416221737567 -0.024068012434260884 0.08648870877102277
0.222 -0.19644391842394354 -0.2354135613925008 -0.00012258548642095363 -2.6563413889344492e-05 7.011094881784054e-05 2.115053293300614e-05 -0.019365586567146507 0.08809119338819126
0.223 -0.20855542837563118 -0.22685198514081806 -2.0989010923119595e-05 -2.7727292116613017e-05 3.374116200417132e-05 -3.895885067951283e-06 -0.01453138576824297 0.08980482967600954
0.224 -0.21908269030750802 -0.21908269030750807 -3.474309832122759e-05 0.00012014276040277325 1.2769288888679689e-05 1.5151644040989147e-05 -0.009974678807952768 0.0904512773721064
0.225 -0.2281946859580202 -0.20767531710204584 3.533540788830016e-05 3.0043795423212475e-06 -1.745141946072387e-05 -1.7284259158276826e-06 -0.005236521074324644 0.09133789936961882
0.226 -0.24016859474268729 -0.19814477039374193 0.00014231727714622303 9.609983632040476e-06 3.56158474817685e-05 3.166641664325421e-05 0.000620867081459082 0.09198551457934233
0.227 -0.24961371327010246 -0.18740463287236075 1.4654415432687534e-05 -7.36202567811642e-05 -0.00012485460862889607 -5.489670652391592e-05 0.004704096118568181 0.09228741518040516
0.228 -0.258000751730564 -0.17711189533397523 3.7350795575901897e-05 -2.8999583254575328e-05 7.24250366351635e-05 -2.1183654863474324e-05 0.0101398341960714 0.09206413821265391
0.229 -0.26695540903266207 -0.16539844543758658 -3.249806352776951e-05 -8.906091936991427e-05 -5.9403533470425055e-05 -5.221622327211191e-06 0.01527128752531054 0.09226198472296308
0.23 -0.27346263300656937 -0.15461928193941624 -1.198417157554998e-05 4.177227531029631e-05 -5.061462767576065e-05 -4.908464050867299e-06 0.020485862702349946 0.09169546429644013
0.231 -0.2834248650141967 -0.1419866092694898 0.0001525556921367927 2.334350297588321e-05 -0.00010047086095528065 -0.00010794819524444162 0.025203606967163977 0.09083317361534768
0.232 -0.28833539229345395 -0.1296964955402785 1.0583258906949245e-05 -1.139579646191429e-05 -4.231683861672228e-05 -5.336365184505954e-05 0.030744364163330585 0.08952598347048317
0.233 -0.2968637991133392 -0.11721840714613999 6.190747004586239e-06 -0.00012480023475199822 -4.3150704014303016e-05 -6.057363978964399e-05 0.03499920111864495 0.08810993595613152
0.234 -0.3003977078493444 -0.10398533670402321 -9.498622147504779e-05 -2.236628621895853e-05 -1.9456983854432e-05 -9.33196576619129e-05 0.03974449583467737 0.08616611846935399
0.235 -0.3080324319953781 -0.09042159819469733 -1.101807138376214e-05 -8.503415957168364e-05 -2.5140329791126925e-06 -2.8378949990684505e-05 0.04496292414364593 0.08466040681349403
0.236 -0.31137137584417873 -0.07650715676375303 9.031198452470476e-06 4.4297000625798444e-05 8.819471185654118e-05 -0.00010475053042415825 0.04877916818316574 0.08266232447052708
0.237 -0.3162080717413308 -0.06289769613462481 3.729929787107881e-05 -2.907185007345179e-05 -2.14818581399361e-05 -1.5859504403400987e-05 0.053869632636838576 0.07942040620648123
0.238 -0.3195498698396216 -0.04851457780057446 6.301248169046593e-05 7.773211271524477e-06 -2.7365619568244426e-05 -4.4924319037574e-05 0.059146228084736206 0.07663095992442132
0.239 -0.32253284487561895 -0.03505607874914967 -1.0699875676208557e-05 6.204149930734724e-05 7.812722519911496e-05 2.877122902620863e-05 0.06303563215620131 0.07413212841749911
