!Created with skrf (http://scikit-rf.org).
# GHz S RI R 50.0 
!freq ReS11 ImS11 ReS21 ImS21 ReS12 ImS12 ReS22 ImS22
0.13 -0.0020729635813891193 0.001936242935936131 0.3962393616908605 -4.784401214216715 -5.300014044610001e-05 -0.0022080737302421823 0.00016553889699279502 0.0002891066211333449
0.131 -0.002226671137290511 0.0022455752981842864 0.10856481667094746 -4.810054277564776 -0.00015841455827826038 -0.002283329654241273 0.00029998627958490056 0.00029970008616109846
0.132 -0.0022633525961695557 0.002390945466301304 -0.156989174351045 -4.805541863074365 -0.00028686333435611657 -0.00222822868719238 0.000345411204891313 0.0001573489697302474
0.133 -0.0022388127950448778 0.002553579024213672 -0.4385690712955225 -4.794435948318139 -0.0003139425614208485 -0.0022881239138305065 0.0003445357404177265 0.0001545102853955309
0.134 -0.0020714223808264644 0.002722517448849813 -0.7431462174866863 -4.7485977787603355 -0.0005105402461294509 -0.00237718719734999 0.000428933306728148 7.789224178545073e-05
0.135 -0.0020173798818517194 0.002979482608563912 -1.0081936759921248 -4.719441069565262 -0.000643867291850862 -0.0022901513496887955 0.00040278106126952933 0.0002032939389665033
0.136 -0.0019657254314585574 0.003152509927610432 -1.270411268211833 -4.632423607387495 -0.0006486307834778331 -0.0022310120573244413 0.0005307294154859783 0.00018776809690197358
0.137 -0.001815371766012353 0.0032887522550128566 -1.563666729901742 -4.559386509920649 -0.0006223765622466995 -0.002245406258063158 0.0006216290362214909 0.0001260636602360358
0.138 -0.0018063239721984076 0.0034275840938131374 -1.8112719344484813 -4.476025044539312 -0.0007318385577905049 -0.0023377569905316865 0.0005515904186566205 -3.229550023160702e-05
0.139 -0.0014963210418011096 0.0037557650905965527 -2.0578362999260817 -4.3379141156108805 -0.0009855785935360079 -0.0023872191631246786 0.0006594513261625484 1.5967205502934488e-05
0.14 -0.0013414519480614221 0.003881240314029061 -2.323700629268781 -4.223248510707382 -0.0010024790381994565 -0.0023232817250490537 0.0007219017771546637 -9.457706202152573e-05
0.141 -0.0012079875902086974 0.004000850769959212 -2.569384379712297 -4.049556238911296 -0.0010805573557904119 -0.002348119357276551 0.0007007134743504202 -0.0001283136577284829
0.142 -0.0009317432685089862 0.004159853022432751 -2.7912285727835005 -3.895154962198297 -0.001167596147733903 -0.002263236047411752 0.0007875890000497304 -4.219454093954604e-05
0.143 -0.0007004496135074271 0.004273371678722789 -3.0086935338291583 -3.7341293210278965 -0.0013288498253615532 -0.002091851131896653 0.0007854451431381934 -0.0002720237481167332
0.144 -0.0005441741236172187 0.0045341310653346 -3.235970069530896 -3.547917764959684 -0.001491814723088822 -0.002203918954519397 0.0007157387358208312 -0.0002390217114480523
0.145 -0.00011387052649204922 0.004405934618063251 -3.427718146882413 -3.361984148868431 -0.0013958201869307251 -0.0020856049165673515 0.0007361319398852243 -0.000346707013367015
0.146 -0.00011689426572752874 0.004658186246607829 -3.604421762005203 -3.1436451832561985 -0.0014990597085013924 -0.0021539801169782368 0.0007847007992667892 -0.0004983315436984704
0.147 0.0002960658656454302 0.004603650748932202 -3.7982448921259766 -2.9293349655762277 -0.0016480530449621174 -0.0021979327905043457 0.0007185645535179317 -0.0004988125841767844
0.148 0.00045441970067307177 0.004636483520983924 -3.9466835262891675 -2.687201164778431 -0.0019447096703200406 -0.002176472413986865 0.0007690279503958264 -0.0005668630115377738
0.149 0.000961689591986166 0.004681097642545242 -4.0976442060064935 -2.4872760746289253 -0.0019239862452169844 -0.0021681094362602706 0.0006765674717844873 -0.0006379307997075617
0.15 0.0011976344380334582 0.004520134572686254 -4.2339713018069505 -2.2327625289330713 -0.0019963035037338294 -0.0020397817095769172 0.0006393187836284862 -0.0008983631240293996
0.151 0.0013759246868893717 0.004441892587700384 -4.353035884866925 -1.9658998181208247 -0.0021297783321245307 -0.0018554707283324442 0.0006550202389581913 -0.0009095535213388267
0.152 0.001697867592350014 0.0042557387321216205 -4.462834301803896 -1.7040512529068228 -0.002233242160296856 -0.00200586326738833 0.0003731246537356939 -0.0009493193016592886
0.153 0.0019349155608428786 0.004207714883198904 -4.537701564068238 -1.4545763863861478 -0.0023762130263281418 -0.0017057141995560755 0.0005473340775650543 -0.0008922119899555835
0.154 0.0023337340244509517 0.0040364241368686425 -4.621214707479718 -1.1682744039824697 -0.002410750982583723 -0.0018001931421521744 0.00044893237418566447 -0.0008848043436888729
0.155 0.0024666513264331694 0.0038434722378060007 -4.68099888833075 -0.9311085705794164 -0.0023839897160513276 -0.0017822356922095298 0.00033768606307551954 -0.001003776026487794
0.156 0.0027031521746279014 0.003813276654211525 -4.709274029401962 -0.6409040672945723 -0.002643641519842103 -0.0016135867214697275 0.00024770359334591087 -0.0010971245158041096
0.157 0.0029785336747894164 0.0035196023612335784 -4.740781855954779 -0.3497010785764457 -0.002762802120960816 -0.0015880801991043584 0.00042108265816061003 -0.0010780227788996582
0.158 0.0031901587912595074 0.003348442203036131 -4.758910741434491 -0.09020731672691908 -0.002798513976125451 -0.0015150253464590226 0.00016121863909102053 -0.0011949757011455978
0.159 0.0032940923377738434 0.003127257628411201 -4.745976040443673 0.18322933738397956 -0.002803856378009061 -0.001439730105377792 9.22758298009459e-05 -0.0011320118055166647
0.16 0.0034606485306839727 0.002798083363318473 -4.717408850846526 0.4646242179293831 -0.0030651597223458685 -0.0013591919580534565 5.1070225625170284e-05 -0.0012094329503116467
0.161 0.003627973921364063 0.0024756334663156147 -4.690834555335581 0.7442665792666099 -0.0030870701910224617 -0.0011917816149929735 -0.00010941133391140162 -0.0011577880118666711
0.162 0.003704169307125194 0.0021741908129250145 -4.6342417131713 1.0095014260623365 -0.003165936205265086 -0.0011089858766592478 -0.00014543941243626402 -0.0010752514069886747
0.163 0.0038060351135884643 0.00183325525037682 -4.572191420048811 1.2901643936670775 -0.003261750691756857 -0.0009502311101719312 -0.00018825502193695255 -0.001128275182387235
0.164 0.003769569636797368 0.001539847066090044 -4.487730451270541 1.5445650781136326 -0.003274172506953317 -0.0008988800835000132 -0.0002846685249700318 -0.0011467377174107958
0.165 0.0038927434028317755 0.0012060378848323167 -4.386553993476927 1.8043695259295225 -0.003339576221850136 -0.0008331335577094361 -0.00041869927503025803 -0.0011363653335181138
0.166 0.004057568949963318 0.0008358258365045481 -4.266796798670106 2.0616453985013705 -0.0033361634822534135 -0.0006310342538093605 -0.0004569824138133202 -0.0008794647478773407
0.167 0.0038113492001633515 0.0006093865799443937 -4.1451232843576165 2.3065538181107312 -0.00342436656113891 -0.0005356674570173753 -0.0005220556469658454 -0.000973980420042957
0.168 0.003702586353414949 0.0002565241273168663 -3.998556571157565 2.558105559442401 -0.0034229972903248545 -0.00026329138684186363 -0.0005557263051445398 -0.0009506842223541043
0.169 0.0038976604644676478 -7.099994674007205e-06 -3.8352479542871842 2.782477732747835 -0.003595802494509358 -0.00024897962706526856 -0.000641667912447645 -0.000810536548479815
0.17 0.0035798140012342156 -0.000410031686340035 -3.685962775267262 2.9898301462011396 -0.003534510259150196 -0.00017025776150304215 -0.0006154026650923454 -0.0008727930785133887
0.171 0.0033919593233215526 -0.0005864766009034356 -3.4888794879000913 3.205731674473802 -0.003679428236341851 8.229320608424789e-05 -0.0006835051230207635 -0.0007839049417044415
0.172 0.0032710146331267147 -0.0008521009806900661 -3.2951228385878872 3.406617712965779 -0.0036301400565381414 0.00016692696759568974 -0.0006936625886676197 -0.0008128476046754147
0.173 0.0030767505650079905 -0.0012149335708681415 -3.078106578259789 3.601015911528757 -0.003622694312924438 0.00017549583943023367 -0.0007697001734812808 -0.000636609950512043
0.174 0.0029803104273266666 -0.0014512058006539577 -2.8828975845525706 3.753884803108272 -0.003710896526742329 0.0003787795919537597 -0.0007882248942868141 -0.0006073916525115362
0.175 0.0027045774333742715 -0.0017175670633759854 -2.656447781772379 3.924479043762978 -0.003868027754762015 0.0005382384971260462 -0.0007052546374719528 -0.0006100359990444034
0.176 0.0024004940504260266 -0.0018863009936708637 -2.4270920848798725 4.075147768523858 -0.0038722880961230928 0.0007029504253948099 -0.0008005680148938036 -0.0004945012051897469
0.177 0.0021822141668762316 -0.002108202452676333 -2.1914614440291373 4.198569785818393 -0.00374947115591948 0.0008489561515410242 -0.0007974344506549481 -0.0004624309241156354
0.178 0.0017690974981189023 -0.0022292030402450164 -1.934250982636238 4.315071500817171 -0.00372200732823692 0.0010349372127872389 -0.000841445569890756 -0.00042326053710694985
0.179 0.0013870621368479092 -0.0022634796881677243 -1.6722467240313195 4.415636982963683 -0.003779279950071025 0.0011950025627866533 -0.0008206415438284415 -0.00044267857757416824
0.18 0.0011376361312509886 -0.0024305771208403544 -1.414100908344833 4.5279748430598845 -0.0038423087057594847 0.001235133129395575 -0.0007530593811992292 -0.00032670722302261456
0.181 0.0006723439245178106 -0.00267100934001615 -1.1322541412187364 4.593217283475556 -0.003719935107472602 0.0014676656379193041 -0.0007752250258587593 -0.00023886067730004903
0.182 0.00039880090894131923 -0.002457175948198292 -0.8754659358785095 4.644031580687981 -0.0037818338760811864 0.00166712518366334 -0.000832425564538745 -0.00027411529711536195
0.183 8.293850149181465e-05 -0.0025335091338273812 -0.6233980841697679 4.690689753577106 -0.003718821439746582 0.0018087714729124466 -0.0008052656507718585 -0.00021083505385871725
0.184 -0.0002326131056568202 -0.0025353040818219636 -0.3316541804574057 4.715157104746535 -0.0037639553310408387 0.001881126710818 -0.0007820114420077532 -0.00013053500864275853
0.185 -0.0005534491605711659 -0.0026037735848886824 -0.0739634385088751 4.716461104774688 -0.0037050019833851327 0.0020267224639580793 -0.0007776716245711675 -7.038877888673505e-05
0.186 -0.0008903164879315613 -0.0025702871707914245 0.2240506472187522 4.704628926945964 -0.003645873510032296 0.002183225810489409 -0.0007243392160656492 -5.8895307614370585e-05
0.187 -0.0011671364650468318 -0.002310850649510986 0.49239161330607806 4.703299740020149 -0.0034892898311283164 0.0025387538778807403 -0.0006682353229619502 1.2210964194170355e-05
0.188 -0.001655671042896799 -0.0021681000075078672 0.7570144581601358 4.666288288192413 -0.0034487511084075845 0.0025899839018729523 -0.0007766577577979542 3.0196780248524055e-05
0.189 -0.0018044339804369177 -0.0019941623997617687 1.0234735430740998 4.607670273032311 -0.0032971997298709777 0.0027338962265718927 -0.0006508100233994871 -3.437446634910979e-05
0.19 -0.002072509924914718 -0.0017554796280957507 1.3056622476185402 4.5207965336622085 -0.003394495021895889 0.0029216595643605982 -0.0007486415745574574 -1.6029033701731857e-05
0.191 -0.002521263319307017 -0.001573548753877701 1.5623754569768167 4.463199732527135 -0.003296304588789767 0.003014723676820898 -0.0007332198214581976 -9.764925466630175e-05
0.192 -0.0026795807130441988 -0.001353828787313925 1.800668016632129 4.318854017286151 -0.0031360069162776065 0.0031317337628221204 -0.0006364367321412206 4.3457651265916305e-05
0.193 -0.0028481445418233556 -0.0009616204108070427 2.071272976331291 4.240133719208959 -0.0031056269653607542 0.0034218400383438704 -0.0007292672479736368 9.125918848965103e-05
0.194 -0.003125205320470338 -0.000853860265805493 2.2840211729471442 4.098708650006004 -0.0030819509965613607 0.0033624387418280653 -0.000645506055089007 4.7438398447855455e-05
0.195 -0.0031959063813723106 -0.0004220791102717602 2.5341528634270927 3.9492436901044328 -0.0028568648447406006 0.0036581622300863223 -0.000627755535200746 8.559693575830047e-07
0.196 -0.003390735696475698 -0.00012859207775134328 2.745940137583163 3.793585321598279 -0.002793435844130626 0.0037413963080513077 -0.0005772903650442816 -9.927766894741876e-05
0.197 -0.0035978952142104235 0.00022251891176193556 2.9686747390580104 3.6471581268454236 -0.0026577206051672663 0.00413870801548391 -0.0007619650248358521 -2.4944152166362505e-05
0.198 -0.003541809140368194 0.00040451662631294606 3.1557138214632428 3.4492827982609358 -0.0025937329698383863 0.0041039948182003535 -0.000706828904332274 -6.961657072109262e-05
0.199 -0.003675603650174893 0.0007092651563535441 3.38509262706576 3.2819048574111798 -0.002470178266334412 0.0042204631699309485 -0.0006786974218701958 7.742154940610996e-05
0.2 -0.0038173746275214117 0.0010144987467805267 3.5532404515892266 3.0692738173460894 -0.002268795526382352 0.004282467108154523 -0.000740222005033218 7.046041423366641e-05
0.201 -0.0038400919101152326 0.0014704697087581937 3.7277433241435016 2.8632255869556644 -0.002189497555092232 0.004415550778556363 -0.0007876076209242964 -7.732568167493349e-06
0.202 -0.003627897781762698 0.0016312744097937827 3.872752686001482 2.6170093957326803 -0.0019998924933554824 0.0046313513300398 -0.0007617018114007735 9.194421550010917e-05
0.203 -0.0036335435720316043 0.002001817824989588 4.027071322048734 2.4109356127901926 -0.0018311600851341394 0.004595299718133347 -0.0008711003229745215 0.00010478808565047287
0.204 -0.0034542179047516498 0.0023346994546561443 4.160343437031887 2.1739457866825638 -0.001657539574387934 0.004745424957726706 -0.0008803813614451424 0.0001155380527014153
0.205 -0.003347764657575156 0.0026310325764356108 4.272549654001407 1.9186896229279797 -0.0014250608607328146 0.00489786183698074 -0.0007656820914581207 0.00021470541854946252
0.206 -0.0032474794659712288 0.0029048568741455007 4.3612838561526805 1.6668093643778599 -0.0012801005409321363 0.005041848680484701 -0.0009156182236764672 0.00024199690957244944
0.207 -0.0031828594426894868 0.0031312014998617255 4.462556091634121 1.4048646548621744 -0.0012397134896279423 0.0051544886462939355 -0.0009812729981983194 0.0003088058814563453
0.208 -0.0029338535611433563 0.0033225029568886644 4.521444995271563 1.1455529636434154 -0.0010468374400297708 0.005062286165357649 -0.0008742091759863069 0.00023258354832775385
0.209 -0.0028707339162199895 0.0034776453401841752 4.56746674244198 0.8807584825746917 -0.0008332646040310225 0.005251755899315445 -0.0009073722181438676 0.00042915509780442414
0.21 -0.002645795983483278 0.0036130573881907775 4.619362746450468 0.624438080061181 -0.0006736639690993595 0.005350787854335221 -0.000884088784297558 0.0004626817454615875
0.211 -0.002388463650120022 0.003929418794487443 4.656419278086795 0.3580644078379436 -0.00040991636693001005 0.0052542769811443945 -0.0010545620175319958 0.0005243497001034598
0.212 -0.0022215815466999976 0.003965016821704036 4.649730479440517 0.07835453815666457 -0.00021770728855467555 0.005483837505108641 -0.0010220511892478881 0.0006261220963262403
0.213 -0.0020052922047513284 0.004126442300470983 4.6567530211727615 -0.1904172956138409 2.7125315044519188e-05 0.005450181217922689 -0.0009002589506432156 0.0007572915442935067
0.214 -0.0018455709168517073 0.004209161147454143 4.634256226421553 -0.4545403277466425 0.00019521167090830275 0.005590130851911308 -0.0009117235625498175 0.0008481065760929808
0.215 -0.001603171581446773 0.004224543012022494 4.597897991303574 -0.7270707093062625 0.0004883732718033489 0.0056085551476698975 -0.0008879983580550241 0.0009266029279675029
0.216 -0.0014700530570269695 0.004307468298487418 4.546010268098615 -0.9855346722884911 0.0006051905565815895 0.005694507474095117 -0.0008364710240502448 0.0009638412886705707
0.217 -0.0012436514305807448 0.004234516899701316 4.479429635696958 -1.2691837221686117 0.0008218447428889112 0.005638384826126173 -0.000846494947025393 0.0011640986557264743
0.218 -0.001079948064968174 0.0042462380841082675 4.399502140486118 -1.5068224450631058 0.0010568351520563177 0.005761338971818195 -0.0008241859616746175 0.001197623084409795
0.219 -0.0009047364759061086 0.004317199934867252 4.310778956982137 -1.774231102685032 0.0011934458854650808 0.005637395985823317 -0.0007452128053493217 0.0012738430029465954
0.22 -0.0007239699465145125 0.004267273513630407 4.191240030060523 -2.015981550267628 0.0015247658768694984 0.005545076834977034 -0.0006396360959934529 0.0012785427600214177
0.221 -0.0005869677770332485 0.004301982086799554 4.072805147871846 -2.2597711815928787 0.0017085384372980427 0.005750648371074109 -0.0006865308447336039 0.0014754203968520869
0.222 -0.0004644206719552798 0.004214045019429755 3.9333504942635376 -2.487762195954469 0.0019602935633099383 0.005610960554519096 -0.0005778243528601122 0.001484374708736211
0.223 -0.0004681662118544691 0.004131579707678468 3.778915431230894 -2.727476849497109 0.002195250366802306 0.005625765694002955 -0.0003084956478680862 0.0016670305626701857
0.224 -0.0003378428034583888 0.004055758395240776 3.614497506315865 -2.934927314154599 0.002498441118194767 0.00544882218754919 -0.00020261188974736812 0.0017178793316213257
0.225 -0.00035998655692540024 0.0038599358501452794 3.4327019296098378 -3.1325997860579045 0.002608152251763986 0.005661579946677138 9.979002382316543e-06 0.0018295969624504856
0.226 -0.0003181515476797257 0.003797459278456864 3.2499918608327594 -3.3268945737913023 0.0027968896392829607 0.0054528530133737515 2.074252707109493e-05 0.0018550786061673832
0.227 -0.0002922328121951558 0.0037623570657417745 3.0552100683845627 -3.5114731245129875 0.0030649527357406578 0.005360434133672469 0.00011628501737977235 0.0019833359895361
0.228 -0.0003028114860553328 0.0037242055998952975 2.833562196909562 -3.6883425645426207 0.003389889951041215 0.005330279066795619 0.0003857209946586767 0.001959388788480408
0.229 -0.0003906778814526164 0.0035294499085980024 2.623603147956672 -3.842005842030424 0.003579406198872727 0.005189855766238914 0.0005608302181335929 0.0019859623724932606
0.23 -0.00041561284325261025 0.0034992313249050592 2.3945598482400996 -3.9833711384234918 0.0037533571111596615 0.005157174922863492 0.0006936358739419823 0.002010901259979208
0.231 -0.0004944610412130967 0.0034566926105716205 2.1658166149296223 -4.105326230093929 0.004056566048002371 0.00512055046280521 0.0008530819878358741 0.0020085929087025624
0.232 -0.0005575944281015509 0.00355185102454742 1.9094165350835917 -4.233351342747928 0.004265191222707653 0.005039989047502016 0.0010280270176846154 0.0018944681228258342
0.233 -0.0007856652599664165 0.003529101842135903 1.6706163610805314 -4.337073145258096 0.004464518488360782 0.004795469667127035 0.0012753714050971303 0.00196639355187052
0.234 -0.0010441946959670145 0.0035652723604398125 1.421296005080973 -4.424538577422283 0.004654579247370759 0.004679397416710807 0.0013854873909516891 0.0017908946586601652
0.235 -0.0011703109748533154 0.0036135790291474176 1.1493284920167819 -4.503606994123396 0.004804769455398759 0.004622218969714443 0.0015646932313828897 0.0018176693555493958
0.236 -0.0012751665814863086 0.003686199738238318 0.9046955767105946 -4.5530785223766115 0.005027407971790391 0.004450930966911201 0.0017866844860774441 0.0017015295542156033
0.237 -0.001503053203397784 0.0038256627657648748 0.6231894641608199 -4.5931703285600936 0.005173343181209217 0.004235039162659664 0.0018852141677972239 0.0015811160850544592
0.238 -0.0016600948852125493 0.003964939472122983 0.3713576786998106 -4.617904842526201 0.005331230587458456 0.004074651499827673 0.002113330737289795 0.0013743598595715222
0.239 -0.00193752468479894 0.004056409767208555 0.09304698875875225 -4.625773263356006 0.005611657877283051 0.004035460750637801 0.0023552488075929334 0.0011533566114143628
0.24 -0.001987976325515709 0.004341022144066839 -0.18983982939038269 -4.646025467600105 0.005789672877910119 0.00369425776558999 0.00256606231185208 0.0012170305758075033
0.241 -0.002284992214146032 0.004641480490223218 -0.44252178940671694 -4.615553621452343 0.005994940457890045 0.0034761830195811565 0.0025975403290640626 0.0008836227760061512
