!Created with skrf (http://scikit-rf.org).
# GHz S RI R 50.0 
!freq ReS11 ImS11 ReS21 ImS21 ReS12 ImS12 ReS22 ImS22
0.13 0.12354175945680264 0.14633757687073226 0.00014862859589957498 -0.00019104003880739522 -3.459078604073388e-05 3.7338307569369185e-05 0.043502772695884026 -0.03480994822791376
0.131 0.13312400229176374 0.14079198913681437 -0.0001282431612387867 -0.00035234518970304445 -0.0001536817976704147 5.548513241911986e-05 0.04140010800807849 -0.037785898989378376
0.132 0.14095280938647578 0.1331759925773836 -0.0001867333057710878 -0.0002800030510941915 0.0001115268171884341 -2.4593308103305537e-05 0.03898209528602918 -0.04076015189559465
0.133 0.14867376922164888 0.1259660744822118 -4.0756666268643786e-05 -0.00021144450828917781 -9.984362971613019e-05 -6.620259024930776e-05 0.0366087521668654 -0.04350197318677809
0.134 0.15820770764687475 0.11836626283550601 6.899761972327343e-05 -0.00032276834983057697 5.6529936270650575e-05 1.6575284223343703e-05 0.03362342350331583 -0.04612969877567715
0.135 0.16411683196861138 0.10903734966188103 -6.833207150144571e-05 -0.0001567437084405715 8.339214398464806e-06 3.8269653757120524e-05 0.031002589841010276 -0.04891784770735049
0.136 0.17189359514183936 0.09959470064668176 -4.184154275927281e-05 -0.0003390519980562823 -0.0001063656083940197 -4.668085923872231e-05 0.027895347853700833 -0.05090409870452846
0.137 0.17809193257185743 0.09050162378937128 -0.0001051006748624011 -0.00029621739585316696 1.60772229270315e-05 9.449000409495057e-05 0.024806966062604248 -0.05304755629718249
0.138 0.18385598809068315 0.08070788371076179 -0.0001047904509097697 -0.00024140650078938386 -7.029571525018153e-07 -2.6296743494016885e-05 0.021059422157778254 -0.054984886511225024
0.139 0.18909412404612866 0.07035796240882268 -6.394675364764103e-05 -0.0003196592801603243 7.6057125656595545e-06 2.441209714113674e-05 0.017550565116770712 -0.056562904159405826
0.14 0.19459816021950502 0.059578054518876496 -0.00021589484186356064 -0.0002743226176653295 2.4893332568429068e-05 0.0001683707928742804 0.01355858994769331 -0.05781088893059351
0.141 0.1984009703748542 0.04918505473307571 -0.00016279571110422995 -0.0004325378286596903 5.68358711086573e-07 1.5812027773658357e-05 0.009891547519143942 -0.05903537937134043
0.142 0.20215844572154384 0.037318185307281586 -0.00031710130815676787 -0.00029168537306445424 2.1262057831733672e-05 6.286678539418654e-06 0.006167226499821132 -0.05993477081159276
0.143 0.20504140909224652 0.02651705134270677 -0.0002548352966122612 -0.00016010978229463423 -5.8101117729468655e-05 -7.606186718539156e-05 0.002242452218854384 -0.06021330864507003
0.144 0.20692340844202303 0.014127085133662566 -0.0003942987830775484 -0.00014920202986460146 -3.3676770837356376e-05 5.373907378140709e-05 -0.0017577949550603492 -0.06050608827220775
0.145 0.20930436077585776 0.0031256370807090585 -0.0005118975038637418 -0.000156884469373654 -3.709422491892935e-05 -8.345276451889121e-05 -0.006052728053951925 -0.06081671830892184
0.146 0.2101545717390746 -0.009582456263654792 -0.00038268126849485136 -0.00014313814075024982 7.587910698750316e-05 -5.772022770918933e-05 -0.01029776554087942 -0.06062260842414903
0.147 0.2103658673934432 -0.022186474286312565 -0.0004082668483827585 -9.033538272035552e-05 1.2164092388502128e-05 -0.0001074139065000922 -0.013875629403467388 -0.0602143201477185
0.148 0.21003395130439106 -0.03419333935981355 -0.00039164527489184137 1.8758546368919423e-05 -6.690292711604977e-05 -0.00011032043553750419 -0.018080021964967725 -0.05928160962701146
0.149 0.20842890141095247 -0.04640142289360556 -0.00028773067536941256 -0.0002875737854117414 0.00011225755290973825 -1.517528383112703e-05 -0.02238351617616669 -0.05829917284183449
0.15 0.2067872363563203 -0.0581982950923722 -0.0005826853568836343 -0.0005108608036432613 -7.83080574288332e-05 -3.848460628544445e-05 -0.025771068729108896 -0.057282637078002935
0.151 0.20413076595715055 -0.07055649960155189 -0.0006661679554261522 -0.00020466164767084406 4.157846275536837e-05 -1.551647831368084e-05 -0.030129596164167813 -0.05572715472241386
0.152 0.20049422396663927 -0.08313952405943623 -0.000866031582797442 -8.863644090821999e-05 9.296967336776085e-05 5.3652827710570033e-05 -0.03367932357686201 -0.05366993212946274
0.153 0.1973062385821696 -0.09517752270383091 -0.0006194474123541916 2.0870509183667403e-05 -0.00013913311776957602 5.236599747965016e-05 -0.03710892206019666 -0.05162173194159753
0.154 0.19151291500386144 -0.1065588103634033 -0.0006813863699197076 7.537622652092739e-05 3.7598194320392705e-05 -0.0001434432825683858 -0.04083699915569345 -0.04918294481647417
0.155 0.18721901258284482 -0.11866245409015518 -0.000686666067401723 0.00018871633357532447 -5.689235629405662e-05 -2.486674591137006e-05 -0.044614900434153684 -0.04702713596922599
0.156 0.18110498215760332 -0.130049155414797 -0.0006796370397768416 0.0001239513990254611 -2.1594419552942036e-06 -7.557392105868058e-05 -0.04750006807624722 -0.04363315035985898
0.157 0.17213230738284516 -0.14099059687490023 -0.0006195241522171509 0.00035140256956409094 1.4616412209024359e-05 2.2428549571389928e-05 -0.050827027043082555 -0.041135969797626265
0.158 0.16522994704019664 -0.15196583355133572 -0.0004686601666642577 0.0003219130662266942 4.771031387127237e-05 -4.547052662204511e-05 -0.053278238789455735 -0.03754450956644031
0.159 0.1572520582126314 -0.1622958888186041 -0.00043666828328155303 0.0002657921540925999 1.496639319706126e-05 3.477637362707827e-05 -0.05587627061415052 -0.03384403783014435
0.16 0.14906868225471862 -0.17203981628847292 -0.00039430739522831166 0.00011452190688967367 2.1946981390401636e-05 -0.00015756364623325755 -0.0584963485896943 -0.030370216259125043
0.161 0.13760656544015115 -0.18220914527886373 -0.0008442162452660121 -0.0002832390111765842 -4.949006830876786e-05 -1.8181222654942526e-05 -0.06059526256645529 -0.026219949745528572
0.162 0.12836197961508117 -0.19066876571410865 -0.0012748446670522997 0.00016465433475940872 0.0001565431944629245 7.895446250640813e-05 -0.06271477097381868 -0.022439703865362395
0.163 0.11697466242854958 -0.1986919718456858 -0.0012682004439763099 0.0006672325311694343 -6.184336730815204e-05 4.7521107868258096e-05 -0.06399142955683665 -0.017943878823670434
0.164 0.10577995540148148 -0.20767485100902086 -0.001066426853837625 0.0011766207147661935 -3.218574211956428e-06 -0.00011237200136514594 -0.06599381403811971 -0.01411208592343811
0.165 0.09404525075322685 -0.21484571276280454 -0.0008262682351409824 0.0012353211620174174 0.00012302283512319594 -0.00010399542756064464 -0.06699276085725073 -0.009405903561122253
0.166 0.07943572187597203 -0.2208679631056757 -0.0005861345726963186 0.0013284053092869048 2.2222171517920982e-05 3.442945567059768e-05 -0.06782795544481036 -0.005003290574716446
0.167 0.0682447872930227 -0.22782155222145675 -0.000329334709294645 0.0014990696657939113 -2.848347791718318e-05 -1.68304070076489e-05 -0.06815849585070319 -0.0005855158121482684
0.168 0.05221573430612048 -0.2320830942846176 -2.243402649278847e-05 0.0013824669323941302 4.532360791989956e-05 0.00010228606530511353 -0.06866892788438794 0.0042751629931135696
0.169 0.04014385313618033 -0.23730535511342038 8.315592246795509e-05 0.0010483715957155435 -6.695389856581555e-06 1.421132261184244e-05 -0.06846267250278577 0.008956306255458492
0.17 0.024301961968416077 -0.24002961615283985 0.00018254520584474234 0.0007714687436612242 4.8420665237477884e-05 -3.1152219375125605e-05 -0.0681815364779908 0.013668493831451137
0.171 0.010269919544525656 -0.2436038054171528 -0.000146220652688029 0.0006112554703308131 -2.3634772120036925e-06 -6.676753741911219e-05 -0.06741104050709433 0.01854633980078638
0.172 -0.0057267027762563805 -0.24413450329353495 -0.0004456615088496778 0.0006147214600938467 -4.185767808163125e-05 1.1792764225706777e-05 -0.0664438776805063 0.023152429197393316
0.173 -0.019757724007695748 -0.24485539930673422 -0.0008457432079776244 0.0008480527653927396 -6.251515974604935e-05 2.9317510376080934e-05 -0.06489307314491359 0.027765039857256372
0.174 -0.036051177730511114 -0.24372415655114046 -0.0010612065789769108 0.00128128367667793 -2.3066274693603383e-05 -9.599145272589916e-05 -0.06327230002335367 0.032260584610604354
0.175 -0.05023892709152005 -0.2429449080179831 -0.001039741757188943 0.0020814886999789865 -2.9906791266295095e-05 -5.344514484037233e-05 -0.06125379579182689 0.036804993657264896
0.176 -0.06412533645160076 -0.24030172670224767 -0.000855683171717401 0.002676924359229976 0.00011970869985542889 1.2181314417483291e-05 -0.058857789617557804 0.04118875192589901
0.177 -0.08015668457768194 -0.23778386267100907 -0.00015327345217590077 0.0034352935441759862 -8.525697695336598e-05 -3.6175720699540755e-05 -0.056131138132280746 0.04531486972102467
0.178 -0.09655921263834684 -0.23190621750759144 0.0009900561270764446 0.003719271698785205 6.527124691450686e-05 6.113319397852215e-05 -0.05329904652200079 0.04909420922066023
0.179 -0.11101386757234476 -0.22816463031366513 0.0026889553209744925 0.003258567454361886 9.874166475563469e-05 1.5965372597123064e-05 -0.049681856300887076 0.05304477811065356
0.18 -0.12648444395898623 -0.22119685199917827 0.0033581547952652195 0.001196533324151973 2.3347125388226927e-05 9.245776183682645e-05 -0.04647741467976702 0.056838045324017164
0.181 -0.13953533202104565 -0.2139702292332647 0.0016959497023739138 -0.000208727934408895 -0.00014628275208059595 4.3982608893840886e-05 -0.042444831551827454 0.060171126137891454
0.182 -0.1541826511897966 -0.20609434490172285 0.00018444548693304785 0.0007910435518683114 -6.49933114871915e-05 -5.236694800913578e-05 -0.03893603061942372 0.06349895089153877
0.183 -0.16827176880386877 -0.19582833765004085 0.0002540420981340504 0.002016699831303187 -2.007678097145901e-05 3.040471663106284e-05 -0.03373398285274628 0.06628485289538352
0.184 -0.18086393841943943 -0.1863725027071312 0.0009452219477412691 0.0026030483017939286 -1.734689461688296e-07 -7.007918385451922e-06 -0.029204264568785086 0.06910200278101482
0.185 -0.19395940997956646 -0.17425910484868104 0.0018194986980402453 0.0030640043642781735 1.3754226447606222e-05 -1.4387476153305559e-05 -0.02421715616028236 0.071277574987785
0.186 -0.2059450334894461 -0.16249061729102812 0.0025590018752387938 0.002968025999060176 -5.023260291220699e-05 -3.3752919906636954e-05 -0.019319936264087897 0.07319980511936584
0.187 -0.2154273788113587 -0.1496649476966302 0.0031896645858272886 0.002719533213289226 3.209139656945721e-05 -7.661716205921867e-05 -0.014390498822805055 0.07515366132220999
0.188 -0.2258539573444225 -0.13570674861979398 0.0037904556479367085 0.002334184344836434 8.080760930308781e-06 3.130761388528277e-05 -0.008708846157378937 0.07602180782584497
0.189 -0.2366592594137521 -0.12172425706102005 0.004250489078040303 0.0018641236658793916 4.647677779437364e-05 -7.870546144200559e-05 -0.00321643075481948 0.07691718446546497
0.19 -0.24270487122537443 -0.10620071619533245 0.004315225717192451 0.0015489092020301853 0.00012297790787417284 0.00012288571562932223 0.0020745485618391263 0.0772121256000048
0.191 -0.2514471264909346 -0.09105361320502149 0.004565479977824931 0.00112219806701137 -8.267267851084054e-05 9.637073611478604e-05 0.007959522737377895 0.07766479140962135
0.192 -0.2576379652276088 -0.07387649772530504 0.004921079395367995 0.0009654861030726114 3.325280346355791e-05 -6.426264202748347e-05 0.01360165174154783 0.07692410974599447
0.193 -0.2627683846761273 -0.05776586404194336 0.005086671269325016 0.0006997950040542632 4.769116949680991e-05 -5.0676433737745035e-05 0.019331268742542602 0.07662044256296259
0.194 -0.2667122570082211 -0.0402322851606636 0.005594259427509936 0.00024217286242911968 4.8367910447359633e-05 -2.2612565753512194e-05 0.024825017534208384 0.0751292033792899
0.195 -0.26996487179732365 -0.023618865832495384 0.005930423448685087 1.8478597980209179e-06 -4.905330130068624e-05 2.36960727763345e-06 0.030655245956394638 0.07370964581470198
0.196 -0.27156398823356476 -0.006296022801981397 0.006190839809150383 -0.0004975827618902332 6.941063894834953e-05 -1.8561757803043577e-05 0.03579809712712245 0.0714518594271373
0.197 -0.27288802366453807 0.012250088938741679 0.006783959268221436 -0.0010719253886503843 -6.170858906818267e-05 3.427165666648136e-05 0.04158363923784064 0.06873358614680093
0.198 -0.2724522790337056 0.02995116894209292 0.0072636681061009935 -0.001868609267485614 -1.3990066270072758e-05 0.00017979784130853617 0.047126628713145415 0.06542067848816317
0.199 -0.2701752269600163 0.04813313952236223 0.007585648942793956 -0.0025944617016582664 5.265962675166359e-05 -0.00011571821833645577 0.05216804272715974 0.06227916292128567
0.2 -0.26772597422723865 0.06593789017015456 0.007838330745987656 -0.0035041065707908806 8.230251050004096e-05 -8.436497788470457e-05 0.05650134762269138 0.058540798337257755
0.201 -0.26442256472104697 0.08376867899665721 0.008156572060244961 -0.004274354316169324 -0.00010962444437080155 6.943985730803149e-05 0.06165528445400796 0.0540219160904782
0.202 -0.25868027492815515 0.10140824397032508 0.008396979453183944 -0.00545550427854951 4.127063571207089e-05 -2.595336903832286e-05 0.06570501933738981 0.04970217505878098
0.203 -0.2519497843435171 0.11832366954433267 0.00862779348398892 -0.006611931769129657 1.4411675449462454e-05 1.9100543485142307e-05 0.06969636807135952 0.0446557510403559
0.204 -0.24561539149638978 0.13601552181839133 0.008708916779294756 -0.007878174293502061 5.689267267083904e-05 4.463398631946865e-05 0.07308798691283262 0.03937439693613372
0.205 -0.23580393614498069 0.15208361102349183 0.008803304358773845 -0.009264722142873072 -3.388455992665291e-05 -0.00014810550971496343 0.07670901119558608 0.033406898230443974
0.206 -0.22738651039269844 0.16830515311066888 0.008626032111271071 -0.01092367599099069 -2.2300883415397997e-05 -3.601038718959955e-05 0.07888483851025666 0.027745586764554513
0.207 -0.21536582384718597 0.18348318517688006 0.008097839882809885 -0.012764770026916426 8.042868323266216e-05 -0.0001339902705129051 0.08142444596173487 0.021552318766559355
0.208 -0.20299039968428964 0.19920625479067444 0.007429530089929872 -0.014468916952176867 6.335465578809987e-05 -4.145599349002094e-07 0.08296191654002413 0.015051612392672203
0.209 -0.19015750424877362 0.21276132039471513 0.006441998008322611 -0.01600101141823687 -7.786709486569016e-05 -2.3852807353966692e-05 0.08432659662112241 0.0085482309500197
0.21 -0.1760890468418135 0.22620906702677962 0.0056078427277627164 -0.01763893112586557 -5.994882980432665e-06 3.3570233003403496e-05 0.08517046845199254 0.001986600979434236
0.211 -0.161669905900204 0.23940373036141432 0.004859682698920707 -0.01941779006592439 -2.8073256648902644e-06 -9.292222222077995e-05 0.08541143734268608 -0.005165175728032147
0.212 -0.1450830083044573 0.2505804773397443 0.003532443412104189 -0.021671390052275516 -4.093328441018758e-06 -0.00011585874730471675 0.08497511462351535 -0.011925119950693782
0.213 -0.12753271918763048 0.2614808240774523 0.0018855118945576323 -0.02449131668561377 0.000105490986675922 1.8763117461014078e-06 0.08423283294786599 -0.01959947545658036
0.214 -0.10940176445357112 0.27179198542369637 -0.0003349430190976817 -0.026698872627796737 -3.504557059336568e-05 2.532271802908261e-06 0.08244075537414502 -0.026319800649354616
0.215 -0.09021120455486804 0.2794555955489343 -0.0030930304310572594 -0.02912259405801261 -2.1510557788422312e-05 -1.3359861060319556e-05 0.08043144716074349 -0.03326762345180797
0.216 -0.06898879486120843 0.2871003111036788 -0.005996178174559117 -0.03150073559040286 6.353066410468365e-05 9.487525875414763e-06 0.07761547575104799 -0.039762259635595355
0.217 -0.049411667025686744 0.2933066450902717 -0.00989892404244771 -0.033781562473604074 1.816528790170197e-05 -9.00707731969042e-05 0.07421735728473972 -0.04642893591157477
0.218 -0.026834062613577698 0.2971459242438723 -0.01421893995104541 -0.03621267390242915 9.157290082375764e-05 9.194104574399606e-06 0.07029231709034692 -0.05293901201162083
0.219 -0.0039059782623158115 0.30151889082901 -0.019722890665737656 -0.038558760499003364 8.375243843618237e-05 -2.8602164005482617e-05 0.06574807711642357 -0.058888081950783266
0.22 0.017561124261689095 0.301276954123625 -0.025596888396974205 -0.04008853782218446 0.00023578830580289094 -6.787224155926755e-05 0.0603340932464118 -0.0645281871884751
0.221 0.041288833366394134 0.3015381475778057 -0.03247125779375623 -0.041085788596159876 0.0001097502345657673 -6.247702409188122e-05 0.054475325524511696 -0.06999041780581497
0.222 0.06578972123493418 0.29771867159295745 -0.03934465910780845 -0.04198491078126637 7.776468867836657e-05 2.659726386482218e-05 0.048471429189913554 -0.07485714158274809
0.223 0.08818429922272415 0.2948975241032813 -0.04744972933848427 -0.04194538414905959 0.00018043370328038336 -7.70872943243717e-05 0.04167908729878795 -0.07933701531907612
0.224 0.11297344508688129 0.28777746739932925 -0.05697472767793681 -0.04270256445806 0.00010007890351213151 -0.00014454703034707023 0.03446389695685462 -0.08286743618686354
0.225 0.13538556685038997 0.2787865466084858 -0.0691058516190748 -0.04121579221741357 0.00012356226518380286 -5.551134013716009e-05 0.027010124100755168 -0.08578751681010616
0.226 0.1606702078034178 0.2681034968484243 -0.08219122036333157 -0.03765990652945977 6.125160303445907e-05 -6.873030881681592e-05 0.019105928184868726 -0.088374251638061
0.227 0.1810567682759105 0.2551730016277919 -0.09570745342961978 -0.03234283161723048 0.00011478503662229751 -0.0001167822102743048 0.010574372342759802 -0.09002593526430767
0.228 0.20374609107813682 0.23949676840756537 -0.10983675789637595 -0.025231645957502873 8.82072997030653e-05 -0.00014274794393277275 0.0017666660463597046 -0.09059327984717518
0.229 0.22563884230258743 0.22265885152966744 -0.12576605598695312 -0.015616231417797976 -2.4905789246818816e-05 -0.00019273092237458492 -0.007612351359125713 -0.09041650526650838
0.23 0.24618634504553064 0.20274311214269425 -0.1436948302932826 -0.002821804035746157 9.326939873269644e-05 -0.0001713627200147929 -0.01588705678957437 -0.09002819117707878
0.231 0.26510954993448677 0.1796877870085504 -0.16231511662305004 0.014267640113104905 0.00011585714187607396 -9.728300539495596e-05 -0.02528018934784756 -0.08798136082859047
0.232 0.2803902646609995 0.15501702735205114 -0.18131361736750826 0.03794547781434105 0.00018769048198112137 -0.000266230030359702 -0.03411502730937919 -0.08500443079770571
0.233 0.29829046234347384 0.1267728233414073 -0.20090372543534338 0.06567152348983213 1.8190742575584936e-05 -0.00028165608141049063 -0.04339516690473485 -0.08117333477420326
0.234 0.30803226517898463 0.09778640416201945 -0.22000753032764417 0.10048066450168147 -6.967249531497546e-05 -0.0003999136695642394 -0.05225504028720683 -0.076287549376485
0.235 0.31851262651577644 0.0662648809058933 -0.23657800199133353 0.14590864110533397 -1.84970637057664e-05 -0.0003759933268961719 -0.06033271994085037 -0.0706015427166435
0.236 0.32326363094321947 0.03231580448070817 -0.2504118858250679 0.1994655019975039 -0.00013893766645433278 -0.0005023226640664408 -0.06817420909505917 -0.06257283705950861
0.237 0.3260816970999859 -0.00300911943719539 -0.2583093352288945 0.267049575970367 -0.00010680079203777135 -0.0005132890841493191 -0.07488347600061931 -0.05454655969277088
0.238 0.32350226046968256 -0.03956297781461847 -0.25793562639204426 0.34738977676194677 -0.00018309829085687193 -0.0005748320833533324 -0.08137239457394135 -0.044023703671059365
0.239 0.316258252429817 -0.07746503376451727 -0.2421238242585578 0.4426206671390135 -0.0003889385778401729 -0.0006491055142966832 -0.08637384044270448 -0.03329101001272297
0.24 0.30352666829899205 -0.11530962117333864 -0.20390031088837687 0.5566663050600758 -0.0006229241771316982 -0.0006857860365266548 -0.09027282570947524 -0.021178494663917555
