!Created with skrf (http://scikit-rf.org).
# GHz S RI R 50.0 
!freq ReS11 ImS11 ReS21 ImS21 ReS12 ImS12 ReS22 ImS22
0.13 0.14598506352994778 -0.05618977479224397 -2.0503542432679334 -1.0422437761255117 -0.0009612813302750259 -0.0003891454311372647 -0.01175415973207786 -0.04426524055666544
0.131 0.11558320149235145 -0.08524083133601765 -2.740697319359958 -0.49907290252449127 -0.0012201905301848048 -5.0607801497903865e-05 -0.021545010893458217 -0.036068252232989206
0.132 0.07578730904405691 -0.10077313595800627 -3.2284530168699437 0.4299611407061459 -0.0014991562354314534 0.0003618619232455873 -0.02738682612032544 -0.02417661007348828
0.133 0.03430355863004855 -0.0973551494474162 -3.313253281120916 1.6626585288681641 -0.001503425942216641 0.0009775024427813137 -0.027878878127607993 -0.01162805611280727
0.134 0.0018003054485823881 -0.07952369179114624 -2.8157609079375003 2.9317638284105887 -0.0012495729383290328 0.001529826583502102 -0.023294571312393163 -0.0012271868998149995
0.135 -0.01552600041450596 -0.05455243869243155 -1.8167378735564614 3.910614857208886 -0.0007508360399584807 0.0018727051317083674 -0.015874150276376082 0.004886369653678662
0.136 -0.020592413196063707 -0.03196178381417764 -0.5180158541510518 4.4179767013309315 -0.00021489803857093333 0.002302534418131398 -0.008766032209142231 0.006730211993175808
0.137 -0.017813520957962736 -0.01580776723204598 0.8349666525329771 4.455892144044856 0.0003249054342610447 0.002231192291410079 -0.0034423970258119635 0.005906476420505138
0.138 -0.012917850071180766 -0.006189629880400636 2.0819118318358854 4.08804884878594 0.0009545998245654827 0.0020803784194668848 -0.00013114083030738615 0.004126372739110476
0.139 -0.009131586455358548 -0.0012986009450898976 3.10538918389861 3.3755146257657285 0.0015074506246348205 0.0018638837587392739 0.0013492281002902605 0.0024256797963511803
0.14 -0.007066372052405665 0.0012559292862648931 3.883495556307183 2.4792738046393494 0.001933595755598822 0.001455312869602309 0.0019531378077052744 0.0013318915453368536
0.141 -0.007019994947779523 0.003893749743540465 4.372961840919158 1.4276215131825607 0.0022888385032507844 0.0008891376133055653 0.0024390075569039825 0.0009260544439814116
0.142 -0.007736749067809487 0.006873158661788505 4.6090205154423565 0.31289154621377946 0.0023829851032067884 0.00039009532018933275 0.0029386856845694583 0.0008168039165729976
0.143 -0.007905145677126758 0.011292995063028199 4.546274899320747 -0.7948414156218669 0.002517692373266521 6.275912060667799e-06 0.003719989413009754 0.0008975510711208666
0.144 -0.007199920913196547 0.01626670342736075 4.216180781512915 -1.834871316432142 0.002543992191575535 -0.0007318248768180551 0.0048137932401103 0.000885141823700421
0.145 -0.004672271928520917 0.021413542568361962 3.672725800312703 -2.767401116556665 0.0023540337968408916 -0.0011523139608247337 0.00596429186902764 0.00019191157265579929
0.146 -0.0004134529141492988 0.02526612573260275 2.939276352895766 -3.523333011315807 0.0021252220121397445 -0.0017603096991331048 0.007029269519096424 -0.0008162404111412037
0.147 0.00494544100324984 0.027584867879514766 2.0469323805647304 -4.113584812975013 0.001634385594821185 -0.0020051267052938254 0.007780147403307425 -0.002031122739324883
0.148 0.010942615424951814 0.027902103255124096 1.0901738785887063 -4.444671468456567 0.0013008588753756075 -0.002234994183855382 0.00789128154496475 -0.0035665807151410533
0.149 0.01649230623370317 0.02584494273733983 0.0960036301061125 -4.571257622204539 0.0006651227354956153 -0.0025446245933413254 0.007439118113163277 -0.004946486928928194
0.15 0.020772763006159208 0.021897398324493896 -0.9225270000387482 -4.482718162009048 0.00015827850246032097 -0.002754197144482391 0.006372309816664012 -0.006221615675308893
0.151 0.023265861819670164 0.016487917418906806 -1.8718640767291512 -4.153871574532552 -0.00025483351044745036 -0.0028283466746393546 0.00517035702690611 -0.006987336498351695
0.152 0.02360259757511993 0.010578042332715469 -2.7382566128718153 -3.660719403250964 -0.0008743205405324556 -0.002875894882354346 0.003567134634149852 -0.007130201358368349
0.153 0.02156976121697284 0.005128308824614291 -3.497931393949963 -2.960398827439808 -0.0014193911419219563 -0.002363358342705167 0.0021513457666011366 -0.006602776090804415
0.154 0.017190966701940886 0.0007887777702443956 -4.05914617798295 -2.1356201155634453 -0.0019540366723953427 -0.0022177603184911515 0.0010751034404109757 -0.005698768103818887
0.155 0.011850976384823613 -0.0014709072573700413 -4.437112739691844 -1.1817906229633528 -0.0023891081508639273 -0.001889767811298979 0.000596226311904658 -0.004343308440139972
0.156 0.005834252818388079 -0.0015935381258302343 -4.58034406847782 -0.1699548639538295 -0.0026831593062021214 -0.0013218235145374998 0.0005486407113236718 -0.0030340228800682626
0.157 0.0005526781342134703 0.0006306421616605682 -4.5061990010227 0.8606223496867352 -0.0029768148782014317 -0.0007348782724566606 0.0011134523274073315 -0.0017751564053159934
0.158 -0.0033340288848721393 0.00480878235659085 -4.1905776980297755 1.8452625413840809 -0.0029928427519973484 -0.0001756781763110503 0.0021384457995886103 -0.0010708356524331154
0.159 -0.005069237157685812 0.009912156304593535 -3.6725778468788373 2.735430318495466 -0.0029867135471681916 0.0004426209010951066 0.003169234807652352 -0.0007195098913627021
0.16 -0.004667878857921915 0.014885972059150494 -2.9541013517078576 3.4856685229821016 -0.0028606957763891655 0.0010121476270380232 0.004370240134486492 -0.0011404783388126807
0.161 -0.002504686909552657 0.019085311028431234 -2.078180320803822 4.052668363927495 -0.0025994742790572956 0.0016213762374487069 0.0052029323142982736 -0.0017432437176084844
0.162 0.0015564546529504087 0.02147955522299684 -1.1012827515380939 4.402934503290601 -0.002233606407405336 0.002250113538596761 0.005620294700465872 -0.0028113912917395773
0.163 0.006070471648986818 0.021889413609481993 -0.07092389758573206 4.5226372800662835 -0.0017969321836486091 0.0027184911093024846 0.005149916550210544 -0.003882116847142537
0.164 0.009978784203735973 0.020200242748467163 1.0052955447831207 4.4175751712154065 -0.0010777623544872762 0.0029598719212331893 0.004738896332983976 -0.004663255545557055
0.165 0.01274648854999553 0.016449572217887794 2.0192154458185345 4.07528446959865 -0.0004084904203445609 0.003341955433713867 0.0037166664970035078 -0.004975097203348491
0.166 0.013220311116833349 0.011859629243320761 2.950073237633398 3.448375250568658 0.0002443094810585799 0.0032724864573299476 0.0026545778771493705 -0.004790910851199781
0.167 0.011773478178571396 0.007239385933067989 3.666954802118975 2.6339509242248234 0.000956773603790852 0.0031649315208118044 0.0014632617142199746 -0.004141992819610135
0.168 0.008913759403922701 0.003685082248669486 4.238629140777243 1.6157115768580534 0.0019135651530148164 0.0030068613316421174 0.0009829153510914129 -0.0033240912432791897
0.169 0.005307130445310356 0.0015124506898451183 4.483264430783469 0.49043667247122724 0.0023832972099964603 0.0023212303769171746 0.0007400819881357668 -0.0023284066386598805
0.17 0.0023830364564081464 0.0005088441332299477 4.447605982304027 -0.7357823735702005 0.002852205041852149 0.001854317764959217 0.0005364815809486699 -0.0016518869019498626
0.171 0.0008862522468580166 -0.0008962783675471241 4.072254990681185 -1.9160203705965035 0.0033053679851846943 0.0009948028493035662 0.00022751809800760747 -0.0016253070221309725
0.172 0.0011315012027796625 -0.004839314801919667 3.355028352293393 -2.9721544370766617 0.0035981409058433184 0.00014824347490623242 -0.00124753197522592 -0.001306394567789598
0.173 6.179554417908584e-05 -0.014162405618613498 2.3007705658700393 -3.824398872941548 0.003481793351029373 -0.0009372065734532949 -0.0041777803946871995 9.058956653795924e-05
0.174 -0.007194964335439089 -0.02971028321310848 0.918069400678059 -4.303305434139704 0.0030699010248671833 -0.001889236064177474 -0.008079745490897352 0.0037448703214166107
0.175 -0.02795389016466336 -0.04870854758927234 -0.5697125353193473 -4.242435428352106 0.0021814880523642454 -0.0027749786650964198 -0.01118449464037965 0.011753858890359513
0.176 -0.06763532831817495 -0.05954338603727529 -1.972865784247519 -3.5443127734153603 0.0010997474881497557 -0.003185430298423515 -0.009808210493837247 0.02397912460962118
0.177 -0.12006525237290369 -0.04655894197668641 -2.866351389340275 -2.2831912187083807 -9.659407404862313e-05 -0.003099247925020804 -0.00032807719113410065 0.037302481860804246
0.178 -0.16522219264142488 -0.0027487527264427446 -2.9826863950674385 -0.8715805056953282 -0.0009489125791891221 -0.002281632651737225 0.016848005650487437 0.045033956622973347
0.179 -0.18496153537284224 0.059902526837396754 -2.52711112847289 0.19715447364679697 -0.0013914771512411896 -0.00158362388879666 0.03658526384882524 0.04320729817329294
0.18 -0.17698256019506112 0.12320661047161195 -1.8490206423249713 0.780700393404798 -0.0014900523428060567 -0.0009427115210387168 0.053884241876255304 0.03353794786458588
0.181 -0.14889453935545918 0.17457397209164155 -1.21638144232001 0.9819891137768325 -0.0012214028789317845 -0.00037524219475879955 0.06481162494943939 0.01934957491704668
0.182 -0.11223822299664217 0.21133264350339662 -0.7307806326666261 0.969778654320733 -0.0010653675638345656 -0.00014469425797769688 0.07029424491762752 0.004195064587766808
0.183 -0.07117866046542985 0.23332686272771175 -0.3988972607859276 0.8618726243147372 -0.0008513610474983269 7.975120462062187e-05 0.07166921698887067 -0.01054686972742857
0.184 -0.030170856429052095 0.24866463050847545 -0.1760199520525031 0.7283614124604869 -0.0005528840344781425 0.00016139640715918856 0.06997065876320199 -0.0236880149613201
0.185 0.006918662938641439 0.2523771075684481 -0.04055291773044689 0.5968905991961095 -0.000407382237555816 0.00022393134660113722 0.06576920046086562 -0.03527264125890981
0.186 0.04375830033627595 0.25198131850697464 0.04407351053192901 0.4778607510395089 -0.00026338866127481033 0.000159239085709318 0.060587735601870224 -0.045349258561839356
0.187 0.07578286105723427 0.24565651739519556 0.08982409836963567 0.37697369685058335 -0.00018938858768674215 0.0003105253271768406 0.05427355011179209 -0.053864373797983874
0.188 0.10636942258278347 0.23799203584714895 0.11643194274494145 0.2954025101980601 -0.00019428167322440865 0.00020817079692553178 0.0470154169876361 -0.060699877215907624
0.189 0.1326869546899595 0.2259617363744998 0.12722909741212135 0.22930610281255093 -7.2171398854227e-05 9.739510774258074e-05 0.03971459777147982 -0.06616769779592506
0.19 0.15761730213794906 0.21384489726541514 0.12737856982737145 0.1763434553351185 -4.587473830611619e-05 0.00018697757866894925 0.03217235437538238 -0.07074911886944181
0.191 0.17869126167666052 0.19779135502161088 0.1240034766433734 0.13524272391466455 -0.0001078237954910469 0.00011380890304072132 0.024166350969406156 -0.07439363791322715
0.192 0.19780373245810692 0.18096862709250217 0.1145676784465482 0.10010066913795908 5.9173084457483715e-05 0.00020488413109088265 0.01657614545642272 -0.07611980875882846
0.193 0.21595602040042766 0.16295393611162198 0.10709264740000564 0.07386641601472396 3.848589426834725e-05 0.00013373437369871763 0.009062341209280747 -0.07868056889461206
0.194 0.23112996260265037 0.14369307228955217 0.09581648558857074 0.05299032095277655 2.5445410882684577e-05 0.000127559075172819 0.0011754390985316402 -0.07908138322480983
0.195 0.24510007126589264 0.12512687735994393 0.08650725091523953 0.03670274954951316 -5.389429999294054e-06 8.618761457489581e-05 -0.006333871883057038 -0.07944073832781369
0.196 0.25467615680498285 0.10446450284565065 0.07675810175879663 0.02423769994413621 1.2951732179408667e-05 0.00016202503181499296 -0.012995726538478686 -0.07888125160667578
0.197 0.2652709896171766 0.08356506543738126 0.06828330278473978 0.014422857378009857 3.649593679271586e-05 0.00015210788387400243 -0.020366160618521836 -0.07752781386288868
0.198 0.27242837653233176 0.06313229671729387 0.06012988083542387 0.006777493955888977 0.00018325970205624117 3.8621812444853447e-05 -0.026836243078209216 -0.07621227636029441
0.199 0.27777615433475994 0.04238072321984942 0.05261533593475016 0.0012196818492840485 -1.919567124912911e-05 9.389093622618293e-05 -0.033144970479498305 -0.07400985565938371
0.2 0.28256233553020044 0.02118930313796925 0.0457128602189715 -0.0031627915750428426 9.338658980838829e-05 -7.118032934569172e-07 -0.03922427498074965 -0.07094486551888772
0.201 0.28445405155580483 0.00040907564150036055 0.039771787384832356 -0.006277345280886271 0.0001453611679520919 9.780241290833743e-05 -0.04514995889942493 -0.06830517198720343
0.202 0.28575763535656484 -0.020597676229751827 0.03431025435553437 -0.008529665607587068 4.321493979721518e-05 -1.6308693276678324e-05 -0.050561927911484755 -0.06486203145398448
0.203 0.2847018399838391 -0.04113860779575135 0.029435913818799654 -0.009984313601432388 7.910387001748125e-05 5.885573122755496e-05 -0.055594840350908906 -0.06050528173578472
0.204 0.28264037079872584 -0.06095623806394741 0.025118000146327965 -0.011094624391528156 3.6090739973113025e-05 9.096174540431449e-06 -0.06057827385162581 -0.056521047951907294
0.205 0.27932007888399696 -0.08057827757655983 0.021410043529166457 -0.01174262905886604 4.578554689148798e-05 6.3199852176999166e-06 -0.06448680537089176 -0.052453742796442195
0.206 0.2744588665669819 -0.1005045231278158 0.018139442293702623 -0.011798361687322099 6.133339630270564e-05 8.268597514730015e-06 -0.06835943151497154 -0.047450244017388975
0.207 0.2679649956855613 -0.12015495945815875 0.015192375942091552 -0.01188210003649905 -3.812360419897997e-05 -3.1549096744006746e-05 -0.07238541252088607 -0.04291792711453359
0.208 0.26175735505582887 -0.1387327933159586 0.012782348192611873 -0.011665656818149685 0.0001659795144142944 2.6803563780790526e-05 -0.07515025304186872 -0.037622190726148384
0.209 0.2527184055029072 -0.15531669019657612 0.010571864027453255 -0.011371082549719374 -2.4395182464697183e-05 -4.006639228878885e-05 -0.07786336087963473 -0.032538519860458553
0.21 0.24350955305783548 -0.1715981412303908 0.008642971838536554 -0.01072166897347288 6.540113154617701e-06 -1.0381912757575544e-05 -0.08050853472839913 -0.0270232527064611
0.211 0.23296895288018385 -0.18894399713586543 0.0069331866809001375 -0.010310683845337275 -4.238642433924424e-05 -2.4936382392861804e-05 -0.08249109533495108 -0.021333647806396492
0.212 0.2218345002526731 -0.20413805749922312 0.005539565762565152 -0.00974613830142825 1.7624077348925776e-07 -6.462609578649229e-05 -0.08396491485366651 -0.01569227783040471
0.213 0.20888239623971455 -0.21826096815179732 0.004246599838297502 -0.00911010568424242 0.00011151633756246071 -2.9881731182598142e-05 -0.0852618582659434 -0.009997108930618217
0.214 0.19516544365221192 -0.2324442550809323 0.0033147510567060963 -0.0085653314764966 -6.063312085701628e-05 -2.2321787108004102e-05 -0.08622584665316596 -0.004247789895214288
0.215 0.18113222981031896 -0.24515299198262439 0.002411779558144053 -0.008021392092237631 -3.380030258847337e-05 1.3688386104691112e-05 -0.08665733312185296 0.0014771506445886292
0.216 0.1657122265626541 -0.2559377908846077 0.0015664752687484457 -0.007303553063806824 7.353110147931986e-06 -2.4467973988225187e-05 -0.08694907397447875 0.007463719605537066
0.217 0.15127643247512684 -0.26655272999681695 0.0007523505440895736 -0.006709007850813429 1.4180515731977559e-05 -3.481069063508927e-05 -0.08644805041920865 0.013136742234545539
0.218 0.13501614886514007 -0.2763696782558731 0.0005454592620043209 -0.006190874169680582 6.235541958408938e-05 5.85460372161953e-05 -0.08605157255160092 0.018548519205137552
0.219 0.11801393040371948 -0.2855162713686434 -8.319219186859378e-05 -0.005701650264318971 4.1617043477130124e-05 -1.2964444428777994e-05 -0.08487830483820857 0.024476297627213428
0.22 0.10300539843150555 -0.2922707016000119 -0.00043709875494824717 -0.005200168082163681 0.0001268224551998335 -2.8249693286369177e-05 -0.08357301994192007 0.03005724811825745
0.221 0.08399588887655156 -0.3000968223061478 -0.000657994539761596 -0.004754768471917729 5.806434647828565e-05 -0.00010235141692008371 -0.08195030583659349 0.035540037635695396
0.222 0.06559253287655556 -0.30500801549382917 -0.001007851423302627 -0.00415801938444812 -7.386450469691285e-05 -1.5109671141674181e-06 -0.07992678733351412 0.040889602322052715
0.223 0.04985765093304235 -0.3091926415163775 -0.0011617441783392031 -0.003797116142490392 4.728173084493065e-05 -2.1686856115684155e-05 -0.07727598120686728 0.046432093903920425
0.224 0.030651509605274258 -0.3134002914456383 -0.0014525258661151703 -0.003302948542771699 2.3641849141218544e-05 -0.0001665721634454848 -0.07450506874230013 0.05126576844156031
0.225 0.01343033581275289 -0.3165181721107466 -0.0014151470857360641 -0.003037495619558783 7.986408234257134e-05 -5.926922814737097e-05 -0.07133573078673976 0.056141985114088515
0.226 -0.004286308174326661 -0.3143323490822261 -0.0015531457155855697 -0.002630153294461701 -2.1717407175312824e-05 -1.8097271821732294e-05 -0.06820610276846208 0.06082616599899426
0.227 -0.022449102387558283 -0.3142626800395521 -0.0015670077404051073 -0.0024438695914791413 8.83776124449807e-05 -8.135952481463954e-06 -0.06463403177924523 0.06548567543206305
0.228 -0.04057776629309919 -0.3158704747858582 -0.0015713571797168501 -0.0019704983198044934 -1.5415520707019946e-05 -4.10514142135859e-05 -0.06041095189043784 0.06955229162987651
0.229 -0.0563021259356384 -0.31014712299881836 -0.00162123466638474 -0.001746661182363346 -1.3864433629039585e-05 -1.729887344785227e-05 -0.05644873290957446 0.07376306559637529
0.23 -0.07512410497685115 -0.3099340612225024 -0.0014796606603908282 -0.0015643554197156315 7.165147850015437e-06 -4.96315956001339e-05 -0.051828171130989406 0.07716708856706946
0.231 -0.09193449560499042 -0.30463684590070045 -0.0015957102053255363 -0.0012151240986761455 -1.1552429078148628e-05 5.124609536349753e-06 -0.046994897028946 0.08060873586828372
0.232 -0.10798819302173342 -0.2986575865414736 -0.0014438381469677201 -0.0011290014319174351 4.6952255584444315e-05 5.681938491566373e-05 -0.04244003295596746 0.08412811922024005
0.233 -0.12713873752478586 -0.2953125970063089 -0.0014593202873371023 -0.000897834690684867 1.9424729126491028e-05 -5.6263934553100265e-05 -0.03704512147174165 0.086680714166042
0.234 -0.1401905102064232 -0.2885307128688372 -0.001392725831719055 -0.0007752310012946457 4.075150871759388e-05 -5.099574505699557e-05 -0.032166280738074454 0.08915071322178068
0.235 -0.1565985348463461 -0.28237501438837653 -0.0013942468545527693 -0.0006970458279431284 5.8790172678364423e-05 -2.667613808635764e-05 -0.02661950103928863 0.09135055283314013
0.236 -0.17191164354810165 -0.2734125304237504 -0.0013512641683905062 -0.00038069812934673813 5.920018097433112e-05 -2.108105785645436e-06 -0.02107710820357249 0.0932360018142631
0.237 -0.1853779224486678 -0.26532419435760973 -0.0011916611141130785 -0.0004194309698017185 5.059571185941714e-05 -7.046247019090997e-07 -0.015084917568200046 0.09507460708907342
0.238 -0.20002021038314252 -0.25522421221040104 -0.0011980419896882974 -0.00019075607384136004 -4.4267689411175955e-05 -2.1822905062450954e-05 -0.010050851632349929 0.09638594914302963
0.239 -0.21395881909154787 -0.24471272199051922 -0.0010156825350663662 -0.0002124184056262725 2.7761540421661232e-05 -8.216917246991669e-05 -0.003865327095159503 0.09653366771102141
0.24 -0.2284831842981388 -0.23473658209766826 -0.001122136059430323 -1.4995634364729972e-05 3.1055620534264726e-05 -0.00015074845523660693 0.002254554058922098 0.09724483395078738
0.241 -0.24055927507779384 -0.22261414820662834 -0.0008661029631405497 -7.625021513683311e-05 -1.2234813713293216e-06 -2.377967056345646e-05 0.007926800811731402 0.09716177668144925
0.242 -0.252242514792566 -0.21194982298880544 -0.0009515062793533554 6.6014316707519e-05 3.8001037041553063e-05 -4.656599624452159e-05 0.013784228698409584 0.09721410613230885
