!Created with skrf (http://scikit-rf.org).
# GHz S RI R 50.0 
!freq ReS11 ImS11 ReS21 ImS21 ReS12 ImS12 ReS22 ImS22
0.13 -0.16247270084397866 0.10300889551551186 0.003506143868397072 0.0011352524056292266 5.3363795384701906e-05 0.00012605159869477338 0.02542255862980238 0.049068829991257897
0.131 -0.15951961091410438 0.11088837366688335 0.003810072757168872 0.0010859175565930113 -5.050965733887365e-05 -8.512347265868868e-05 0.02832803215832282 0.047659498331710674
0.132 -0.15571709741531378 0.11800841086028205 0.0038242248163791017 0.0007292599566852522 2.9872617963698674e-05 -1.0687281314771298e-06 0.031167976969348286 0.0471385393187535
0.133 -0.15239163200808328 0.12604132447096916 0.0038694920035751406 0.0006751237854643009 7.123411510500207e-05 -2.0636452476051846e-05 0.03308691844838445 0.045644859808996165
0.134 -0.14749731479940048 0.13284360027629355 0.0038237568874361196 0.00047058991466849583 -7.705503195861829e-05 0.00014794745051258833 0.035995475019714764 0.04403787465221717
0.135 -0.14327244112561094 0.14014209616250664 0.003927830213566402 0.00016475228452771906 7.861420373085111e-05 -7.108110239633862e-05 0.03834527449696436 0.042815131942941315
0.136 -0.1378541185266533 0.14722557493344193 0.0039732395388045036 -6.951971744787005e-06 9.338514157233006e-05 8.551317168377544e-05 0.04067360520457494 0.04070689483938533
0.137 -0.13242522952769484 0.15313727212919545 0.004124331842719943 -0.0002231349340843709 0.00012096460146662656 6.427871360920249e-06 0.04304039654107869 0.0389587953800679
0.138 -0.12490472583934714 0.16002811916880605 0.003898105835909301 -0.0006025266549702476 4.577656061290954e-05 -3.4095558214896925e-05 0.04532813654808856 0.037026911691835404
0.139 -0.1191605920206196 0.16792727535381963 0.003959247527727483 -0.0007707203308086652 8.398587834146346e-05 -6.570921902347773e-05 0.04777214196564503 0.03487047995769534
0.14 -0.11361261191735735 0.17241509015724157 0.004071081464100302 -0.001115720894213834 -3.152511009889128e-06 1.630728134038914e-05 0.04947836456045376 0.03299211916985679
0.141 -0.10722649142619951 0.17741210762919377 0.003857252956389898 -0.00119893439372738 5.582846894381735e-05 -3.450034906551962e-05 0.05190195772358262 0.030638162240028594
0.142 -0.10057147854090807 0.18394161620663219 0.003774652377929764 -0.0013986857823041804 2.454225233654893e-05 -6.468593101522169e-06 0.053493413125141435 0.02822695240894488
0.143 -0.09365114560785578 0.18844605177922313 0.003660609147784836 -0.0017763707270115952 0.00014713896740818085 -4.5943709033060695e-05 0.055389089008951106 0.025250243501929014
0.144 -0.08579156131196067 0.19332915750951554 0.00387099806321105 -0.001862108027373536 8.829900963330097e-05 -9.067238309514135e-05 0.05720782763107699 0.023078309055858365
0.145 -0.07780611269818719 0.1987531569920348 0.003722754582045778 -0.002155090149823755 2.2025137415592525e-06 -7.544992511671912e-06 0.05843746266014497 0.020019189020707394
0.146 -0.07068208129584443 0.20315857912363963 0.003650517819820133 -0.002424644951059341 3.44356154641765e-05 -6.938185394244452e-06 0.05980654707646589 0.017145941947639756
0.147 -0.0618159243296296 0.20579849646156495 0.0034383211760933017 -0.0024036976250084714 -5.5907040239222265e-05 -2.194315317099898e-05 0.060949752379664796 0.014441699409522186
0.148 -0.053754670377268825 0.21009782877812574 0.003351523216412903 -0.0026389800396846275 -2.271808719538501e-06 -0.00014424025193844137 0.061824987278020736 0.011309868878008889
0.149 -0.04605994162869792 0.21304973160909652 0.0030209018849819903 -0.0029922048088912617 8.445219333897232e-05 -5.571570588806214e-05 0.06315220149352384 0.007961247463507026
0.15 -0.038044516481621146 0.21610577937233028 0.003057034153138028 -0.0031146811226160304 0.00015628608923877541 -4.699029681058875e-05 0.06408683661131542 0.004798172247658224
0.151 -0.027712079711398902 0.21854882159228015 0.002863382067774433 -0.0036215061836213373 1.718828898181614e-05 2.5450859575942355e-05 0.06427310021544719 0.00174272821602541
0.152 -0.01692632164381745 0.22123913563393252 0.0027096185901507083 -0.0035522585078983353 -1.241948247997503e-05 -9.783822735900668e-05 0.06462300540557164 -0.0014841197444941164
0.153 -0.010341514850126021 0.22389764983161287 0.0025619599911522245 -0.0035906997050976154 -3.620801999023262e-05 -0.00010888002020572356 0.06496096307886234 -0.004925138566840732
0.154 -0.0005950425929979245 0.22379223870530532 0.002389597737231559 -0.00393793519530328 0.00011574415007340864 2.8750367943879863e-05 0.0646489372621036 -0.008074383857914235
0.155 0.008151977208032029 0.22550730519053294 0.0021684874463199985 -0.004063616218404695 8.669874391993667e-05 -6.123823520553641e-06 0.06480173394411037 -0.011525968510706761
0.156 0.017349750946041836 0.2265705749108212 0.0018560290623556755 -0.0040332683365958515 4.7293345493743284e-05 -2.33605893992862e-05 0.06445036021674723 -0.014952450798480777
0.157 0.028272161516646178 0.22605259614474263 0.0016561327537329242 -0.004262178875392213 -8.575974407558792e-06 -5.576957634486631e-05 0.0642154597788055 -0.018119494736116685
0.158 0.038011812979668866 0.225262326660464 0.0012832672792034015 -0.004253320531817276 6.109242013515533e-05 -7.740848920774972e-05 0.06337818889514843 -0.021675552385619135
0.159 0.04585908842026407 0.22493360976862278 0.001154951794593571 -0.0044595953165213085 0.0001499825588608556 5.898227391302296e-05 0.06254218627155156 -0.024769108818703523
0.16 0.05732949234424119 0.22375221225521114 0.0008334598672815179 -0.004582326436580706 4.010108233244423e-05 -5.885750444280852e-05 0.06152120309506794 -0.027979861324145004
0.161 0.06513466275004602 0.2222818024921152 0.0005754814661699168 -0.0046869204233665526 -8.107533061340596e-05 -7.360599057475613e-06 0.060423435995506855 -0.03130276690675709
0.162 0.07509371549456985 0.22191460684774783 0.0002767162123288875 -0.004622529004500461 -4.097655345490736e-05 -7.507835168798714e-05 0.059082526517064936 -0.03484433006353219
0.163 0.08525225599505397 0.2190489519233919 -3.5041252705300274e-05 -0.0047589442506032024 -4.058884444860984e-06 4.3585440272593756e-05 0.05762390739967665 -0.03767605429329955
0.164 0.09359341873711285 0.21735411823980516 -0.0001950432604370158 -0.0046414897972651 8.60562010596196e-05 -2.5743292460610502e-05 0.055978645976495475 -0.0408870112821078
0.165 0.1036250779193328 0.21249966410852966 -0.000416201867197546 -0.004644139708488428 5.967280533807565e-05 -3.08636032863223e-05 0.05417781058299604 -0.04408986383641324
0.166 0.1124869406059984 0.21055183865556584 -0.0007128774640559848 -0.00457560400175264 -1.0348505952962703e-05 -0.00013252984484879234 0.05203515605198182 -0.04695876402723963
0.167 0.12289495451274594 0.20695297962037468 -0.001129200976807961 -0.004657275470479601 1.674662410124341e-05 7.107692747676238e-05 0.04976444744493911 -0.049710192439927144
0.168 0.13096937976297052 0.20202174618817997 -0.0012841323658588626 -0.004686213798755314 8.096849884427519e-05 -6.924437677241165e-05 0.047592519130615754 -0.052603874601139716
0.169 0.1391806902328158 0.1982379971291928 -0.0015278871904461648 -0.0047419227340522166 1.3213491923730371e-05 2.1822097372134128e-05 0.045072287570508365 -0.05529640481577855
0.17 0.14883729031919532 0.1932173804317929 -0.00181161903893483 -0.0046286508941296425 1.9983123322716393e-05 -2.931691315214655e-05 0.04239020030142677 -0.057903952855964246
0.171 0.15585094838513183 0.18754639341604626 -0.00201885821813459 -0.004468675677764376 8.811882365031711e-05 -3.32908067122385e-05 0.03979597483346525 -0.06016079924705911
0.172 0.16573058753501962 0.18169458516755221 -0.0022182951979152973 -0.004320102160640437 7.169080567115882e-05 -5.836224115101833e-05 0.036826657111646864 -0.0625192575865107
0.173 0.17429033819405662 0.1746233683803102 -0.002716666703583913 -0.004234309788121105 3.962330223513982e-05 -3.0619190340831956e-05 0.033641192369476394 -0.06434539198644586
0.174 0.18210790436248395 0.17064425727593086 -0.002752075028604745 -0.004159163886544785 -2.3589928947432964e-05 -8.847296147283332e-05 0.030727010545958788 -0.0665565364818383
0.175 0.18915713835047687 0.1631343345909352 -0.00300193936060287 -0.004026379327611131 5.6952342901411875e-05 5.251314618544119e-05 0.027432091256333883 -0.06828520422517119
0.176 0.19693710245435558 0.15636606191592395 -0.003343698390120463 -0.0038117086986172526 -8.394218982215825e-05 -3.744206531509074e-05 0.023943746666504204 -0.07018995269576125
0.177 0.2039092681084845 0.14954452754148675 -0.003466918367821881 -0.0036914895850856133 6.216561822745481e-05 -4.822534835893186e-05 0.02057094889027113 -0.07120776926116648
0.178 0.21012166826646442 0.1410109097088379 -0.003876020700505764 -0.00344053619148219 4.314208171570887e-05 -0.00016004783604049353 0.01717980815342679 -0.07251668570515829
0.179 0.2166875727879652 0.1332490527434104 -0.003911995328596104 -0.0033587263965611223 -2.570610423323346e-05 3.363834592669716e-05 0.01365698817224203 -0.07363048213864076
0.18 0.22329488973989284 0.12428733223617629 -0.004064010283457403 -0.0030252564759514346 6.0885874231159426e-05 -5.8325332755431473e-05 0.010061151865955789 -0.07426896775273685
0.181 0.23000030876046532 0.11657936636106525 -0.00415181973888664 -0.002877704863694115 -2.8909084553112905e-05 -7.438560022696527e-06 0.006548944777389554 -0.07550693248844509
0.182 0.23527050468036342 0.10742725736894233 -0.00448943641899914 -0.00263788796030802 1.1475966941543944e-05 -1.795552524178224e-05 0.0027285255771773904 -0.07533665299994136
0.183 0.24051669584401406 0.0990973818447917 -0.004617511901221607 -0.0023187388365409844 0.00013290134030617362 6.569464421335764e-05 -0.0013135421921814943 -0.07614528744189877
0.184 0.24660915624008595 0.08863664785485038 -0.0048374545334828175 -0.002096330049708059 -6.436560716763084e-05 -4.975300242290461e-05 -0.005201968707052357 -0.07664404289735624
0.185 0.25138952401147974 0.07938530781976622 -0.005073959844425285 -0.001713123501411571 4.721905953252211e-05 2.3797337560948905e-05 -0.008786590718733176 -0.07656196945143454
0.186 0.25615832187172105 0.0691196300578363 -0.005112162610839902 -0.0015850761628582752 5.607783145048887e-05 -2.4895341543496415e-05 -0.01259120993044794 -0.07610241247519399
0.187 0.2600274366763063 0.058770651704824144 -0.005312657306898762 -0.0013076793045361625 8.918823480836773e-06 -2.039769936821606e-05 -0.0168219788664956 -0.07595255594452993
0.188 0.263539400667934 0.04813130494215189 -0.005209865981712947 -0.0009472334275493531 0.0001515837129894916 4.153054455285543e-05 -0.020352490220914083 -0.07536022281481976
0.189 0.26715049897638 0.03743179964700541 -0.00537972375577762 -0.0008107557157982899 -6.808904939229791e-05 -5.298798819374497e-05 -0.024273849427456737 -0.07460337445079158
0.19 0.2694590129512343 0.026271619655007735 -0.005378005719666847 -0.00031642173746701725 -4.261227894679248e-06 1.5097354091536082e-05 -0.027858964023276034 -0.07329106952399721
0.191 0.2715479201634998 0.0151938409415846 -0.005496459251089244 -0.00013718026887243371 -4.84693195795981e-05 -3.533633774927042e-05 -0.03199704198362244 -0.07215761080787082
0.192 0.27386354072773994 0.004168515557302528 -0.005425373130082759 0.00016353878551845054 -4.9567009041177334e-05 2.4282960879693072e-06 -0.03522402391320612 -0.07074506441445948
0.193 0.2750098164814239 -0.007641729217446448 -0.005575001139029938 0.0005076714383678632 2.328369939988526e-05 3.977552186857174e-05 -0.03954985893715064 -0.06970441217328158
0.194 0.27646810999306975 -0.01892179469409853 -0.00558071177930216 0.0008854580601504396 -6.34813270599116e-05 -0.00010516286005491115 -0.04248796836294064 -0.06816029712244974
0.195 0.27720073506509185 -0.031017218342720466 -0.005384044229294036 0.0010785868792981242 -7.102131633218242e-05 9.632272050011407e-05 -0.04658122870702803 -0.06535158465961934
0.196 0.27596072941364885 -0.04274168818752565 -0.005465780329041146 0.001346950609528319 -0.000140213518386413 4.303047017825473e-06 -0.0493800895389636 -0.0631858717248698
0.197 0.2761216832077161 -0.05512463774622298 -0.005294580684841589 0.0018093532389441965 2.354211887145959e-05 -0.00010162435066515421 -0.05251842232717649 -0.06123710788553623
0.198 0.2751842735305551 -0.06672105879124487 -0.005262862977235473 0.0021732263825948255 0.00011017443496825253 -0.00010834935327351472 -0.05589463569657015 -0.05842018348442917
0.199 0.2729970296920864 -0.07816231534630004 -0.005132749732344636 0.0024019664531976024 4.548718837716045e-05 1.2506657453904108e-05 -0.05955259878071473 -0.056359177801985565
0.2 0.27163330029210403 -0.09079972162391817 -0.005123627215538896 0.002675188143784906 1.3951533739520133e-05 4.163070236772165e-05 -0.06199234121401616 -0.053401291600047196
0.201 0.267904559029102 -0.10230489593925081 -0.0050186008339495 0.0029350207715815517 -5.1064978195718306e-05 -2.712494208804067e-05 -0.06479603083904396 -0.050255293305577334
0.202 0.2653469365396788 -0.11451135293428753 -0.004711785889865574 0.0032260383989929746 -3.401605063343455e-05 1.661370883474275e-05 -0.06775617491140125 -0.047168538189043444
0.203 0.26112254662892986 -0.12610421081072185 -0.004651104368045483 0.0035538274975319022 -6.753155735091566e-06 -0.00010020652864115168 -0.07021169503686359 -0.044300280417905645
0.204 0.25683575251882207 -0.13693843724068638 -0.004461064947621363 0.003885426374579064 9.69354633402179e-06 -2.9023553741654404e-05 -0.07264797750926183 -0.04081504775967843
0.205 0.2528384223788396 -0.14950263394992935 -0.0041879522991871854 0.004094215940012098 8.897972401585932e-06 7.409638994636402e-05 -0.0745858139877791 -0.03740323418976729
0.206 0.24690857482832843 -0.16011703871184121 -0.0039783541450330315 0.004310829311029559 4.9258713957424155e-05 -6.898353159246245e-05 -0.07693369105471967 -0.03390173109476037
0.207 0.24018015141331364 -0.1714918379593216 -0.0037658319012953056 0.004515382977338666 2.1996994463204602e-05 -8.34334927101823e-06 -0.07861245033270745 -0.03010272401059158
0.208 0.23379323546494551 -0.18209524206624933 -0.003602375906770254 0.004771709211757432 6.84628832259677e-05 -5.150637503993259e-05 -0.08034677489761992 -0.026640234036690455
0.209 0.22713898210471223 -0.1931929666560861 -0.003323407924646178 0.004964301056787871 0.0001289043688613834 -0.00012028744713196216 -0.08174737981979446 -0.022406689073476718
0.21 0.2185576020995433 -0.2030296250442674 -0.0030471760904296373 0.005292019032908388 -2.0254153431710638e-05 -5.607567770464083e-05 -0.08311008629099327 -0.01863918777889549
0.211 0.21206991185689555 -0.21426442660161277 -0.002595832070334866 0.005463348585217037 -8.804399964276365e-05 -1.2092328340172165e-05 -0.08446059369022234 -0.014347046652630042
0.212 0.20336870291798498 -0.2233248789652466 -0.0023628943129119324 0.005612318480171444 0.00012970654086299913 -3.414415442233019e-05 -0.0848742936056739 -0.010409505658253217
0.213 0.19500570981144233 -0.23359290817893352 -0.002170628196982638 0.005711638250589956 -7.062574169972035e-05 -6.312244515319781e-05 -0.08590041064513648 -0.006100910077729238
0.214 0.1840342808062657 -0.24148729633994662 -0.0017745304373833525 0.005932741875008388 -0.0001174149290777328 -4.069801414689129e-05 -0.08684033127774729 -0.0016934795271993076
0.215 0.17451024880378085 -0.2509887434758453 -0.0014096299615782475 0.005979175220619643 9.190657297306766e-05 -2.969781599110491e-05 -0.08707648301577112 0.002220772231097418
0.216 0.1634274941781899 -0.2584504075583198 -0.0010817586775143863 0.005965942500427636 3.570665268610137e-05 -0.00010933550668555827 -0.0870402688410806 0.006468209288294728
0.217 0.15299629293851658 -0.26753978844073256 -0.0007645121605943163 0.006215941192866138 1.5899894111189754e-05 -6.142849529772499e-05 -0.08723554402525535 0.010988993152104611
0.218 0.14154477356540648 -0.2742517376689743 -0.00046226344869109234 0.006243544180392128 1.1421105568024306e-05 -1.8080864048492612e-05 -0.08704449835743706 0.015605419361238347
0.219 0.13123350011227275 -0.28073126574729523 -4.83471112413144e-05 0.006275467605301407 3.211962911426817e-05 -4.69088491613102e-05 -0.08676410564000041 0.019844242186807366
0.22 0.11922055259415289 -0.28655214059014056 0.00032210664160698934 0.006370512665488589 -7.355746037827202e-06 5.0034875891795267e-05 -0.08606893548595006 0.024223280865683722
0.221 0.10751238953309897 -0.29314719638971504 0.0006383071303365723 0.0062073971856183505 -2.7452068969260794e-05 2.2529330767437935e-05 -0.08481450509515098 0.028687504039819234
0.222 0.09314405154250363 -0.29839179697695273 0.0011267562431405626 0.006206874097977884 -0.00010813765929909614 -3.112050748170357e-06 -0.08378126393623112 0.032989121741333775
0.223 0.08188416590698809 -0.30352557598611746 0.0014417693604793233 0.006181505822841472 4.916374239140809e-06 -5.240638574863244e-05 -0.08272464142775553 0.0372511658650585
0.224 0.0677026887641283 -0.3086719352368972 0.0018136019020080626 0.005987460174335043 -2.3386083772935216e-06 -2.1022521361640793e-05 -0.0807940138389045 0.041555911794368364
0.225 0.05573940970379277 -0.3112718993791514 0.002132996557792385 0.006156468477236949 -4.7819649454770085e-05 1.3310728597777454e-05 -0.07881996693603051 0.045707568965770586
0.226 0.04329672147200225 -0.3149240020074129 0.002482777140352797 0.005987026076550913 -0.00012695988631440753 -1.1772136287933188e-06 -0.07717592868518254 0.049894513458359706
0.227 0.029130030334332608 -0.3160738259394561 0.002780369745857876 0.005822014270159112 7.993926225482425e-06 -1.1655902878915466e-05 -0.07494684892761433 0.05381449492817063
0.228 0.014365099498050973 -0.31662987065707787 0.003065586488934599 0.005743312203947746 -4.387044896924962e-06 -1.344887827207426e-05 -0.07212741254086902 0.05763010218715408
0.229 0.002974866436943869 -0.32083276594587645 0.0036299082641654762 0.005543121321390054 7.559546970138761e-06 -2.1519867484806985e-05 -0.06978380913834151 0.061299830957476244
0.23 -0.009938332960153258 -0.3209826550804745 0.003912471028783873 0.005394329557186624 1.683029622184315e-06 2.963909217220363e-05 -0.06674048840730841 0.06530009197912297
0.231 -0.025751490591226493 -0.3202247857640791 0.004041510112118525 0.005138509928181799 7.237472984687804e-05 -1.9844307810835487e-05 -0.06385149132241501 0.06875373694412236
0.232 -0.03580706544832976 -0.31950247397763887 0.004459245335189812 0.004881090331014262 8.568213087321414e-06 5.5467345823932034e-05 -0.060715266329933834 0.07221753786581556
0.233 -0.052715622625949636 -0.32024467182994976 0.0046122772002534975 0.004628657698811235 -2.7987739462204974e-05 1.2621331759970063e-05 -0.057185531433298374 0.07528798218913202
0.234 -0.06367783038796186 -0.317639409943326 0.004916497590486415 0.004688249141155499 3.09484342993377e-05 -2.8647592408980763e-05 -0.05355874714842499 0.07831675288683713
0.235 -0.07967218200040922 -0.3149697514880147 0.005406465577349442 0.004174353850328678 1.6048437006088464e-05 -2.3302940378390806e-05 -0.04981468585165346 0.08168968595082648
0.236 -0.09303274312435389 -0.3123521257320211 0.0054289985755291295 0.003912535934246092 -1.5301038094448403e-07 1.870219403331098e-05 -0.04614851497824209 0.0844723706567334
0.237 -0.10530951194909059 -0.30809103178405695 0.005675377322085449 0.003729521762312653 -1.0838884853897775e-05 -3.7955898077222206e-05 -0.0416885838446568 0.08695905173187747
0.238 -0.1188079707350523 -0.3047144104935214 0.005912172955050257 0.0033044927225604212 -2.1615036904929097e-07 -2.856191416304575e-05 -0.03772823887087125 0.0892711015282448
0.239 -0.1304562192814057 -0.3000287636549598 0.006285045191540714 0.0029719495824763954 -6.398054863168722e-05 -3.943569502139406e-05 -0.03321452788009955 0.0912174637015346
0.24 -0.1444300071608215 -0.29566481599779215 0.006218963008607642 0.002687712943176601 4.747643427350718e-05 2.3330351952790156e-05 -0.028898234852174548 0.0931347838342603
0.241 -0.159183043640937 -0.2921329321574996 0.0065469682714317835 0.0023177751717529246 0.00015247780174433817 7.979158085535484e-05 -0.023974931362037856 0.09505314974629604
