!Created with skrf (http://scikit-rf.org).
# GHz S RI R 50.0 
!freq ReS11 ImS11 ReS21 ImS21 ReS12 ImS12 ReS22 ImS22
0.13 -0.16344760491200017 0.10074421112567084 2.683184327685077e-05 -3.6481755713594525e-05 -0.00016384803648578775 7.58602983660279e-05 0.02515534263685704 0.049088507391544196
0.131 -0.16077016488299106 0.1080585254732386 0.0001170464392207623 0.00011473920788695623 -2.899425398745802e-05 -7.310877413672843e-05 0.028109812307762126 0.04824603105859501
0.132 -0.15779360126757527 0.11579833474490145 -6.144012607656658e-06 4.426421249516693e-05 -1.6194787480273496e-05 3.1213738757344856e-05 0.030426444475456813 0.0472784064949642
0.133 -0.15351143288311908 0.12341257620996074 -1.2141736785627725e-05 7.439320759978471e-05 -4.0031217573997085e-05 8.261872179938308e-05 0.032855619752907496 0.04574119871461794
0.134 -0.1495965992071687 0.1301498141383413 0.0001240674040156418 1.600313683723082e-05 -5.926597477828068e-05 7.104257657787217e-05 0.035867335456220006 0.04461806572337407
0.135 -0.1449782017966349 0.13739144593344169 7.649744225585548e-05 -2.1811169864494505e-05 -1.1856686345314073e-05 0.0001392391830666799 0.037812105903637705 0.04290356496268428
0.136 -0.13991181024544233 0.1446459128787706 6.70366386642747e-05 7.148144133140545e-05 -1.54125752236544e-05 6.43332357812863e-05 0.04050508414655306 0.041361865978157816
0.137 -0.1346591751532073 0.15137069674569562 1.0497778954741208e-06 -2.510421214974427e-05 5.024307839874221e-05 5.320608342169117e-05 0.04291097455192132 0.039414951885696416
0.138 -0.1299721050663691 0.15841551081230854 3.098379423257363e-05 -0.00013641011692114863 -0.00010508079137904035 2.0202681917584873e-05 0.04544461426979458 0.03774350259913609
0.139 -0.12379100676881696 0.16427621449573562 -7.117103773529678e-06 -9.154845053341652e-05 -7.730382249524203e-05 3.3012354690075632e-06 0.04708486992018063 0.03550868340877404
0.14 -0.11720174491786658 0.17010689651499547 8.60459990457006e-06 -3.9565332773556586e-05 6.229286274805112e-05 -6.967842357744972e-05 0.049324243297869115 0.03301337251595696
0.141 -0.11067129093498658 0.175509418998842 -8.16179011321644e-05 1.2311675171579653e-05 9.40398518804056e-06 -2.6946583646167e-05 0.051345347880680105 0.030938412729093527
0.142 -0.10313020348797965 0.18098420834275186 9.14989472264201e-05 -3.726036970677961e-05 7.187450498225126e-05 2.643242968078823e-05 0.053255996535703044 0.028611969929205495
0.143 -0.09572849652810306 0.18765630249582385 -6.649730109210943e-05 5.1429723960024435e-05 1.960799114922575e-05 6.024934029524645e-05 0.055251316243398296 0.02606857390277513
0.144 -0.08977433734107071 0.1920429107798106 -6.265807779514998e-05 -6.40227304138597e-05 9.035748933377718e-05 1.2221046112373431e-05 0.056618628293164705 0.02335616093549676
0.145 -0.08201715548630145 0.196226128142267 9.520442613579777e-05 -0.000111956032012235 3.9013870072763966e-05 7.942603243911233e-05 0.05819259486497863 0.020861930085737262
0.146 -0.07322061502196497 0.20112932000519315 8.320257510176281e-05 -2.3904003035096568e-05 -2.0682313873128795e-05 4.462312921813602e-05 0.05964640415402429 0.017661435066792876
0.147 -0.06558879512179072 0.20509195008309603 1.3575717362518869e-05 0.0001299311833376489 2.422023495517083e-05 -6.68563864515235e-05 0.06054119461605202 0.015041468909237273
0.148 -0.05788044817475728 0.20998824645395944 -4.171627873376001e-05 -1.564247698495288e-05 -6.207756402001587e-05 -1.193494323421173e-05 0.06189175342736503 0.011965960204661551
0.149 -0.049016564829381735 0.21224804792919427 -2.546737707484558e-05 1.1753255797127152e-05 0.00016417251763418148 -2.4956427527059788e-05 0.06287050207154173 0.008750654609152008
0.15 -0.04065147599544112 0.21556071380707492 6.543475542593776e-05 -0.0001095605289921577 -1.1316459012842197e-05 -4.705164538900978e-05 0.0635838795298127 0.005527652249868981
0.151 -0.0321463745800977 0.21845740699010538 -0.0002104484656758678 5.165192822575984e-07 -3.439657600989458e-05 -3.6816260530738697e-06 0.06423083462869547 0.002550774082954701
0.152 -0.022105465820435655 0.22088914682543448 6.494118150563019e-05 -4.840927350391737e-07 -0.00013302584740806271 -3.578028938623864e-05 0.06457775054157985 -0.0008095567482325169
0.153 -0.013118609356800408 0.2221930217757756 7.266861485999083e-05 -2.7981588699588577e-05 0.00010625101921626889 1.2776301005166206e-05 0.064871562476413 -0.004122835267362668
0.154 -0.004159286332313454 0.22426563295425028 -1.571081098524743e-05 -7.983663182664292e-05 3.699848116046657e-05 3.7578114762968854e-05 0.06524624071350942 -0.007243833624171034
0.155 0.005632901417294519 0.22508058811596318 -1.4642964171398464e-05 2.682946544713019e-06 -4.960780368360786e-05 6.875129648894671e-05 0.06507956638330897 -0.010740691800876532
0.156 0.013381132538031302 0.22559379182851938 2.6830333926911125e-05 -3.6466679690654745e-05 5.298999304201587e-06 -0.000118222600043343 0.06484379019336045 -0.014213852377429377
0.157 0.023972123142573482 0.22600423582372298 -4.296033873300707e-05 -3.125728495824715e-05 4.181516016152266e-05 -8.929116266876004e-05 0.06430513143539236 -0.01755396547795231
0.158 0.033204726331552435 0.2268305824734595 0.00017194571534283787 -5.209196221014444e-05 -8.49629790032997e-06 -6.189267672968387e-05 0.06370472862970879 -0.021027136745285217
0.159 0.041842139275557376 0.2260179610409256 4.551551736091907e-05 -5.973329370882646e-05 0.00019212293111027984 2.2401459588361537e-05 0.06297459259199831 -0.02400388529869254
0.16 0.052808235459421884 0.2253010575320536 -8.04663903010488e-06 0.00013350309438641824 -2.6713215738977006e-05 -9.730294190556484e-05 0.06201078234691724 -0.027476108727447282
0.161 0.061298191036112025 0.22496003119980812 0.00016470170316676712 0.0001121085322532075 1.2502610662011652e-06 4.955294266867639e-05 0.06089572211350107 -0.030425014134017943
0.162 0.07092348379250593 0.22260985763218777 -1.0807204926981243e-05 -4.4375007609780584e-05 9.585210001196094e-05 -5.8424089049166514e-05 0.059658982794042345 -0.033917385979469736
0.163 0.08015313397575896 0.22003220637305168 -9.823324928978123e-05 3.951752208305074e-05 -3.6431359251103404e-05 -2.1179623291073754e-05 0.05812539036783066 -0.03703274323698474
0.164 0.08990055346908714 0.2190640561210745 -0.00011692389751038084 -4.515747886632607e-05 -7.785002744078936e-06 -6.861923067684862e-05 0.05643167847970275 -0.04010159033557415
0.165 0.09924568831392358 0.21512621729584444 6.24887360769333e-05 -5.806494138420628e-05 -4.348353985964406e-05 0.00010435419177502457 0.054666676036358344 -0.043328880354516305
0.166 0.10913071524241431 0.21189037704478764 -5.489974629268937e-05 -7.63483452881566e-05 0.0001226979123784242 2.3437957530701714e-05 0.05268092377758055 -0.04611739367538753
0.167 0.11812195352429976 0.20838188169019545 7.126228428690384e-05 -3.009292103846403e-05 -6.47952332115092e-05 7.58864210265988e-05 0.0504766525325756 -0.049101802253487266
0.168 0.1265557540057184 0.20555954151739786 0.00012040579494277679 -0.0001648482771732868 4.383411681715112e-05 -0.00012895781179771802 0.048208031572766825 -0.05215472137345153
0.169 0.13537464923118084 0.20089314854141652 -0.0001028817862573728 5.900668104738146e-05 1.3053462687887224e-05 4.7853833253124144e-05 0.04579864191474713 -0.054751042273208414
0.17 0.14367507815904654 0.1956681934490696 7.3190627488099565e-06 -9.575121225865741e-05 -1.0230233034039055e-05 -1.3886651199140627e-05 0.043169326015685405 -0.05718211423390554
0.171 0.15362435623358844 0.19134516138433771 -4.250988706786468e-05 -0.00011080977828603884 6.387092238800258e-05 -0.0001168554704978986 0.04048498530737337 -0.05955175787707949
0.172 0.16158287427556148 0.18469400942925385 -5.9949369571722426e-05 -7.126707930260979e-05 -4.167468739244259e-05 5.686961829319472e-05 0.03770318262824008 -0.061766781772287414
0.173 0.1702691530232852 0.18089020795723354 8.047457808294346e-05 3.824811630795725e-05 -1.670021181988811e-05 -7.503920628434553e-05 0.03452085212863442 -0.06389078243484284
0.174 0.17694900868835833 0.17369769763602866 -3.2048088346041896e-05 -7.85498124245812e-05 2.421410336161306e-05 -3.45186757615102e-05 0.03147050808056167 -0.06615331101272393
0.175 0.1854290749935516 0.1669267554350575 -7.396431069428e-05 -9.559353013891275e-05 1.3057203258241993e-05 -0.00011391107763466295 0.028272763484522793 -0.06785053360874087
0.176 0.19196501018363363 0.1601544094466257 6.524667548046524e-05 -8.09615631725652e-05 -0.00011818549110439797 -4.3930778845110375e-05 0.024999078797437384 -0.06950897509472297
0.177 0.20034083757113186 0.15331502750733003 0.00023418291036990635 -2.950592001884292e-05 -1.2899930706483773e-05 -4.7881945696891475e-05 0.02187153065165648 -0.07101871048835026
0.178 0.20819636391149468 0.1453896694475201 3.691599593692484e-05 2.0515544692285907e-05 4.742877304358646e-05 -0.00012622401101671505 0.018682253997332584 -0.07193535595847662
0.179 0.2140531440321138 0.13738464484943058 -4.3701555238924825e-05 -0.00011368424979029284 -1.3574119379043636e-06 7.239201704471866e-05 0.01442257946975576 -0.07358153949655753
0.18 0.2213719595538338 0.1303777212161096 -1.3738516974953899e-05 4.337917152344686e-06 1.0966929949149205e-06 3.308662167022342e-05 0.01122895587566748 -0.0743714623309416
0.181 0.22751420386289026 0.12135970390410508 -5.578551998807562e-05 4.2120946030333874e-05 -5.588145318754361e-05 8.938833121263759e-05 0.00751681252426336 -0.07506019633917135
0.182 0.23353502768803275 0.11192843528426648 1.8525529868453272e-05 -0.00011816451851548152 -8.233092595268943e-05 3.342066102804259e-05 0.0035688928428814003 -0.07592019049495921
0.183 0.2386132339871802 0.1039793530164436 6.058719277745859e-05 6.514699585320952e-06 -2.9698406946377206e-05 4.7527386093800046e-05 -0.0003472263647481421 -0.07601467937107796
0.184 0.24517629993611773 0.09436856582920201 -0.00020559881726057227 5.0398857848389025e-05 3.898289690608106e-06 4.264814463300656e-05 -0.0039053988480710453 -0.07672103785741184
0.185 0.24966434132553986 0.08460727837255817 -5.2778662751293416e-05 -0.00010028255122275494 4.077066765952971e-05 -4.9362704353572184e-05 -0.007625647771370946 -0.07662113154608416
0.186 0.25414519192971136 0.07457970592692535 -5.944603442269031e-05 -6.981413038548677e-05 -4.880858348456396e-05 -8.404860018664641e-05 -0.011529163742692536 -0.07632454459350582
0.187 0.25850036144555794 0.06383632352922848 0.00015570147497842156 -6.533161692799726e-05 4.142997487640941e-05 -3.2528146219377905e-05 -0.015530330580793662 -0.07641400904972809
0.188 0.2622008094322654 0.05420923245873199 -5.524767454523183e-05 2.910515996964521e-06 0.0001600293651473089 3.594725630451035e-05 -0.0191172143535949 -0.07536034610690308
0.189 0.2662408050754687 0.04343227418531799 3.6022390347961726e-05 5.950017508122898e-05 2.021506713913467e-06 1.741521476798433e-05 -0.022994300103283575 -0.07486398660194299
0.19 0.26922877716185145 0.032465730191336 6.647130976916677e-05 -3.855114498637287e-05 4.584426338533815e-05 -3.0152992630200528e-05 -0.02701088308555764 -0.0739450187801326
0.191 0.27125204047236423 0.021591078426202646 4.19281609283187e-05 -0.00016040863401289634 0.00011851041057290232 -3.713979877381009e-05 -0.030903462338609317 -0.07279019677900593
0.192 0.2740048349592211 0.010355260269875861 -0.00014100020621567272 -9.702002889316134e-05 2.7877145799613286e-05 7.770687073916136e-06 -0.03419385962478348 -0.0711513594268566
0.193 0.27590592877240405 -0.0013887495832590247 4.696725203024023e-05 1.0137251475945873e-05 6.520551931643522e-06 -4.335064371758045e-06 -0.03826062945483371 -0.06986411415590886
0.194 0.27716992468524804 -0.013137051013889017 -3.182166880470991e-05 -0.00010694603483557942 -2.8264512663254854e-05 5.653531847754675e-05 -0.04159708703204107 -0.06807806602951313
0.195 0.27751486761845134 -0.024334217489689076 8.123013119858624e-05 -7.593366427976026e-07 4.055925276722273e-05 -4.1203098370728465e-05 -0.04533829542579234 -0.06677397222766189
0.196 0.27709759977891063 -0.03582373849354617 0.00013842138554675832 2.5367035499651368e-05 -4.043549117281783e-05 -7.1241832513650846e-06 -0.04831898869604815 -0.06404875191858989
0.197 0.27764916043863114 -0.048274201186945684 6.090178539522585e-05 1.9636815331766284e-05 3.4078689614068054e-05 -4.504159207672587e-05 -0.051786370947183094 -0.06192207724874371
0.198 0.27680759561410306 -0.059629179896283344 5.347522084955766e-05 3.493231439730716e-05 -3.2757044281055065e-05 2.1533984040150728e-05 -0.055332209506332664 -0.0600056110224878
0.199 0.27504117983548876 -0.07221182326801129 3.671300797282205e-05 2.0615381454502556e-05 -5.48291680705757e-05 -3.119874518229693e-05 -0.05813552960795369 -0.05722319345272104
0.2 0.27287780354116553 -0.08350849524053607 -5.6493328278868196e-05 2.7821131082724506e-05 -0.00010777865483665575 1.8550021361171116e-05 -0.06089207815664023 -0.05422903706872515
0.201 0.2707086718325967 -0.09555671286351727 -4.557735437860654e-06 -3.404531599843536e-05 9.121951952305027e-05 -2.809955395996802e-05 -0.06409044348029201 -0.05152428449002835
0.202 0.26747545414159385 -0.10774374499714244 -8.027479636874542e-06 -6.64266476231078e-05 7.117754203362134e-05 -8.003987433226149e-06 -0.06674195333245668 -0.048365839665242216
0.203 0.26404616805631004 -0.11952929135696262 3.0621562765054274e-05 9.124935638892828e-05 4.7299906173604546e-05 -5.531494468788415e-06 -0.06959522706945875 -0.04549306475820633
0.204 0.2604882422708897 -0.13091293257512454 -3.041303451758174e-05 -1.0125361203427108e-05 -0.0001259697955497002 7.385525360155244e-05 -0.07209183712399393 -0.041911089348152505
0.205 0.25526709812618287 -0.1428021682007777 -4.044259347859401e-05 9.388550766506974e-05 2.015548846043407e-05 2.7981643228376492e-05 -0.07434697788525375 -0.0388573348305548
0.206 0.2512922491166126 -0.15504272954945475 2.7129243090526974e-10 -1.1458331314686805e-09 -7.82213701940281e-05 1.972950908467343e-05 -0.07620534029566967 -0.03511854462675229
0.207 0.24457153492295275 -0.1647594518913769 2.8469788306812335e-05 -6.020492933419918e-05 4.231136590843354e-05 2.0181496263842478e-07 -0.07837562138417552 -0.031479490654668596
0.208 0.23875883726151492 -0.17638272130183355 0.0001551680128170065 -3.921205024019902e-05 4.805567224188794e-05 -8.564514581680971e-05 -0.07988165291746888 -0.027749359782273976
0.209 0.231698502475189 -0.1871423729649398 2.4770496874335833e-05 -3.9539035202492555e-05 -5.0799030747374576e-05 1.1494647111876336e-05 -0.0812198255983099 -0.023913922086216354
0.21 0.22487698980095844 -0.19866755073144104 4.173339359143258e-05 -2.5119538275810495e-05 1.2590614833735859e-05 -2.5096277676638015e-05 -0.0829274650195639 -0.019849336585645572
0.211 0.21633001198260632 -0.2075011583561277 4.51919353037362e-05 -1.9488112272055158e-05 -3.2823618107650526e-05 0.00013457611752609128 -0.08434150843090789 -0.015691258799201337
0.212 0.20869751652611182 -0.218142208475253 7.005330479689682e-07 6.715587981313703e-05 7.589929012396547e-05 7.570807173646479e-05 -0.08524885261161366 -0.011672903406853355
0.213 0.19848436085025076 -0.22785909710866398 4.5395861804589593e-05 -7.286947403236e-05 4.9511346914963256e-05 3.6733199708130616e-05 -0.08615202842807433 -0.007774124440975423
0.214 0.19190325765977326 -0.23722870732555082 6.063402911024075e-05 -2.0622826670852266e-05 9.45234713039136e-05 -0.00015598558643501197 -0.0866336826225154 -0.0030962803519128616
0.215 0.18198924737866776 -0.24643593515442117 8.775727159813993e-05 -1.5843614128465344e-05 2.502980407761717e-06 -7.125811058032612e-05 -0.08711990227320693 0.0008315646254432827
0.216 0.17124025975391943 -0.2539674872631892 0.0001033319124633602 0.00011372840192283374 -7.24738258602505e-05 -4.950493110486838e-05 -0.08745398550987361 0.005133499471448751
0.217 0.1605491292358787 -0.2639879987928972 1.0775222503423062e-06 -0.00015804549308069422 -2.2349613080787274e-05 5.189327322918335e-05 -0.08741298597007323 0.009259785873054134
0.218 0.14924471179700252 -0.2700690363652703 -8.456552968993501e-05 -3.2633771730379366e-05 3.379860912480995e-05 -7.747135220646486e-05 -0.08723019095089833 0.014059861849282991
0.219 0.1385987489405171 -0.27774893875044365 -1.2423381211611312e-05 1.9809366502655037e-05 6.182330846138874e-05 5.8388390919415996e-05 -0.08711179308598109 0.018516183219266544
0.22 0.125745895082839 -0.2837826339647174 9.163729518365618e-07 1.4817450821739695e-06 5.7558094629528565e-05 -2.4183421213158552e-05 -0.08647079757977638 0.022866753295536925
0.221 0.11484610894184152 -0.29056578947555534 6.637723952904293e-06 6.348679599652265e-05 -1.6488007173601088e-05 -4.173204017444284e-05 -0.08562352129230293 0.027035504802677413
0.222 0.10240326939024906 -0.29576212505663596 -8.6622394882322e-06 -7.73322386775175e-07 6.577632199632032e-05 4.695501772029635e-05 -0.08463710340061945 0.031697142420764185
0.223 0.0888199092200925 -0.3019665737078102 1.8949371748475066e-05 -3.5862415547414685e-05 3.589466816684141e-05 -5.209380734708865e-05 -0.08328371318728285 0.03611830695322187
0.224 0.0780888318979916 -0.3075633994957847 -0.00010123490733809859 -5.8208980037497284e-05 9.610147126208308e-05 -0.0001142126396259691 -0.08175340155462346 0.040191666246560544
0.225 0.06342384772856852 -0.3086136902390306 4.01922059206649e-05 1.207631215619581e-05 1.770767948916797e-05 -6.259064251954653e-05 -0.07985234310262818 0.044234413546205886
0.226 0.05066455009880646 -0.3143329875453665 -0.00014206556237150353 -4.5112760448331154e-05 5.826243728053444e-06 3.5575708162852974e-05 -0.07816510534061805 0.04856185892305977
0.227 0.038031369955864945 -0.3159720067643392 -4.0448519497157744e-05 4.073633726064377e-05 4.7956276073225796e-05 1.1457970371654417e-05 -0.07586882577666468 0.05254018785041613
0.228 0.02448451236351356 -0.31718688392670114 6.154455668468699e-05 6.0290257621211094e-05 6.806950127141641e-05 2.2337953113342028e-05 -0.07348988749040739 0.05642262204435571
0.229 0.011736458401574314 -0.31864684861362824 0.0001103706194863758 9.969197588034675e-05 -5.279592273180812e-05 -0.00010276766644266198 -0.07076302921605207 0.06043733649831708
0.23 -0.002198783086972394 -0.3193131084145313 0.00010977582119484164 1.78790880969817e-05 8.378886133531707e-05 4.007397894344033e-05 -0.06836049357043435 0.0639042125235593
0.231 -0.0141568503681488 -0.3207326385782693 8.90188035765392e-05 0.00013142424462366878 -5.735335314971647e-05 1.5233753577658741e-05 -0.0652559208725357 0.0673903509511403
0.232 -0.028489147643927293 -0.31985497294311094 -7.005518005590788e-05 7.207077493348986e-05 9.05323576539534e-05 -8.556076554472329e-05 -0.0620337230309827 0.07120461517123429
0.233 -0.04337739299626495 -0.3215194651303001 7.097467270996411e-05 -0.00010988089461195197 -2.62577367578282e-06 -9.82268927482381e-05 -0.058845998321827866 0.0742701333406614
0.234 -0.05572785765274835 -0.3185880192558358 9.535942968401689e-05 -3.0349284674155532e-05 -8.054596816072207e-06 3.473545532478595e-06 -0.05511269908001403 0.07743253137869166
0.235 -0.06827285201973333 -0.3191650215991693 0.00018496868068422205 1.100783089110067e-05 4.6984524129161956e-05 2.7565587316910365e-06 -0.051330978581370534 0.08060987522370129
0.236 -0.08271655888078112 -0.31505173137734377 -0.0001405924731289808 -0.00017919349751805425 -2.7660890107059893e-05 -6.44672767169668e-05 -0.04754996726769772 0.08339302792857611
0.237 -0.09556471756407757 -0.3133420021129585 4.329946769871545e-05 4.036161477998741e-06 9.545058614797861e-05 -9.13304191210442e-05 -0.04356353888577476 0.0858597210827383
0.238 -0.1084800952563162 -0.30894650819475533 0.00015148948956666006 7.468067099833195e-05 1.183774579077444e-06 -0.00011201694978336345 -0.039322458525095194 0.08854704663564893
0.239 -0.12191188121012626 -0.3043079531833176 4.861648120001754e-05 -1.4010525882695768e-05 -1.017917342035948e-05 -1.394834144607839e-05 -0.03478506122673891 0.09054437121908028
0.24 -0.1342217245264263 -0.30080438066491705 5.268273780920555e-05 1.825671100351712e-05 -8.050718037885937e-06 -2.0917406157778176e-05 -0.030538970289436737 0.09278246240508226
