!Created with skrf (http://scikit-rf.org).
# GHz S RI R 50.0 
!freq ReS11 ImS11 ReS21 ImS21 ReS12 ImS12 ReS22 ImS22
0.13 -0.00012002885845236887 -1.9396766633960624e-05 4.6636736770153986e-05 -4.5936165134915564e-05 -5.623093285894929e-06 2.0240917142898767e-06 8.523093401492624e-05 1.1256776493771937e-06
0.131 -0.00013013230354971591 1.3485953391939375e-06 4.166651682413731e-05 2.1751042173026996e-06 -1.9189255402666523e-05 -2.049936127204448e-05 4.9863134830537604e-05 -2.0902352848859005e-05
0.132 -0.00010331000172950776 -1.4662951030634818e-05 3.98084699332632e-05 -3.573818801798915e-05 3.9979971497840546e-05 -2.171970738471592e-05 0.00010903574954850026 1.2605226077165708e-05
0.133 -0.0001535000518554685 -1.628165123569092e-05 9.543129315823559e-06 1.842408784847838e-05 1.649381249165847e-05 1.391389034135219e-05 8.815819257785082e-05 3.761189901747545e-07
0.134 -0.00014152221811772515 6.198327485370897e-06 -1.9717556298289102e-05 4.901862868179224e-06 1.3461013112875657e-05 -5.998287127304713e-05 0.00011188448126445163 -2.062908061731133e-05
0.135 -0.00015579721382088594 -7.647739275846219e-07 5.225566000898737e-05 -4.500773750735883e-05 -1.575890403966036e-05 -1.1370907281639005e-05 6.873354781746634e-05 -2.9423465713134316e-05
0.136 -0.00015376298897021147 6.818470938425916e-06 2.413270989758052e-05 -2.3760468510158352e-05 2.879963409577504e-05 -5.539271788695951e-05 0.00013081650557773144 -1.3343724732756036e-05
0.137 -0.0001232239433391619 3.391983761886241e-05 -6.640924156004234e-06 -1.4449301712349103e-05 -7.900174517362586e-06 -2.6107447542163447e-05 0.00010790744350462615 -3.809202140568821e-05
0.138 -0.00013335476278656777 -4.0925569868387905e-06 -1.3996237317972499e-05 -2.277699465262062e-05 -2.2592665838326247e-05 -3.0308110699534077e-06 0.0001412521979559592 -7.156569689353776e-05
0.139 -0.00013864562606882974 -3.1770004961714236e-05 3.136837524619823e-05 2.419405763145796e-05 -9.654440914913317e-06 9.443502019392644e-06 0.00010893311454786843 -1.1710796363751508e-05
0.14 -0.00015663501883884085 2.7596958647532634e-05 -1.596050870536348e-05 8.23673044110421e-06 -4.246787793194987e-05 -2.486751986823431e-05 0.00011806894418787546 -2.7627437362326692e-05
0.141 -0.00019968307459796255 1.4127374385005889e-05 -1.3711933439516613e-05 -6.893454449388291e-05 -1.807146005933079e-05 -1.6133822387418547e-05 0.00011052039917693572 -7.114545780521001e-06
0.142 -0.00013178101660405166 1.940097712738812e-05 3.34024238556944e-05 1.7862752169341866e-05 2.3326282677123676e-05 -8.210846741335397e-05 8.65331136641286e-05 -4.918028279654327e-05
0.143 -0.00017766595352512748 6.398009886720934e-05 2.0093205928366792e-05 -4.257879451431349e-06 -1.0910331322859823e-05 3.405987118334428e-05 0.00010218331438445638 -2.9929275012328425e-05
0.144 -0.00017934914770206906 4.700954959870229e-05 -4.0482037692376225e-06 -1.9193241435460007e-05 1.0648186750077339e-05 -1.5535147693715815e-05 9.689627148741297e-05 -7.564516958846759e-05
0.145 -0.00021605475350589378 8.677817762423164e-05 1.2500670837549876e-05 -1.5232111487769326e-05 1.335136276960372e-05 -3.243299402702417e-05 0.00010616842514167272 -4.987996437508417e-05
0.146 -0.00013587023646891111 2.477985293704944e-05 4.304893666111243e-05 -8.904829480298548e-06 -3.46811007683967e-05 -6.713499362454946e-05 9.043502468944713e-05 -7.398623925501499e-05
0.147 -0.00021080194144663069 1.1162955336594796e-05 -1.479296707272264e-05 3.540812232202826e-06 2.889536123932815e-05 -3.106919036565347e-05 5.7730542391580256e-05 -9.43375654510318e-05
0.148 -0.0001599380688198569 9.574465674337211e-05 3.337819115567803e-05 -4.535977749244079e-05 -4.782916246920201e-06 -2.0835496693438836e-06 9.00364802875246e-05 -1.9946922341195067e-05
0.149 -0.00017825987183926455 0.000109840511175342 3.9938839426828194e-05 4.473540889360403e-05 3.931186825890331e-05 1.936893418586938e-06 0.00011774184325984285 -8.663466482765663e-05
0.15 -0.0001725917680594857 4.026756986132922e-05 1.5156791235401851e-05 8.822915759401566e-06 -8.642286733487271e-06 -3.597610373942447e-05 5.044159878879904e-05 -0.00011302398675135974
0.151 -0.00016627149546371813 8.687268127617139e-05 7.483117348847257e-06 -3.418404607573958e-05 4.7562967055493634e-06 -3.018991054592613e-05 0.00010911213539533773 -9.6673598645128e-05
0.152 -0.000196807777231313 0.00011445147392108543 2.3352232747927078e-05 -1.3258860793506703e-05 -2.7970487503576243e-05 -4.9124605717019666e-05 6.61655106965669e-05 -0.00010937337299240229
0.153 -0.0001799608471621255 0.00015209553239852193 -4.6039568091388754e-05 -3.452784474134115e-07 1.0753029544890453e-05 -3.4983818266688064e-05 6.892479602219886e-05 -0.00011700196368524597
0.154 -0.00020308624489887218 0.00013925137845154827 -1.0272604980066014e-05 4.827763271008844e-06 4.572995798192497e-06 5.211276257854649e-06 8.731144484631056e-05 -8.299133093162964e-05
0.155 -0.0001928247709170463 0.00017017555144390004 -2.110785794265639e-05 -3.6098036933809004e-05 -1.8321544660251138e-05 1.849725949088459e-05 7.718885916712771e-05 -0.0001258644425519425
0.156 -0.00014726959137588248 0.00017633757237589344 4.292072701116525e-05 -1.3270830746442316e-07 1.6179282689829507e-05 -5.4743669412953916e-05 8.01649867039588e-05 -9.088435155594696e-05
0.157 -0.00014022931099364874 0.0001257446541578481 2.499763457210885e-05 -6.23758860385958e-06 1.374618815903576e-05 9.859601739777137e-06 6.191341212692829e-05 -9.658772973064148e-05
0.158 -0.00018497384369860727 0.00018482257419670856 2.1605148573294527e-05 -1.2278596182064903e-05 -9.865010997896414e-06 -8.143017674204704e-07 8.758499214987011e-05 -0.00010303150666949515
0.159 -0.0001608038260847886 0.00018989663850704455 1.3424275184933367e-05 -2.962800669409054e-05 2.9046017658350523e-05 1.924080653547657e-05 8.12796343465722e-05 -0.00011570119351130074
0.16 -0.0001424482703673448 0.00023139079937636831 8.792467160885364e-06 -3.336840862020237e-05 5.110786633858821e-07 -8.17315576287756e-06 7.40599080362034e-05 -0.00014576816577308886
0.161 -0.00014887987702844432 0.00021570667637776822 4.261958528263179e-06 -2.3523142714540606e-05 5.4586289010410636e-06 -4.066938022327245e-05 5.2693378470699955e-05 -0.00013514608202018697
0.162 -0.00013418856987702313 0.00018280095182056765 -3.029950452356521e-05 -6.807878236417909e-05 -2.4761845872965905e-06 -7.643638660380734e-05 5.610198875953054e-05 -8.083537534184706e-05
0.163 -0.00011080013167571103 0.00017755961787655736 1.5607812148797492e-06 -1.1255835396479764e-05 -3.6121837038054566e-05 -1.478430158755138e-06 6.157583375149205e-05 -0.00013706742455199975
0.164 -0.00014036994462435654 0.00020679668987951647 1.233611856053245e-05 1.2555893647499743e-05 -4.1183059344086415e-06 2.2365022068740343e-05 2.329721354431615e-05 -0.00012838534519499497
0.165 -0.000142677548339367 0.00025326837613528076 -2.1454119763652752e-05 1.3006674826737378e-05 -2.074524100432505e-05 -1.1282066601852786e-05 4.732160171910418e-05 -0.00021127161804193462
0.166 -0.00012500263128732047 0.0002254382164983857 1.8147059374715896e-06 -2.1948091197918768e-05 -1.5402221970295296e-05 -2.4308097772931853e-05 3.9461464073636826e-05 -0.00011414915854288927
0.167 -0.0001527058662611377 0.0002316387083674979 -2.442616751903011e-07 -2.84099572410284e-06 3.635285506399062e-05 -3.2337232791499814e-05 5.875984933510099e-06 -0.0001971665822909655
0.168 -0.00012589913353393972 0.0002616995203091338 3.6872398235724855e-05 2.9268113857203933e-05 3.0640354109760955e-05 -6.19939172949474e-05 2.667274583585913e-05 -0.00017830519336030264
0.169 -0.00010837880764661724 0.00023564089107647285 2.9875778308044245e-06 -7.271473010164836e-06 4.266275604832454e-06 -5.932478049560669e-05 8.248216152406249e-06 -0.00012301599657872091
0.17 -0.00010272760127449399 0.00028915369909185 1.1775306211175467e-05 3.40455166455095e-06 1.1862209253260001e-05 -8.602963703880187e-06 -1.1613192780160918e-05 -0.00017662952834963282
0.171 -0.0001021214499399897 0.0002999663810650944 -1.4704739802591485e-05 -5.265963961294694e-06 5.422367685010078e-07 -1.934621699480469e-05 1.4409515901224818e-05 -0.00014986272809978273
0.172 -9.086598688645644e-05 0.000252487202606258 -1.532773119402431e-06 -3.242492170925737e-06 -1.0483586102811882e-05 -5.06373171647443e-06 1.5149207478290972e-05 -0.00017274928251081784
0.173 -6.799264703660169e-05 0.0003037535754263836 4.7884769891504956e-05 -4.564925422109952e-05 1.1163623704153533e-05 -5.069925410111582e-05 7.87305278248467e-06 -0.000182608000632492
0.174 -5.7654512978819864e-05 0.00029606788866593545 -2.2036753996236707e-05 1.6629452590429485e-05 1.5584766182122753e-05 -4.91363816249115e-05 -6.330950519360135e-05 -0.00018476394416675263
0.175 -5.758291290023028e-05 0.000290523876866178 1.7618343583816125e-05 1.3845412769274483e-05 3.563473701986693e-05 -3.813010191284291e-05 3.859890185393882e-06 -9.155708898960986e-05
0.176 -7.017404275863212e-05 0.0003330447102079339 4.73279548637102e-06 -3.6235461698546786e-05 -2.9810523219259688e-05 -1.3821777425950552e-05 -2.310474021229992e-05 -0.00015828657937841365
0.177 -3.1693216692169934e-05 0.00036027475050468954 5.253174192112187e-06 -3.19399341061736e-05 9.822001594379753e-06 -5.4678218700462844e-05 -7.170890467331397e-06 -0.00015805794602921248
0.178 -7.228226753790822e-05 0.00032499551240985897 -7.535726704574553e-06 -2.0469446546243345e-05 -6.77058149830962e-05 4.0593853353583295e-05 -3.486605826066612e-05 -0.00011714837785092736
0.179 -5.74106792869993e-05 0.00033853393433770136 3.1792838995408666e-05 -2.4552569020637068e-05 1.2313137162284428e-06 4.76649884855804e-06 -4.159353888811746e-05 -0.00014705733000333686
0.18 -3.529098187596002e-05 0.0003234622599693832 1.5257792571143062e-05 -1.3201427679562171e-05 -4.1815341857974505e-06 -4.14701264968338e-05 -2.1170348621931334e-05 -0.0001677829468888109
0.181 -1.9263115990889204e-05 0.00042781100941356086 -2.3264753784753345e-05 -1.5770860842953707e-05 3.219887928572136e-05 -2.4026951396868612e-05 -5.2350283650455377e-05 -0.00014587015318361264
0.182 3.7202747036984044e-05 0.000290224478907587 2.6285570754515536e-05 -5.683426227304095e-05 3.221582211986049e-05 -2.951228193329939e-05 -5.653475789737862e-05 -0.00015369577332116378
0.183 -1.8482261975528863e-05 0.00033642285274449303 -1.1587063457956901e-05 6.171087669487209e-06 -1.3203384189464115e-05 1.2960781480008058e-05 -3.9807107481234084e-05 -0.0001817857399660289
0.184 4.597583118501493e-05 0.00038197613336164835 3.696851559708262e-06 -2.032513057817563e-05 2.1188530388531015e-05 4.20052059975001e-05 -6.025616366199797e-05 -0.00012118603578412817
0.185 6.778016078314472e-05 0.0003332664325606176 -3.645691883909317e-05 -1.330302081812797e-05 1.7110569483824976e-05 -1.878959645301315e-05 -9.682556404199182e-05 -0.00017245295766054214
0.186 5.2453214492281725e-05 0.00037029270779761467 1.5348725361861243e-05 -7.059908356143095e-05 -2.079388977380323e-05 -3.93792315828963e-05 -0.00010686379984737591 -0.0001398589792558176
0.187 3.0327228438276578e-05 0.0003391831183357434 1.3599526215835446e-06 3.2332247148993905e-06 -1.1451141163796655e-05 -4.992635199432983e-05 -5.903394409437717e-05 -0.0001724777589415885
0.188 2.880777932342915e-05 0.0003673181850410943 -8.37744445491128e-06 1.4030777244721028e-06 -2.1149646455800935e-05 2.2111308835967832e-05 -0.00012331438323209904 -0.0001222095971737242
0.189 5.3043926495897926e-05 0.0003834960167715636 -3.666447538266091e-05 -6.89365664686388e-06 -5.003025947436826e-06 -1.8021243164819774e-05 -7.67799350500767e-05 -0.0001557210693008048
0.19 7.81334860280795e-05 0.00029247532652077547 1.9335847303645e-06 -7.372844022210169e-06 -2.7615671993268216e-05 -4.592472817946676e-05 -0.00017163561398581963 -0.0001393368751454749
0.191 2.6586115701624323e-05 0.0003805720286506762 3.835174044437588e-06 -6.618424098029361e-05 -3.458445262801118e-06 1.6490149514832432e-06 -0.00016658145265903703 -0.0001707675615866076
0.192 4.92024933420988e-05 0.0003993715022715642 1.6802561899771527e-05 2.273384860560186e-06 8.188219552029164e-06 2.7443599209263264e-05 -0.0001257659023601545 -0.00011074961694123727
0.193 9.24709137989616e-05 0.0003491977899257884 1.8718575588144e-05 1.2716094389561064e-05 -1.4091846450830622e-05 -3.674045949123805e-05 -0.00012673094968286054 -0.0001641602790308967
0.194 0.00011038752667701375 0.0003768091813599977 -1.8522663402798207e-05 1.3011155356761636e-05 -1.6743486154859719e-06 -4.909872506262436e-05 -0.00012982342201053293 -0.0001402118819032402
0.195 0.00015061062148848526 0.00043099935122379673 -5.2087021800813966e-05 -1.5862492370770425e-05 3.78754695475844e-05 -2.5126825819538153e-05 -0.00012995806891218448 -9.224442487690458e-05
0.196 0.00013215352038933712 0.0004194365315985526 -5.002172356628517e-06 -1.0010576953248204e-05 1.2746111977204049e-05 -1.3741604195909407e-05 -0.00011895589935513991 -0.0001435058937809423
0.197 0.00013908237767934083 0.00039224652000745307 3.430037783409537e-05 2.961218929015579e-05 5.8555511946679904e-05 5.815368820892984e-05 -0.00017645780751502594 -0.00015406959551253613
0.198 0.00016436435398072466 0.0003686947402283933 1.1528555454078371e-05 -1.8961062907137573e-06 -2.601534329581617e-05 -4.244019122087279e-05 -0.00016489657503829502 -0.0001037592915154036
0.199 0.00020741286759007115 0.00037241431892791105 -3.264900450065057e-05 4.647549842736108e-06 -1.2413754512324963e-05 -8.481986198017229e-06 -0.00013021423477629186 -5.810280791433051e-05
0.2 0.00019577668597208552 0.0003922988331974543 8.224909983914664e-06 -3.5159452708694948e-06 3.352521086753213e-06 1.3043915857842517e-05 -0.00016306759589061677 -0.00010937688562981435
0.201 0.00019843638690538102 0.0003523868990609264 5.705449034498247e-06 -7.526206224062327e-07 7.776578327522332e-06 -6.675653542997444e-05 -0.00015829825017146622 -7.897850374838589e-05
0.202 0.00021466280325907938 0.0003676274878635229 1.4437273605040467e-05 1.0786957354221195e-05 6.572818574376376e-06 -3.6053300635707154e-05 -0.00014751675799951696 -6.259341143201983e-05
0.203 0.0002364544845183539 0.0003412449881411585 -9.097854675774699e-06 -3.1118536997995566e-05 2.220565281631013e-06 4.0520651069308084e-05 -0.00020109061437927964 -5.482359397755447e-05
0.204 0.0002614252394226133 0.00035534374343460396 4.119113035327911e-05 -9.517856515072777e-06 2.6174290114658e-06 -2.2848691225784845e-06 -0.00013937741709853433 -4.122346286430587e-05
0.205 0.0002594609508925775 0.0003521453865577431 -2.266771605123022e-05 3.182587915477711e-06 -1.6751814605288653e-05 -1.5853523056513553e-05 -0.00018804399263151205 -9.215995749702863e-05
0.206 0.00025735864763984037 0.000322076747465213 -6.00741363679881e-06 -4.846204425228482e-05 1.2664162034120827e-05 -1.2329310312319548e-05 -0.0001543278269214806 -4.630974202854477e-05
0.207 0.00024639739618521086 0.00032582345969605345 1.4098408944266164e-05 -2.791152435014894e-05 -2.9565721432170404e-05 -6.297029809914232e-06 -0.00018036089149757993 -2.537314937330013e-05
0.208 0.00025985096987815354 0.0003178205212112553 2.304524234094213e-05 -1.2326525143890835e-05 1.3680011165111328e-06 1.8542876142347298e-07 -0.00017400016620763172 -1.5127417771549842e-05
0.209 0.00024555228080086163 0.00033841018892264666 2.6326132212537696e-05 -4.4024854253038355e-06 -2.068820753735909e-05 6.7251249756420525e-06 -0.00013717952260632152 -3.8103686020822754e-05
0.21 0.00032625641228845655 0.00033238601453463445 -2.614184267934104e-05 -1.9772041037602342e-05 -7.504873417547094e-06 8.284891255068827e-06 -0.0001682562688924151 -1.780043395972412e-05
0.211 0.00027157677930993276 0.0002989212901313631 -1.1476059226215734e-05 5.190307446708031e-06 -8.386484684412343e-07 -1.005129707535944e-05 -0.00015656118593267826 3.6511218202334046e-06
0.212 0.0003230203998600016 0.00031355850499232137 -1.6602744099253887e-05 -1.5272020272115606e-05 -4.004312184216705e-05 -3.174489992146166e-05 -0.00017432100087102435 2.852323252295683e-07
0.213 0.0003066805289898247 0.0002808478868730977 2.870707210249589e-06 -7.750460108160009e-06 3.8614952470769356e-05 -2.911290296308812e-05 -0.000193671492965549 -3.224663099681433e-05
0.214 0.00031138831386634617 0.0003618326574125961 -4.739753482536938e-05 1.1906811983073406e-05 1.6050417797647377e-05 -3.710004212396017e-05 -0.00016755421871713106 1.0982083704022582e-05
0.215 0.00036917087787790453 0.0002611306869166325 -4.4831848522820105e-06 -2.315669052106321e-05 -1.86397368418419e-05 -1.605216966819029e-05 -0.00015173897733978568 2.0271573036343497e-05
0.216 0.0003254220894060065 0.00024159028380690516 1.7483890039182063e-05 -2.531848715639188e-06 -6.49126291686644e-06 -2.845285464320789e-05 -0.00015856730254428745 3.3162540880665484e-05
0.217 0.00034483841718621573 0.00032782078894456575 1.3092962840714184e-05 -5.80648323607739e-05 4.024255061716421e-05 -1.158168862132045e-05 -0.0001729362879217966 4.039768154814135e-05
0.218 0.0003750803228536314 0.00027480407113494713 -1.302592669170943e-05 5.8891307631556906e-06 -2.8920549214329808e-05 -4.063294616139891e-05 -0.00016183585669798874 3.796756998101953e-05
0.219 0.0003437988789917463 0.0002528775358013207 3.022223228583814e-05 -2.5901441537107327e-05 8.981793632111272e-05 -2.035993554324013e-05 -0.00014596274997982894 6.508221783026261e-05
0.22 0.00041199538498442413 0.00026741318269328605 -1.9218097426842908e-05 -4.475657068626544e-05 -3.1828825064783677e-06 -7.722849565532619e-06 -0.00018758464162533262 5.687524854310869e-05
0.221 0.00034412503915328595 0.0002031003613135794 -4.7537575402191976e-06 -4.596917765849711e-06 1.8791326729613173e-05 1.6535491709596288e-06 -0.0001592738880234223 4.44981625961701e-05
0.222 0.00036603059051162966 0.0002175204294311105 3.6756709239211783e-06 -1.6968164489391523e-05 6.165969844931125e-05 5.092310289203752e-06 -0.00015569676740833616 8.57499057333543e-05
0.223 0.0003933022177285891 0.00023483511996927849 2.8231555201175288e-05 -5.8207352375256354e-06 2.4381808975164223e-06 -1.1489997324790068e-05 -0.0001352613204608245 8.042209453565148e-05
0.224 0.00035756746666600026 0.00022076408661827912 -1.1675197804642378e-05 -8.073460816137894e-06 1.9939811745746626e-05 -1.1419998927062479e-05 -0.00015592539324599052 0.00010198614064468125
0.225 0.00035477632173643454 0.00018480016180708427 3.914559467123403e-06 -2.5103096259436677e-05 1.000244300219401e-05 -2.731910841954326e-05 -0.00013102891948554133 9.421886498799231e-05
0.226 0.0004161372744752575 0.000237541030663364 -3.7464195952738206e-06 -7.37960966893468e-05 -5.4655893853411685e-06 -2.3615297494163598e-05 -0.00012939717232009418 0.00010702287761547041
0.227 0.0003954311321693756 0.00019960115495549067 1.5623075680507786e-05 5.080955751262015e-06 -2.9750514846165417e-05 -6.281351675061553e-05 -0.00014253739995767994 8.424917055469359e-05
0.228 0.0004079083358950982 0.00020738449565331314 2.8993414662040956e-05 7.284533678922925e-06 -8.494280022341718e-06 -1.2262296166708976e-05 -0.00011801988716632052 8.30467798542517e-05
0.229 0.0004490205266219418 0.0001322986412682705 1.0222527013953854e-06 -4.1874688262568756e-05 -3.349893176507832e-05 -1.0226669136617112e-05 -0.00013163489542445298 8.106152417353643e-05
0.23 0.00037560749897668253 0.00020018236819001033 9.348055959141235e-06 4.495782716790571e-07 3.370556830263381e-05 1.2713431391195232e-05 -0.00010406255127749247 0.00013741222785047894
0.231 0.0004298299105155064 0.00015995572719758368 3.8790827446642e-05 -3.5623166287155135e-05 5.156804619422343e-05 -1.56420359812477e-05 -0.00016942046995656025 0.00012440192160861872
0.232 0.0004862104852665325 0.00014494203148660579 7.513230487203324e-06 -9.007415115892285e-06 2.788685368888379e-05 -1.3607800088532055e-05 -0.00015346090690658698 0.00012524330876875317
0.233 0.000451750694818398 0.0001692362359217751 9.144219547839272e-06 -4.6168467296911414e-05 -1.482488207774789e-05 -6.682759774545784e-05 -0.00010646676681822902 0.00011470354827029065
