!Created with skrf (http://scikit-rf.org).
# GHz S RI R 50.0 
!freq ReS11 ImS11 ReS21 ImS21 ReS12 ImS12 ReS22 ImS22
0.13 -0.014048973899079076 0.012951257242748778 3.299315915167839e-05 -2.7953947524582004e-05 -5.467929879023593e-06 -2.843004679629116e-05 0.005413943476586697 -0.0010979721854347598
0.131 -0.013561596460067748 0.013646926435992088 4.41469784024153e-05 -1.0044824759632283e-05 1.653184744649811e-05 2.192139532738335e-05 0.0054233736090587665 -0.0013535244645121796
0.132 -0.013050373055737412 0.014331962193509202 -1.1729781647955633e-05 -2.3582644405014686e-05 1.9558490178349213e-05 -4.608565083240731e-05 0.0053586055019803095 -0.0017509163807690933
0.133 -0.012504591196138441 0.015005979975459952 1.6214841151280303e-05 -8.681587092321297e-06 -3.2373903282157e-05 -1.161843586713752e-05 0.0052927357250541615 -0.002062283666189655
0.134 -0.011886533088798454 0.015624950703609858 -1.3821253928000328e-05 3.414015238125727e-06 1.2433857197122231e-05 2.0429074912292875e-05 0.005154750977125197 -0.0023658343575324696
0.135 -0.01130541119832355 0.016171599257415414 6.046379788127863e-05 -1.574644830002905e-05 2.2025454252951633e-05 -1.0479348527526054e-05 0.005024534835695882 -0.0027288760785488127
0.136 -0.01072317401364222 0.01678903940490833 -2.460194212497122e-06 -1.6370647000590763e-06 5.414111273080461e-05 -1.1353338383029504e-05 0.004907895701121613 -0.002996642057190821
0.137 -0.010014396165417485 0.017312717296787763 1.4919143160540885e-05 -2.4123766381445548e-05 -2.276325288844705e-05 7.973668552805504e-06 0.004768708182031035 -0.003372140117914513
0.138 -0.009345283072781822 0.017839129878133735 4.612246117302211e-05 7.203578445412796e-06 2.429073309022897e-05 -2.6196833068657668e-05 0.004558005477670709 -0.0036454306225201676
0.139 -0.00859477434747563 0.018375918287990567 -6.903207621971829e-06 7.340331070548456e-06 -5.632723658572947e-06 -4.437348326280854e-05 0.004370032715027475 -0.003956698572764412
0.14 -0.007882476973828321 0.018801168179644275 6.252495009662441e-05 2.59786245899847e-05 2.351615462416039e-05 2.7301249455133055e-05 0.004167541403551887 -0.004242945673368989
0.141 -0.0070965225275954145 0.01928453763448702 3.5048647755471095e-05 -3.2676692336610266e-05 1.4154348655779959e-05 -4.382679326689587e-05 0.003951304588623727 -0.004569625436971622
0.142 -0.006333710156117473 0.019620520005756075 2.3203761897401934e-05 -2.3697810127408164e-05 3.42224974035036e-05 -4.525357856499339e-06 0.003638529190780508 -0.004764314582054219
0.143 -0.005575449435631842 0.01998795491772441 1.2090135336997308e-05 -2.366341177538016e-06 -3.4777336211457367e-06 -3.575985118286758e-05 0.0034010916464150606 -0.004972185068254163
0.144 -0.004738000954898517 0.020338987997705255 3.5754893708704335e-05 1.528865618685772e-05 3.1612213689950725e-05 -4.272739919239753e-06 0.0030846421024592835 -0.0052370913586427155
0.145 -0.003888691299784926 0.02066680399431833 1.8496784280722794e-05 -8.179453411397951e-06 1.900591610999926e-05 -2.30352140586709e-05 0.002797043953817465 -0.005488120302514158
0.146 -0.002957281303915868 0.020959197766728895 1.4099936841218563e-05 1.2506309782929577e-05 -2.5991066293557943e-05 -2.751633056662502e-05 0.0025370040501867946 -0.0056494159593589634
0.147 -0.0021001664960961486 0.021219527121089123 -9.25412275749805e-06 1.686531162386906e-05 -7.502551390185666e-06 -7.850114325400288e-06 0.002177474290560345 -0.005768702715184634
0.148 -0.0012405516538652101 0.02140840771672386 2.70247582651568e-06 -1.6551146340179566e-05 2.571786057418131e-05 -2.065229896369691e-05 0.0018064909553519339 -0.005965449826447217
0.149 -0.0003261121702405574 0.021544849558737936 5.031331588065867e-05 -7.927535601029897e-06 -1.8402563163568785e-05 -2.1654027113147617e-05 0.0014643460927154558 -0.0060921210077695635
0.15 0.0005830727214338298 0.021646277513158334 9.504329343846809e-06 -2.7511148814800907e-05 -3.7032519381585605e-05 -3.6760843910417154e-05 0.0011114405223129832 -0.006228768384507934
0.151 0.001537460011077649 0.02179451703511598 2.9230220197199158e-05 -6.355372265215237e-06 -2.3186648031668448e-05 -2.5193218840568585e-05 0.0007453114628107229 -0.0063452807720248
0.152 0.0024827810353305352 0.021817538424618612 4.68110158814979e-05 6.705424103141796e-06 2.4952208378054338e-05 5.6125942505807336e-05 0.00041935963452553076 -0.0063189741550675575
0.153 0.003455768724317805 0.021799626417638118 -1.000675063763677e-05 4.493452429269168e-05 1.7095504344140268e-05 -1.0148676061502785e-05 1.176404909075775e-05 -0.00639079918531915
0.154 0.0043975917956291305 0.02172857023974494 2.6819564514143105e-05 -6.6293613941468585e-06 -6.769994100978442e-06 -3.263727521531092e-05 -0.0004200996648286072 -0.006409482300513081
0.155 0.005255014661258074 0.02170608653870624 9.809739921437624e-06 -1.8333185766961298e-05 1.0029076100257437e-05 1.4030021006370367e-06 -0.000784451170289269 -0.006396051948313019
0.156 0.006266338878813384 0.021591955234332494 1.075753202541169e-05 6.136691086508579e-08 -1.7177039876969645e-05 3.6659944302507685e-05 -0.0011296088889356352 -0.006398677159104128
0.157 0.007244736340822276 0.02136623092511534 -2.690042463575401e-05 -1.5036064692572293e-05 -1.9159826455131143e-06 -1.1835769404793044e-05 -0.0014944441343387445 -0.006344738398734365
0.158 0.008117135963940966 0.02121067061988792 4.873311523315353e-05 -5.7446647521205924e-05 6.79006050077725e-06 3.8430065044397975e-06 -0.0018381604957862427 -0.00620086827269457
0.159 0.009067371693816809 0.020986425873693686 2.839943019500366e-05 3.3094001021038316e-06 4.022732845803941e-07 -2.226335742507972e-05 -0.002223397853807335 -0.006159645167899022
0.16 0.010033401640667869 0.020689533426192015 5.469131093391122e-05 -6.085339569369015e-05 1.3800998429172802e-05 1.534859234142423e-05 -0.0026669457586202586 -0.0060948809960985634
0.161 0.01100512656183783 0.020406397078471607 4.253464567515908e-05 1.040547229062351e-05 1.112990275977518e-05 -9.556472700812842e-06 -0.0030115164660522004 -0.0059164156166547546
0.162 0.01188982059035271 0.02001603514788457 -2.9979339068276567e-05 -1.3171712644567647e-05 4.181718062955869e-05 -9.818809486776553e-06 -0.0033548164365486263 -0.005804313617205705
0.163 0.01278455507145645 0.019632234054955434 4.132006409065948e-05 1.077217084816797e-05 -1.8671073382253888e-05 -2.7571391139134547e-05 -0.0037442084901873457 -0.005555918412438668
0.164 0.013763319983103667 0.019177680123282196 -1.5424845803753512e-05 -2.852951509842747e-05 -4.578195763513653e-05 -6.33761930975963e-05 -0.00405237681719335 -0.005387613989934242
0.165 0.014680957449218917 0.01866454656348385 3.136462508392798e-05 -1.2854078724258567e-05 -6.018276694290205e-05 -7.734514912627655e-05 -0.004365627583136068 -0.005196993225578772
0.166 0.015522950771541354 0.018097449090879278 1.9274683700742792e-05 -3.55255383198269e-05 2.2665754422565306e-05 5.093011867132871e-06 -0.004739873479612978 -0.004931106317781183
0.167 0.016361831740104048 0.01755191323127028 5.370186717681444e-05 3.0357541113319085e-06 -1.1483045128592105e-06 -1.4303799494206724e-05 -0.005081764749720662 -0.004627344453600766
0.168 0.017275872687215067 0.01696075382522898 3.496588482237758e-06 1.3343768160420927e-05 2.3103367517261736e-05 -7.809614217040904e-06 -0.00531179528465531 -0.004333883264681102
0.169 0.01802987631272555 0.01622972252638164 3.213508281537692e-06 -1.8349044992269655e-05 1.753379036950048e-05 -7.266238504451942e-05 -0.0055843672805094636 -0.004085268374346422
0.17 0.0188263095441207 0.015544018679313794 8.03713089549159e-06 2.876002804347275e-05 -8.522624177289723e-06 -2.650636688536832e-05 -0.0058612285644658434 -0.0037430091735913412
0.171 0.019597097029560508 0.014814658262315272 3.065556919344712e-05 2.3218811838031344e-05 -2.6860874522347003e-06 -2.033856644550296e-05 -0.0061158787718455804 -0.003373753150130785
0.172 0.020301084274325924 0.014004575692534726 -7.41880890979988e-06 -4.541656783877337e-05 5.287599016306558e-05 -4.406814307825888e-06 -0.006324306771794705 -0.002984845306000867
0.173 0.02107348650124898 0.01323018690474898 -2.8092654901695064e-05 -3.2228045206867936e-05 -4.195747471232727e-05 -2.560152966933054e-05 -0.006526501679342045 -0.00271484123382988
0.174 0.02170223910449566 0.012417104775884914 4.103144684035347e-05 -3.922118164820209e-06 2.123265267128841e-05 -1.3887643676982477e-05 -0.006672049307182764 -0.0022892328905914756
0.175 0.02233667998189465 0.011500774451108472 3.8357174494914387e-05 -1.0545915594219665e-05 8.396152225608054e-06 -1.803127617621243e-05 -0.0068110065599277375 -0.0018998653357457736
0.176 0.022924517468550135 0.010574033102870145 1.4457708081226068e-05 -5.4758449172830805e-06 3.552554917972933e-05 1.2877467225525815e-05 -0.007032808879598372 -0.0015179374801159533
0.177 0.023514568974442786 0.009676724102688848 2.254358555394239e-05 2.0979172743458203e-05 1.435035401754105e-06 7.582908445325035e-07 -0.007059062835025155 -0.0011012783491969635
0.178 0.024022039034911048 0.008674745767450455 3.149776646842487e-05 -3.099078237714971e-05 6.463056916169892e-06 1.2278155628229748e-05 -0.007185708815385727 -0.0006523700999262621
0.179 0.024551707050060868 0.0076143324180154605 2.0536046911392576e-06 1.062675605296002e-05 5.2958038422635225e-06 6.241405160088922e-06 -0.0072267659558113125 -0.00035107724870383957
0.18 0.02493713687959595 0.006555856721523832 2.6610225520573568e-05 -2.377009805178922e-05 -4.1340303547836024e-05 1.392843311059594e-06 -0.007269926877157714 0.00014077970847817763
0.181 0.025340342618790566 0.005567315458840053 -1.1358056315223745e-05 1.7809815091422178e-05 -2.1861914474420283e-06 -3.550555530657122e-05 -0.007336794850884835 0.0005623217367229947
0.182 0.02565550113890369 0.004508654301125101 2.9668924629191234e-06 -1.9051538372484215e-05 8.727272988931857e-06 -2.1537319300453452e-05 -0.007273902891043204 0.0010071134989613798
0.183 0.025975549058228204 0.003402406740332945 2.9545009484762523e-05 -9.398063417637007e-06 -8.275497723435757e-06 -4.3036498173856934e-06 -0.007280358017724749 0.0014708704830450558
0.184 0.026225361769981713 0.002257717669054294 1.0000396975463785e-05 -4.405583771461152e-05 -1.6369987454266414e-05 1.960108546876773e-05 -0.007199551790121663 0.0019028337777294696
0.185 0.026410284442394738 0.0011838803226502817 3.0072141853404676e-05 -2.6813824132846703e-07 -1.7796748344545227e-05 -3.2355442390602556e-05 -0.007085099187672022 0.002330960898037223
0.186 0.026577942653022105 1.9110965830227344e-05 1.7113394279863804e-05 1.1185032311939242e-05 2.7442402319394768e-05 -5.082735147922045e-05 -0.00697279048601986 0.0026973505831235194
0.187 0.026727221947513393 -0.0012051627371628228 1.9344831580410292e-05 3.207373194869534e-05 1.6368648916324267e-05 -1.4254539352697616e-05 -0.00686421931279363 0.0031440436553029716
0.188 0.02677886329378944 -0.0023326141075800883 -9.143101764229929e-06 4.6272793417401646e-06 2.3508401678659246e-05 -6.0610729092596414e-05 -0.00666724215927597 0.003604729414023056
0.189 0.026746576503006794 -0.0035152246833972797 1.0576930727352324e-05 -4.336518503113236e-05 1.1020790137800721e-05 -1.107200166142643e-05 -0.0064827605775377006 0.003965349079742506
0.19 0.026708394313995666 -0.004693922605692515 3.118008009370505e-05 9.198975929867732e-06 -2.3770272228943883e-05 2.6941338977904985e-05 -0.006271607093386261 0.0043507686506559
0.191 0.026576713219170118 -0.005828502420546173 8.820932132174453e-06 -2.9057320250171928e-05 -1.5961487163892524e-05 -7.925521327601308e-06 -0.006067861266625364 0.004775471886923731
0.192 0.026420113464628442 -0.006957520744297067 2.510344835840147e-05 -4.898312599845325e-05 -3.524301166885351e-05 3.665325379520253e-06 -0.005800738289430937 0.005160329245538788
0.193 0.026225883611885208 -0.0081560976103196 -2.6149632734671098e-05 -7.398059783144155e-06 -9.87826955124233e-06 -4.4644411256280754e-05 -0.005514052130719405 0.005467632610189381
0.194 0.02594159970670718 -0.009359434143619215 -4.257712577304436e-05 -2.217162811105655e-05 -2.1789257267837063e-05 -6.902804605842097e-06 -0.005209859776693005 0.005870907950366889
0.195 0.025627154075393364 -0.010539967227360112 3.01087755886942e-05 -6.558126436930669e-05 8.669870466300961e-06 -5.806283837390251e-06 -0.004875676157557494 0.006212595730482596
0.196 0.025211344511670324 -0.011659081375620687 -3.5680812811712275e-05 -7.849015903722201e-06 -4.397861607762077e-07 1.5695994556287466e-06 -0.004467147094898107 0.006445932213905716
0.197 0.02480940712617314 -0.012785710723494935 5.8667082711695246e-05 -1.9985071619963953e-05 1.2635650223830841e-05 1.408440079548103e-05 -0.004180573652721067 0.006732117299607746
0.198 0.024326213184877318 -0.013977932905718119 1.0056738012417605e-05 -1.192888828956369e-05 4.466970437063493e-05 -1.658253419558929e-05 -0.003747473989099988 0.007046814460580178
0.199 0.02389496461012489 -0.015045869753271936 1.772955101064094e-05 -3.094922300236433e-05 -5.425649850954415e-06 -3.4423267206828704e-05 -0.0032913072423811345 0.007285199371587471
0.2 0.02324031643496146 -0.01609892249563688 -1.750531527953609e-05 -2.138374639714829e-05 -4.009297410460815e-06 -3.529622009466402e-06 -0.002872889902920868 0.0074856594401758285
0.201 0.022652310501307303 -0.01717165606346567 4.597302694324606e-06 1.5136698980656996e-05 -1.9554445235560435e-05 -2.9282579345527347e-05 -0.002441988248919438 0.007710157841247873
0.202 0.021966892337962594 -0.018230435722400733 1.3935739355011437e-05 2.1549103833096817e-05 -6.204750581650498e-06 2.812389912153649e-05 -0.0019961747594729605 0.007880220570517599
0.203 0.021255301679789233 -0.01922776110255895 3.3595827757007604e-06 -1.4744445812915159e-05 -2.560969876368554e-06 -1.7378926715682808e-05 -0.0015116312781713185 0.008009660318793861
0.204 0.02045665667169727 -0.02021127729839626 6.701770843451535e-06 -3.974848870142068e-05 -3.4662620349961404e-05 -2.3387109979169026e-05 -0.0010485471445107189 0.008118430269604685
0.205 0.01967791041873239 -0.021156854547680782 3.293819602996236e-05 -1.6193099692806164e-05 -1.767756945552695e-05 -5.152541619173017e-06 -0.0005539431294251726 0.008219670957071466
0.206 0.01880746643338724 -0.0220572293431317 3.160707627286842e-05 1.4654102459205785e-05 -4.071308475113281e-05 -2.355014252382613e-05 -0.00011545094302333682 0.00830045522302027
0.207 0.017874170395332494 -0.022918126071484083 5.0887087469459805e-05 -1.7527650560864806e-05 6.6241179115731864e-06 -1.389262674114032e-05 0.0004293429274208729 0.008289670319803148
0.208 0.016941154352882005 -0.023714695028726578 1.3703165385054502e-05 -1.2558356418396908e-05 6.062892677872201e-06 4.491103967603047e-06 0.0009231272405747906 0.008282877309302984
0.209 0.01593326217224241 -0.024487530366576627 7.246588944046414e-05 -6.23803698772066e-05 1.2097227084867001e-05 -6.578139756116538e-06 0.0014349341034258789 0.008239711109427103
0.21 0.014924174030760429 -0.025312536673360777 -1.868588748537854e-06 -4.1625452123669655e-05 -1.4082140040089137e-05 -5.546440838765978e-05 0.0019320345431498881 0.008185044592354406
0.211 0.01391539673034562 -0.02607448403835351 -1.9614129607526784e-05 -3.076486847941665e-05 -3.629138854266078e-05 -4.135963916550004e-05 0.002483767005445874 0.008112165883365618
0.212 0.012796834307956905 -0.026669846847365716 -2.995806391530021e-05 -6.154022581695583e-05 1.6149417430734155e-05 2.7167909013990158e-05 0.002942773351969108 0.007985117671554678
0.213 0.011721573061467363 -0.027339212660628633 5.088953612664075e-05 -1.4766155226009805e-05 1.6628600109975677e-05 -1.4408312910415664e-05 0.003470073929643327 0.00783990048849907
0.214 0.010577013173230237 -0.027969336749249365 2.085421233978617e-05 -5.526579104439239e-06 -1.4477161466917611e-05 -1.9008829634947196e-05 0.0039028432897081212 0.007644937591588116
0.215 0.009407828191044255 -0.028484422248120568 4.039626612100964e-05 -9.829748724194027e-07 -3.044526114746982e-05 1.6428443561960544e-05 0.004366469012914325 0.0074668225538805175
0.216 0.00816253241811251 -0.02904825639875841 2.3723127528247253e-05 1.8470808371896515e-05 7.59786140799118e-06 -2.518891381239629e-05 0.004800757249913814 0.0071832506106374915
0.217 0.006948590746459834 -0.029383869456636378 -3.203236073808679e-05 -3.3306539313161644e-05 3.452711150749491e-05 7.332506052703621e-06 0.005297086634348475 0.006880929978853522
0.218 0.005655335502786388 -0.029776431913541027 3.104884180817027e-05 -7.74499947792199e-06 8.521072900977495e-06 9.39254291498049e-06 0.005752931807241921 0.006614347115690616
0.219 0.00438179928813224 -0.030162817480616538 2.7654923968028326e-06 -4.2325905607381266e-05 7.892803097701246e-05 1.86564493570871e-06 0.00616807423195472 0.006309291214667997
0.22 0.003114912903564151 -0.030393664155062533 3.6577601164009285e-05 8.865288839234922e-06 1.2988050970126703e-05 -1.969419924808386e-05 0.006547748241805295 0.0059178853684041695
0.221 0.0018050040703129404 -0.030642799670276163 3.987289655708013e-05 -3.790259869869506e-05 9.60716676274296e-06 -2.0456799584958698e-05 0.007003102316582727 0.005526609349830994
0.222 0.00045983365785241223 -0.03079547915471489 -2.7727999038559144e-07 -2.2345364883017203e-05 2.0032152272624025e-05 9.637123564323484e-06 0.00734550838387074 0.00512623359175795
0.223 -0.000831771229857297 -0.030957494006926062 4.468868816718243e-05 5.265120243540123e-06 -1.0478890899101516e-05 -2.0712386802213846e-05 0.007665579465209042 0.004663394286949894
0.224 -0.002252522832154637 -0.030997557171421858 -7.74610671043668e-05 2.5992550922041874e-06 5.280643124428555e-05 2.610393959106126e-05 0.007958332150786356 0.004187254288407097
0.225 -0.0034966449489296078 -0.03097122376131198 -1.4997774973255447e-05 -1.0725602548685299e-05 8.629817199207966e-06 -3.3614724526186605e-05 0.008176321669237818 0.0037620723745672843
0.226 -0.004933633622058812 -0.03097204822369703 4.5711829095750615e-05 2.6799494548669725e-05 6.15280399506927e-06 -2.3591963294161497e-05 0.008470200908175607 0.0032393194768688544
0.227 -0.006303209745341791 -0.030862775234766056 -2.352666702563806e-06 -5.5091534933778166e-05 -2.605935685696769e-05 -6.468956077578924e-05 0.008711157193876193 0.002728835053854514
0.228 -0.007645911321567387 -0.03064827170577916 1.620796204973546e-05 -1.0139385971091883e-05 1.5255733092476134e-05 -2.706334658122453e-05 0.008878878833517541 0.0021991313173092045
0.229 -0.009015921190715181 -0.030323330715132785 8.232523329809677e-06 5.312810459101217e-06 4.334205618684218e-05 -1.0250542128709976e-05 0.009031744442381489 0.0016488690420833475
0.23 -0.010356944389046484 -0.03006543242374869 -1.205573811459814e-05 -4.906484468049116e-05 3.777574172819948e-05 -3.7370999197110316e-05 0.009155017084768013 0.0011057652146038357
0.231 -0.011640606881609712 -0.029669978592123683 -1.786661242902228e-05 -6.777412831499321e-06 -1.2861949992431733e-05 -4.181450795905005e-05 0.00920796261860039 0.0005586148951841573
0.232 -0.012899913546756292 -0.02920917841393057 2.7223664148469432e-05 1.027507704027173e-06 1.3098038778939045e-05 -3.4621544291392006e-05 0.00925492493607137 -1.1756795127213043e-05
0.233 -0.014356303562321369 -0.028828736330439093 4.702393759479696e-05 -6.561710450930948e-05 -5.2096960342037844e-05 1.4081228107419968e-05 0.009292706886584984 -0.0005139346228237605
0.234 -0.015460673943340815 -0.028158320845150745 9.211716111410475e-06 -4.647600030089663e-05 4.147135996381225e-06 -1.0655739052158134e-05 0.00933471276246017 -0.0011009642867441142
0.235 -0.016811565142562726 -0.02762809764602761 -4.227135083890204e-05 -2.7904256589119414e-05 -2.4802765592144636e-05 5.786759747959863e-06 0.009193214231651198 -0.0016697675566356288
0.236 -0.018113368135938862 -0.027008802804651177 -1.0775119985593185e-05 -1.488182648981439e-05 -1.7032461417709084e-05 -8.92269827408075e-06 0.009138876387499328 -0.0022401488654808215
0.237 -0.019241577065419565 -0.026257212987947618 9.669797467532997e-06 -5.6715528604409185e-06 3.456676062643879e-05 -1.2995211839991187e-05 0.009043083675679997 -0.00280001141392124
