!Created with skrf (http://scikit-rf.org).
# GHz S RI R 50.0 
!freq ReS11 ImS11 ReS21 ImS21 ReS12 ImS12 ReS22 ImS22
0.13 0.013835836806759306 -0.01279408997637963 -9.424189895938426e-06 -2.2252599373827585e-05 7.719472642901427e-06 -1.7896867409576325e-05 -0.005194466354089097 0.001091539220717179
0.131 0.013373068812206559 -0.01348200775218177 -2.1274078477518968e-05 6.226014381978691e-06 -2.4306473631409355e-05 -1.3551391946789058e-05 -0.005119375412373417 0.00142273583741014
0.132 0.01287716751510428 -0.014146590081866207 5.784853176583973e-05 -5.3233770628147934e-05 3.31879862947176e-05 1.501342470959595e-05 -0.005087796165352906 0.0017317174456423672
0.133 0.012333907215489036 -0.01488246351446375 4.6565398701709443e-05 6.116733767595684e-05 -2.3168700454027844e-05 -2.988910041412865e-05 -0.005062561420096493 0.0020438017958712396
0.134 0.011791747871569558 -0.015511324899774597 3.4692665412524864e-05 2.0308309103149197e-05 5.492217139449704e-05 -5.032345366163404e-05 -0.004909978694745406 0.002412184880173544
0.135 0.011175369047119393 -0.016033255897246523 3.9184491920951486e-05 3.431664457047968e-05 3.2289056553600746e-05 -3.7729802128450614e-06 -0.004798244815516688 0.0027190364004160967
0.136 0.010490407318774212 -0.016657728533961948 1.384691220088111e-05 -3.5317455745208477e-06 2.0511582163136244e-05 -1.5630500741798437e-05 -0.004650591028237423 0.002947620205699543
0.137 0.009835381683479884 -0.017216521535084697 5.527284082331405e-06 -1.944594164527116e-05 2.418161339748787e-05 -4.600734953717151e-05 -0.004510300878459968 0.003281625889442506
0.138 0.009089683334305364 -0.017755634048117613 1.3818706131433513e-05 1.8066890502401335e-06 1.718387380035606e-06 1.558249007681364e-05 -0.004312187629413127 0.0035458143189003337
0.139 0.008368311965411546 -0.018256927785185038 3.060817850501901e-06 6.152700972721765e-06 3.954999673760694e-06 -1.2487231156936168e-05 -0.004121683846767345 0.0038582687028655607
0.14 0.007637237985442528 -0.0187590667649642 2.613460287735286e-05 -2.868145990413303e-05 -2.0832698702950338e-05 4.469709150098485e-06 -0.003936062610014242 0.004109420580945946
0.141 0.006890784578187273 -0.019151360562984613 9.811979299530895e-06 3.82433643303034e-06 4.9486776087886204e-05 2.5512982707224307e-05 -0.003692764715964536 0.004350028132254282
0.142 0.006067857820108741 -0.019593569142822145 7.168561328733822e-07 -4.0750233724828724e-05 5.017969256842022e-05 -8.613202921249765e-06 -0.003464390018730265 0.00462489509425912
0.143 0.0052387103706268935 -0.019992097154224047 2.6645045117470473e-05 1.1871301867323058e-05 -2.5508750379935092e-05 -2.5314710153848906e-05 -0.003200141718884985 0.004853557668606733
0.144 0.004353561697988492 -0.02031160470880393 3.6084730362886674e-06 4.770648151603134e-06 -6.677012596972235e-06 -5.576228165868734e-05 -0.0029380533294471154 0.005090460480010565
0.145 0.0035017041028285252 -0.020554997196616832 4.494744046673601e-05 -6.679391836631187e-08 1.4995297055116527e-05 -4.235458925728319e-05 -0.002623263193618134 0.00529395106094678
0.146 0.0026525253716453636 -0.020827867435519336 3.558501635086214e-05 3.342020719887382e-05 -7.846309735749628e-06 -5.037845675160014e-06 -0.002350206587180052 0.005423295588096256
0.147 0.0016763808273992052 -0.021152930485348564 8.145450075221698e-06 -1.136941795614172e-05 1.0744472331643884e-05 -5.9302256081006344e-05 -0.002034828905235943 0.005634832501299847
0.148 0.0008163575333615074 -0.02125794367838802 -3.897612536946158e-06 -2.4192065176693976e-05 -7.473552057767938e-06 -4.367188161354058e-05 -0.0017101614999225966 0.005743200851353188
0.149 -0.00015174325477046633 -0.021400867372025515 6.0208287502541194e-05 -8.959374890663304e-06 -3.706475078010451e-05 2.0631299574971325e-05 -0.0013262058376910825 0.00591151834716142
0.15 -0.0011278171175983622 -0.021491996895806557 -2.8599793274235507e-05 1.1741476455348765e-05 -1.7751883627110206e-05 2.3315206241729766e-05 -0.000992296453653092 0.006005156124874549
0.151 -0.002017416931212047 -0.021583893315848156 1.5334937949030218e-05 -3.0629454934707857e-06 -2.7588419176652047e-06 5.040596620624355e-05 -0.0005955403691629801 0.006080620284038054
0.152 -0.0029612011559783063 -0.021560446109702123 -6.04424814675549e-06 1.630146067528928e-05 -7.202731051045736e-08 -1.0671316645585508e-05 -0.0002516964556876244 0.0061909076827379415
0.153 -0.0039038311458128383 -0.021546520588469068 1.147356600971408e-05 4.101116753564313e-06 4.924801475575597e-06 -1.4320797306253214e-06 5.349257290013952e-05 0.006177909056910906
0.154 -0.004882443597662119 -0.021482020676107272 1.9363700006319177e-06 -2.769138112854615e-05 4.108477283263116e-05 -6.0562702431070484e-05 0.0004539743459937904 0.006247259980419736
0.155 -0.005889352477591727 -0.02129833102595796 -2.7280645089086813e-05 1.2531474127760665e-05 1.4990304830740285e-07 4.071714702380167e-05 0.0008983579536468468 0.006258956436600407
0.156 -0.006848508921799862 -0.021160963077261535 5.797631637514731e-07 -6.802878101124131e-05 -4.070979751922632e-06 -6.488991705259011e-05 0.0012771259389194073 0.006199353261103983
0.157 -0.007778951240109477 -0.020971217504085322 1.7029265889235612e-05 -2.358555233633882e-05 1.8700806840194658e-06 3.4210419893678176e-05 0.001610972183744601 0.006189114791439864
0.158 -0.008696265183080592 -0.020766022310006713 1.682682935631969e-05 1.1968740479367e-05 8.14774845133916e-06 3.0567695286056198e-06 0.002047801641890011 0.006098119378769543
0.159 -0.009633733272485385 -0.02044088390374769 2.865573383430021e-05 -5.071414314806599e-06 3.3643349661900773e-06 -1.9042131624103464e-05 0.002383931579502859 0.006002702892958667
0.16 -0.01053439811399687 -0.02014241712288374 -3.7125568883934787e-06 -3.127589090794859e-05 4.7439719997787944e-05 -3.009981053455162e-05 0.0027486379717366143 0.00590077388201746
0.161 -0.011441632776798615 -0.019727311568302666 -5.401164936286891e-06 -5.753186251851552e-05 -2.1495198632043048e-05 -2.079735821492046e-05 0.0031149886948292375 0.005768474867072825
0.162 -0.012388326181931794 -0.019294486294053875 1.3776668622441381e-05 9.151707576949702e-06 -4.045400281704166e-06 -3.245315876965745e-05 0.00342560595176512 0.005587087873456228
0.163 -0.013262598557026096 -0.018872409922946143 -3.4936538781031977e-06 -4.351853015897085e-05 -3.880038930173639e-06 -8.468027781182635e-06 0.003861149691005755 0.005411571259782542
0.164 -0.014175002012005765 -0.018408172911577744 2.9853851610002983e-05 -2.042223121131759e-05 3.0337642214139288e-05 -4.065590325259462e-06 0.004199666495714813 0.005159130833108478
0.165 -0.01507024085100999 -0.01780661041293663 -2.0592952738073498e-05 -2.042405602642358e-06 2.2743236032594314e-05 -5.266878934688911e-05 0.004532789489841968 0.0049216886808789995
0.166 -0.015896121298997458 -0.017215154537147767 2.9993817232169028e-05 -3.0503205129647727e-05 3.3714491501181e-05 -6.287417303884686e-05 0.0048559131644875225 0.004678755685063015
0.167 -0.016694323708860443 -0.016617107160383032 -6.386081829255897e-06 -3.986267998367697e-05 4.13316277171026e-05 1.3231134994490047e-05 0.005130467307009786 0.004395765035753732
0.168 -0.017516956992498497 -0.015959300096280965 2.597852266470643e-05 -4.487945346863566e-05 4.328661454483656e-05 -5.3881306619905926e-05 0.005445260613667812 0.004157101617465943
0.169 -0.018289920706078235 -0.015249575917579578 2.4917763775089963e-06 -2.0385803900595444e-05 -2.270774470928467e-05 -2.111172690788382e-05 0.005776750197144996 0.003712668998028277
0.17 -0.0190278426955288 -0.014547062025196589 2.61281127859603e-05 4.3541617360993065e-05 2.5128586636415616e-06 2.118154606406519e-05 0.006018824039722419 0.0034853728700180767
0.171 -0.01970063781456566 -0.013830595852076761 1.2263619424428824e-05 2.8199136122443126e-05 2.5692083669243345e-05 -2.8222859387126246e-05 0.00620969491996417 0.003066494302661635
0.172 -0.020402565736423135 -0.012974413770594734 3.0047727978098188e-05 -1.103924924891699e-05 -2.007026652023279e-05 -9.285723203508591e-06 0.006511086169305976 0.002762613433157723
0.173 -0.021022623340557205 -0.012114495941690617 -6.591996247797266e-06 -5.56954950819031e-05 5.9321260835233305e-05 5.9301042575654516e-05 0.00664187093488675 0.0023368599295625126
0.174 -0.021629307203220885 -0.011300769898348686 -2.014303819567857e-05 -2.5814546575987104e-05 2.3187023226875588e-06 -3.991998330143829e-05 0.006844444377009697 0.00196210785195886
0.175 -0.02219210066828922 -0.01039627758406621 1.2633456808095442e-05 1.8028625519138805e-06 7.013386840010445e-06 -5.0275848009696374e-05 0.006959976313612364 0.0015767524801625576
0.176 -0.02267870198022364 -0.00945184466619898 3.222264736497654e-06 3.237673410230267e-05 -1.0825763198535401e-05 -3.7397620698315365e-05 0.007084553740245912 0.0011157092997862597
0.177 -0.023288785065126785 -0.00853400940897217 -2.8917230355118514e-08 -1.0345090743302243e-05 -2.1698799295861582e-05 -1.9520750923587233e-06 0.007197272461305336 0.0006876022442996891
0.178 -0.02370237296105822 -0.007533778255610707 -3.356214617024189e-06 -3.093769885714004e-05 6.743604762934662e-05 -5.0242398290732715e-05 0.007263759543197862 0.0002797367295631881
0.179 -0.024130234395019226 -0.0065609862203356495 4.040702967759426e-05 5.879259300273508e-05 -3.464605715390995e-05 -1.7356544139464323e-05 0.007280767028275483 -0.0001586573916946498
0.18 -0.024522391070443742 -0.005580493717725213 9.310817945059463e-06 -3.5810831700835356e-05 -2.2361216828993516e-05 5.5008481535931835e-06 0.007313058761919652 -0.0005568980336242692
0.181 -0.02479945127157205 -0.00454386156525634 -1.0943280548035964e-05 -4.532332317532322e-05 -7.975193737662529e-06 4.4137768520033095e-05 0.007300178877743224 -0.0009945246047155646
0.182 -0.025161085024408485 -0.0034906896938727 -9.601110520930424e-06 -4.498865886941955e-05 3.4356192311191163e-06 1.463078667726371e-05 0.007301659147587265 -0.0014810038038025667
0.183 -0.025314051100932936 -0.002472307189499332 1.2698459311800971e-05 7.300325246614984e-06 2.9338300300667297e-05 1.2222095981806747e-05 0.007209032155230446 -0.0019163858799488502
0.184 -0.0255845787805316 -0.0013373328454129585 1.6111950975830616e-05 -1.3754446518073097e-06 1.2848475706536276e-05 1.6939708572108802e-05 0.007139504427909169 -0.0023850566686638964
0.185 -0.025737405883734663 -0.0002597039937520798 -6.1212345826603895e-06 1.7104028236817338e-05 -2.739101418717816e-05 -1.7219846714059274e-05 0.007033969908230003 -0.0028089102336161798
0.186 -0.02585981895784649 0.0008606825307782587 -4.6556412324844627e-07 2.968784474259324e-05 1.8964513397594776e-06 -9.031037365859856e-06 0.006822390989666518 -0.003252686319452533
0.187 -0.025947064765289185 0.0019602206064088814 4.9418542507921134e-05 1.3685927947373274e-05 3.7843002593127905e-05 2.7071081259054846e-05 0.006660327788065446 -0.003656787515726434
0.188 -0.02589534128615592 0.0030505949678442923 1.1296953062978155e-05 -3.635587649935904e-05 -3.992240526889359e-05 -1.5587675490367107e-05 0.006420104317667005 -0.004081140592553225
0.189 -0.025933224260416898 0.004216234320022006 2.443263494310065e-05 -1.3828817640267751e-05 2.4661470672393004e-05 -1.6698051751791134e-05 0.00623170459427591 -0.004463647572312606
0.19 -0.025824973923002037 0.005305509632899141 2.5213533942031584e-05 -6.0894339204358385e-05 -1.210286669789785e-05 -1.2705098711064824e-05 0.005991922738082122 -0.004905491755719442
0.191 -0.025717880734967606 0.006464358900501467 -2.6873199503430674e-05 1.016458706153289e-05 4.73308005536984e-05 -3.3836253071105066e-05 0.005674556217253771 -0.005246582098228364
0.192 -0.0255370577642774 0.0075152080950759564 2.4777903770855036e-05 -5.4527694163141995e-05 2.7106470958139255e-05 -1.1665019023001294e-05 0.005353439160440198 -0.005567906849952808
0.193 -0.025354341817319305 0.008695411251499415 4.9397240832293345e-05 -3.342922280696319e-05 3.087700325483515e-05 -5.803778329271391e-05 0.005080256658288045 -0.0059232313466954225
0.194 -0.025037949055959713 0.009811477276368143 -1.2885181661698536e-05 -4.719889159662918e-05 -2.08306977911834e-05 -9.627201803877977e-06 0.004650627230501859 -0.006241248533262281
0.195 -0.024747323751170686 0.010949553164773789 2.270681668526232e-05 -1.1311538276280232e-05 2.889931475513484e-05 -1.929993165095637e-05 0.004376010685393497 -0.006582140997358143
0.196 -0.024350306095538433 0.012012370070542214 1.8929929601667597e-05 -6.5007791782791475e-06 1.2529864782509189e-06 -1.2434915022511884e-05 0.003997913992189394 -0.006873630502465275
0.197 -0.023942414340497122 0.013122519442031218 2.9456334113693517e-05 -1.913487790432193e-05 -1.7681078149396423e-06 -9.76255928038607e-06 0.003557991346459738 -0.007093182538455934
0.198 -0.023446407643769422 0.014183923319779662 1.4622123961688975e-06 -1.0337692703362865e-05 1.2990195574111103e-05 5.658568197854789e-06 0.003164197336204635 -0.0073303948127495504
0.199 -0.02294298639873063 0.015253206164374115 -1.022406587612441e-06 2.5190162151230093e-05 3.187582767342251e-06 2.7250030799553942e-05 0.0027347190199124524 -0.0075311472799351525
0.2 -0.02235440252614815 0.01635346120342416 -1.5128154760040388e-06 1.0742983019560275e-05 3.7943303111592635e-05 -7.407422695699585e-05 0.0023095551066118145 -0.007666235189741754
0.201 -0.021775077469398805 0.01736920866708312 5.9561601751061645e-06 5.187600294390327e-06 2.4013205787479823e-06 -3.138697824617007e-05 0.0018436905109519102 -0.007820313783081657
0.202 -0.02108324906967903 0.018342535608386955 1.8465559372584765e-06 -8.156668377873552e-05 2.9715121843327104e-05 -1.8914959566154995e-05 0.0013551185674306222 -0.007957820807826524
0.203 -0.020393725007979348 0.019284333581696986 -2.1029461821685648e-05 -2.1289128699795852e-05 -1.7642511813415388e-05 -1.4616237760605865e-05 0.0009318386942860446 -0.008095214797625802
0.204 -0.019676499362235048 0.020270254484055134 2.239403401952251e-05 -2.682902225403306e-05 1.6668096527152025e-05 -2.5440090409576873e-05 0.00036135853446765724 -0.008123948135138039
0.205 -0.018828800942311867 0.02115968895238486 -1.5382181832853603e-05 -9.917890039696382e-06 6.120220537363946e-05 -2.280175227357545e-05 -3.722616173979084e-05 -0.008149538848867701
0.206 -0.018017402986018602 0.022082910493416423 3.848305016926931e-05 1.6207511789433142e-05 7.554716030881481e-06 -2.4801046865607744e-05 -0.0005635497110647958 -0.008187472477956002
0.207 -0.017158604417043765 0.022877144244125267 2.100451714342149e-05 -1.9814484439454596e-05 -4.790747060127526e-06 -9.607111761650513e-06 -0.0010433244885934586 -0.00814794775264226
0.208 -0.01623051168660653 0.02374710541977391 1.5040916555718861e-05 -2.149000856512487e-05 -4.115907303697939e-05 -1.5222651423668486e-05 -0.0014943929411049396 -0.008140431325228492
0.209 -0.015229796781789914 0.024472898137005122 4.42504134806777e-05 -3.4294660222310042e-06 -4.876996757228485e-05 3.5640598267673314e-06 -0.0019789542138842326 -0.008082544673223233
0.21 -0.014282889100450004 0.02520080530714389 5.324424350174934e-05 -2.6277465927750364e-05 1.8807072223192136e-05 -1.3642508679105132e-06 -0.002494576047972998 -0.00794956452124799
0.211 -0.013245965042949335 0.02594417586065066 -2.3285805840844945e-05 -3.3581013761962065e-05 2.7113807686377503e-05 1.021019092393119e-05 -0.002952413327383384 -0.00782172026179972
0.212 -0.012194156454672242 0.026579748709295147 -3.0988882119228495e-05 -1.6078123933617564e-05 -2.0674975337552536e-05 -4.799926088091069e-06 -0.00345340518783963 -0.007680253515455437
0.213 -0.011052717473179381 0.027217431420953113 4.84694786921645e-05 -7.529951335576981e-06 1.3387840815850761e-05 -4.145341802689047e-05 -0.003847519252029348 -0.007547365148176515
0.214 -0.009929432179333609 0.027852632726021915 2.473209872705731e-05 1.4146186562819065e-05 -3.378131033458966e-05 1.1658340619659756e-06 -0.004304802533760543 -0.007242463155557623
0.215 -0.008745876994187753 0.02830253765543949 1.6845785113313414e-05 -3.1195775510698934e-05 2.0632058445549854e-05 -1.1225070599695942e-05 -0.0047434857911579364 -0.007045969403826751
0.216 -0.007609549117822688 0.028831229298942003 1.414224371136837e-06 -2.6949853234335303e-05 -4.419329698872682e-06 1.9736810379892984e-05 -0.005141718831666174 -0.006799149035075622
0.217 -0.006412289984978834 0.029273231604633517 -1.356956829899934e-05 -1.2366310781354442e-05 1.9626735653732845e-05 -2.659219830284254e-05 -0.005526958959931145 -0.006451617644890609
0.218 -0.005140648942669404 0.02963828560514196 9.017497779511111e-06 1.0317198456888341e-05 -2.415297085570703e-05 -1.3109729271775858e-05 -0.005953364090422735 -0.006183422396227019
0.219 -0.0039037463144465955 0.029999531646052593 2.75571228956305e-05 -2.0374580206171352e-06 3.922262716564813e-05 -2.3627424593221448e-05 -0.0063988522678869566 -0.00579958163797109
0.22 -0.002653315020914885 0.030232569053805104 -1.3466289293693917e-06 -7.024115070559453e-07 -8.737278089330576e-06 -1.7914074831501088e-05 -0.006741817701714836 -0.005459416329560133
0.221 -0.00134856403993803 0.030364622446017002 -1.625083659531764e-05 -1.6264137221433776e-05 8.478229025305018e-06 -2.3229662231570813e-05 -0.007006188596515773 -0.005094674077392848
0.222 -2.9233910159966118e-05 0.030628190394155586 -3.6339381942793675e-05 -1.3423196534371294e-05 -1.6655827291893582e-05 -8.349646761011509e-05 -0.007359696028398302 -0.004656259406463694
0.223 0.0012213120236979447 0.030816681986329048 1.589160820934158e-05 3.865406258515164e-06 -2.088376185181487e-05 5.443461609391156e-06 -0.007622637345097379 -0.004289385874300563
0.224 0.0026253925026918216 0.030831338255706518 -7.772325531753236e-06 3.498627994835724e-06 3.6018303023263145e-05 -1.3179156496181676e-05 -0.007890932096101377 -0.003831364828064712
0.225 0.00391099773754552 0.03077647447796856 5.0468350542190136e-05 -5.536002848188768e-05 -9.109025307492517e-06 1.7805385409065122e-05 -0.008195603933684367 -0.003294352041548407
0.226 0.005291194808632549 0.03075524979916402 5.133614064584376e-06 -7.177894345433382e-06 1.1406408937809433e-05 -3.904442334292174e-05 -0.008402815984593656 -0.002897166911370169
0.227 0.006585317999907367 0.0305814273070819 4.493365336915927e-05 -7.364023358445979e-05 -4.2390475575537936e-06 -5.752081837751439e-05 -0.008563569518401332 -0.002366087976753911
0.228 0.007993669803797857 0.03039574906901232 2.175354218712483e-05 1.0497233879555282e-05 3.842359852738629e-05 -2.356493308679923e-05 -0.008732558138643287 -0.0019134873953236843
0.229 0.009205736305552997 0.03013264799724276 7.434522059657899e-06 -8.533621010874975e-06 -9.844817122364139e-06 -4.1100641767618206e-07 -0.008880106555239938 -0.0013816571368950221
0.23 0.010551157931127054 0.029892667654694834 4.0254245022112596e-05 -2.302540462686561e-05 6.584029537542218e-05 -2.2997496777703406e-05 -0.009006072481144236 -0.000889500634159664
0.231 0.011908097606582528 0.029578029289397446 8.992087928683164e-05 1.7888715480636277e-07 -1.0725413628406083e-05 -2.445219573322644e-05 -0.009038243039621358 -0.00034030285489184504
0.232 0.013123320767474517 0.029011126168387115 3.245180897324832e-05 -1.075315376839273e-05 -6.0206355357287756e-06 -2.0269491964116192e-05 -0.009114762574741857 0.00016034198712846682
0.233 0.01457771274345642 0.02875804811187839 -2.3404110679248937e-05 -1.1780639317354838e-05 1.9740140009535633e-05 -1.833035996789233e-06 -0.009155974770730428 0.0007092862609619239
0.234 0.015672465570132726 0.02803225260390006 1.7288535795146743e-05 1.0244945180092299e-05 2.728894347920859e-06 -8.535082968214302e-06 -0.009080717441587624 0.0012244831788524606
0.235 0.017023255753614117 0.0276080275670542 1.2624559574523374e-05 -1.8799506112594214e-05 2.3145219439186385e-05 -8.85837522482352e-06 -0.009036258894131004 0.0017436873469999872
0.236 0.01821590905585801 0.026863736442360158 -1.2818158190853711e-05 -3.740881336938428e-05 7.544883713599334e-06 2.635960819478259e-05 -0.008960461081216122 0.0022756672121267895
