!Created with skrf (http://scikit-rf.org).
# GHz S RI R 50.0 
!freq ReS11 ImS11 ReS21 ImS21 ReS12 ImS12 ReS22 ImS22
0.13 -0.0003798546494966566 0.00014807527256993608 -0.280855505462322 -0.38806463928558 -0.00014061342128318555 -0.0001695860033621366 0.000159327245074976 9.048618811300436e-06
0.131 -0.0003478493016720436 0.00013271118231241293 -0.30452078471669863 -0.3693106412052472 -0.00011666477442020652 -0.00017881946366043804 0.0001699382278521172 2.9419951557680396e-05
0.132 -0.00031893094400044735 0.0001833239931322446 -0.32747746273072775 -0.3492621299341384 -0.00015024644286966177 -0.00016231354102913103 0.0001991206694419353 -2.2855408526066776e-05
0.133 -0.0003155997095476222 0.00017623591102482018 -0.34861630575846625 -0.32713999990509013 -0.00015023892786574948 -0.00017781326861265184 0.00021836733070110633 -2.69560900895685e-06
0.134 -0.00031968356850599756 0.00016497891319399563 -0.36930047830271445 -0.3040051906900605 -0.00019246038505230684 -0.0001746272204842183 0.00020408344172043608 -2.570293085548296e-05
0.135 -0.00031406250470798226 0.00024235224833390104 -0.38766913375486445 -0.28012649182153215 -0.00022989613045232597 -0.00014743138180349627 0.00019439432240152342 -3.038668858536236e-05
0.136 -0.0002576032254956295 0.00023676164844270884 -0.4040852835134855 -0.25441991691145643 -0.00015992216976021978 -0.0001355339140087086 0.00022931435908042392 -6.94081257655096e-05
0.137 -0.00028037316186300026 0.00026979439605535275 -0.4197859219476021 -0.22799927809669024 -0.00018374096867108936 -8.850262424615649e-05 0.0002138873877562964 -0.00010080454708786009
0.138 -0.0002611829380471061 0.00024342389968902273 -0.43332051798117727 -0.20112632464520108 -0.00024068884432932946 -0.00012801862890677042 0.00014062449162988337 -7.490669864986882e-05
0.139 -0.00020685620156366352 0.0003004946165604488 -0.44485645513495237 -0.17278575449801636 -0.00016654367356548443 -9.679093781545665e-05 0.00022445501972657495 -8.205906319444066e-05
0.14 -0.00022653179537913718 0.0002788094461802289 -0.45493612491381286 -0.14391834695321254 -0.00022211481773173674 -7.651414364536743e-05 0.00015976849227870445 -7.43852697617353e-05
0.141 -0.00019702931610894036 0.00025056233210302473 -0.463070176135518 -0.11451787601682764 -0.00023684191185453844 -0.00014638363850510888 0.0001533298032397538 -8.745846841621676e-05
0.142 -0.00016454349122908824 0.000285536918407409 -0.46965917300334403 -0.08486208118273979 -0.0002429384148361721 -8.439216305638098e-05 0.00018238465420637278 -0.00011499793128333743
0.143 -0.00014454894649474558 0.0002580281824876494 -0.4733499497576853 -0.054977771283664816 -0.00024142711478703952 -8.656971845837933e-05 0.0001613225967393537 -0.00011138480420902822
0.144 -0.0001543445625438549 0.0003115862293750641 -0.4756096244438308 -0.02453548493779862 -0.0002583783155071919 -5.6136324315147463e-05 0.00014624848580365376 -0.00020458993132239906
0.145 -0.00014672480266909052 0.00028517032204309066 -0.47628328606086273 0.005780215978493773 -0.0002965142525766229 -9.282426011296058e-05 0.00016038682054894093 -0.00014307214782829897
0.146 -0.00010672429443899268 0.00028995832869225065 -0.4748029415439987 0.03600011992308078 -0.0002443350593657528 -7.968404419662938e-05 0.00014483813067244403 -0.00012125623460723016
0.147 -0.0001514382508739643 0.0002548610579184881 -0.4707701510110852 0.06609697201911893 -0.00029318445774362023 -6.789753659557108e-05 0.00011618419759769551 -0.0001693704464452504
0.148 -0.00014666718661685037 0.0002432679486226284 -0.4654045017520115 0.09601008249552724 -0.0003027517364753612 -5.641066648078445e-05 0.00010900952158031121 -0.00016960132494338694
0.149 -8.803273754787253e-05 0.0002255105947886194 -0.4585246283033492 0.12473952691296952 -0.00029334980940757703 -6.3608973109308334e-06 0.0001083549069745694 -0.00017200485136421935
0.15 -0.00010071410582824463 0.00024295793735742657 -0.44927449665274644 0.1542181086465464 -0.0002842184046733335 -4.51746924921439e-05 4.136645773712093e-05 -0.0001837443531023965
0.151 -0.00010479344328187019 0.00018329248128851904 -0.43751612077396346 0.18136491183808237 -0.00029481200847090137 2.065565957439363e-05 6.297365287682364e-05 -0.00011852392392543815
0.152 -9.444453905158721e-05 0.00018507701640127537 -0.4252881762739459 0.20929653924822741 -0.0002673172579040315 3.389593732556989e-05 5.365317204573056e-05 -0.00019564075588348928
0.153 -7.585053211252688e-05 0.0002472516057473499 -0.41148040565782823 0.23577628044330592 -0.0003344162965234872 8.028624948552697e-05 3.681144256529104e-05 -0.00019497934990333213
0.154 -0.00011940444044281751 0.0002718698854265929 -0.3948169902599818 0.2602411593837861 -0.00030130695366816136 2.4664402641707105e-05 5.048638772235664e-05 -0.00010543962421788942
0.155 -8.246990545806317e-05 0.00018913861587127603 -0.3776178176825277 0.28568725336570816 -0.00028617626865709984 1.8717795104834153e-05 1.7981667687847458e-05 -0.000197764518974431
0.156 -0.00014802028175132928 0.0002708553664381433 -0.3584114641898061 0.3080614908175813 -0.0002785065805470769 6.062878777506032e-05 9.681995901846763e-05 -0.00013901828890409935
0.157 -0.00010928387549776244 0.00019724846358080712 -0.3379262667258504 0.33027256753135475 -0.0002897017760713503 5.104151034439891e-05 1.781264190134788e-05 -0.00022169282488995314
0.158 -0.00014536590012204773 0.0002669056082971989 -0.3161398498115928 0.3509163769139499 -0.00032631992464289794 0.00011535568597806241 4.702447808208322e-05 -0.00017733416558016294
0.159 -0.00013338097509619232 0.00021416831211313562 -0.29315826446536614 0.3693767850480872 -0.0002862599350909946 7.021286183634853e-05 -7.94098283383816e-06 -0.0001976460029593444
0.16 -0.00015373957134882566 0.00019038276182107048 -0.2690071542247871 0.38715194153356886 -0.000314611640046691 8.868335028673285e-05 1.2815234930218039e-05 -0.00010665531885193642
0.161 -0.00014693651274342047 0.00022023091892819772 -0.24387702760871066 0.4035079101714665 -0.00028833813107001776 0.0001461241250218686 3.147204415299519e-05 -0.00015929880799684046
0.162 -0.00014891564304217296 0.000266376404208188 -0.2171036932472677 0.41781705175846395 -0.00028192782713139225 0.00013048359445394424 1.2550615951192664e-05 -0.00013720330098103647
0.163 -0.0001519716527697417 0.0002779506857571849 -0.18999793926467032 0.4303697038806932 -0.0002713171872365541 0.00015213937673422682 -4.362801975837609e-06 -0.00014740479204064925
0.164 -0.00016948410045535553 0.0002622725717897917 -0.16256079823019123 0.4416600513826674 -0.0002698941174188037 0.00021746131857933466 -3.727408137294804e-05 -0.00015205715708490797
0.165 -0.00017973411869329857 0.0002391252210939565 -0.13370942667411578 0.45116954406077675 -0.0002778911973335063 0.0001883786711510637 -4.0603224051863235e-05 -0.0001540086010669144
0.166 -0.0001803057855646138 0.0003033491079891258 -0.10482563009092334 0.4580371199453779 -0.0003038189057148387 0.00022855450170888904 -5.8841172269287154e-06 -0.0001722016262796855
0.167 -0.00022760256569124692 0.0003670741832197741 -0.07520870474178895 0.46419214834126743 -0.0002641640796178028 0.00017928361000463575 9.74589754745917e-06 -0.00015845754458578828
0.168 -0.00024270959213854902 0.0003358876082248334 -0.04554968114727156 0.46803410815666063 -0.00022315937060167718 0.0002494806130099579 9.546190412073868e-06 -0.00019350957518578054
0.169 -0.00021034730112450058 0.00035576642808510814 -0.01515825233414631 0.46989411934884756 -0.0002202026120996476 0.0003079126985922467 -2.409292578452447e-05 -0.0001406146050465834
0.17 -0.00018310925216018773 0.0003790302481243231 0.014731731647311255 0.4695870925451977 -0.00021134510683630506 0.00022907009837350325 -2.677247337033843e-05 -0.0001267617760390257
0.171 -0.00023400413941914553 0.00036527628250103184 0.04440245577623673 0.4678224649473075 -0.00018036156230100332 0.0002465809412948778 -2.3355757927763003e-05 -9.180609229200059e-05
0.172 -0.00016526343639027872 0.00043566739109505943 0.0738829862613734 0.46381786502482253 -0.00022402881227331654 0.00029307549337511166 1.7092465772775153e-06 -0.0001519375267704406
0.173 -0.00014458673917865485 0.00047570442850651404 0.10350401042926213 0.45771183661628245 -0.0001776751881300417 0.00026156383045688623 3.81504057467778e-05 -0.00013885168149118654
0.174 -0.00016503332033953455 0.0005100492583868064 0.13206918842682752 0.4503645440485742 -0.0001744145864842258 0.00030975325093700063 -4.195943828436651e-06 -0.00012182298491781508
0.175 -0.00015134350652476564 0.0006078883542760624 0.1599558264740865 0.4409711116291378 -0.00022009437039118018 0.000342226301638062 8.419241289872241e-06 -0.00013105377488894555
0.176 -9.274624004675746e-05 0.000615412436959902 0.1878121859170179 0.4300129619110633 -0.0001737257097992537 0.0003458967286847516 -2.3136544790913323e-05 -0.00015538994441998032
0.177 -9.52866947184219e-05 0.0006099571915353758 0.21481421550300306 0.4174720648938841 -0.00017882374860189805 0.00035780928418911934 -8.686944822118376e-06 -0.00015044485227767504
0.178 -7.299927347514147e-05 0.0005892170745660657 0.2400272535055554 0.40279305476457367 -0.00014717237821174615 0.00032499316655316995 -4.5415198663791606e-05 -0.00010793136169661218
0.179 -2.362435803069613e-05 0.0005971290231893863 0.26488465292198443 0.3860858574822769 -0.00014708758075803453 0.0003648420585708329 -1.9834645905410927e-05 -0.0001303449880133939
0.18 -5.49577752194509e-06 0.0006773844939802771 0.2890819187398222 0.3691512732970493 -5.494512709749713e-05 0.0003496867299720568 -8.100011431919632e-06 -0.00013994846153238697
0.181 2.1475455728230747e-05 0.000651929810626587 0.3114681173511692 0.3501220461500326 -0.00012638202830370787 0.0004174452074567597 -9.52807726072678e-05 -0.0001876944737678538
0.182 3.959188407727906e-05 0.0007048761809836759 0.3328342089780607 0.32933546284116666 -3.887677194378397e-05 0.000389817721667571 -8.798924843631018e-05 -0.00012473632178218737
0.183 0.00011776451018275129 0.000712684467442464 0.35288763976390985 0.30707747894900683 -4.883894259393515e-05 0.00037672271367019446 -4.148099269974766e-05 -0.0002117819298105769
0.184 0.00013709949274894666 0.000749702052723167 0.37165508104645056 0.28427624985921374 -2.7505802824218863e-05 0.0004205360713997765 -7.423462227956834e-05 -0.0001591400046327319
0.185 0.00024746741924705197 0.0006714946162066541 0.38868206527681054 0.25988157345913127 -7.07292883081086e-05 0.00042390423291165455 -9.690190827516679e-05 -0.00011804249143935799
0.186 0.00026214833017491966 0.0007247015926612185 0.40463204822387994 0.234792935186434 4.6546008538048386e-05 0.00040363505116772675 -0.000108770522963695 -0.00015819276880788788
0.187 0.0003232090800719527 0.0006992130906510684 0.4184567551943964 0.2078962274611097 2.162009036469978e-05 0.0003901396554921161 -0.00011772230264800775 -0.00017569078116251338
0.188 0.0002902978636574839 0.0007463490789320661 0.43029347100525356 0.18155050635685716 9.870806523092805e-06 0.00038293695409891593 -0.00010574686975756037 -0.0001564308669382772
0.189 0.0004362914746532675 0.0006830920351250838 0.4408812243805767 0.15374344695114966 4.2693261071216125e-05 0.00038259683851613106 -0.00010448411217559201 -0.00013446900950661372
0.19 0.0004926102175220111 0.0007080313412477266 0.4487582829990096 0.1254860443963079 4.51212458735978e-05 0.0004071252823478134 -9.023137602181886e-05 -0.0001377690655182936
0.191 0.00046002054530392105 0.0006682110943725585 0.4568387770333862 0.09664436192806691 7.227683357015188e-05 0.000478261134297676 -0.0001412514078780305 -0.0001630291471198531
0.192 0.0005635770337712243 0.0006869593308074969 0.45968072204315263 0.06826326503660106 9.520487843395819e-05 0.0003857650582484331 -0.00012965605873979717 -0.00012762133211167506
0.193 0.0005872816283689592 0.00066879205180874 0.4651410526545371 0.03817930023573053 9.612981731244647e-05 0.0003961239117518305 -0.00017102705650844265 -0.00016203289788149382
0.194 0.0006510191804976814 0.0005714783687628197 0.4648421967149196 0.009304186259576762 0.00014742928592975562 0.0004065240201411827 -0.0001507375543015081 -0.0001538106057901839
0.195 0.0007662881914838946 0.0005758848135740508 0.46640529376690554 -0.020896359186347687 0.00012391114716205195 0.00040166840435443653 -0.0001946262361641157 -9.033603980164605e-05
0.196 0.0007347406261055786 0.0005372720606303923 0.4614462861588212 -0.04894729753903724 0.0001789537022986842 0.00042118925428238343 -0.00017912175862971186 -0.00011047270741180872
0.197 0.0007460397792443115 0.00047825261209062203 0.45830345865034716 -0.07842929202795063 0.00021274548468264056 0.000392945728966957 -0.00017838088223834166 -0.00011045272480876428
0.198 0.0008041053402011537 0.0004004502078356302 0.4523656553123243 -0.10797160171386214 0.00023877856045620785 0.00039773200317716305 -0.0002164479738048838 -0.00010958034243468905
0.199 0.0008730991933649994 0.0004135827008477216 0.4438682382919307 -0.13604338562489598 0.0002260758778683696 0.00043796270443651603 -0.0002271295127230348 -6.405714757015079e-05
0.2 0.0008522758906175569 0.0003327537904445585 0.43447216571181085 -0.1634138479596512 0.00025852242450250434 0.0003506713075431347 -0.00019631376987875454 -7.652720592612924e-05
0.201 0.0008537046379924552 0.0002483428908642956 0.4227300877677311 -0.19064274039711362 0.00025691417188132424 0.00035713298472810957 -0.000217172397745869 -8.61285356465253e-05
0.202 0.000951420205294846 0.00020257808539244192 0.4101824750687828 -0.2175959499329238 0.0003129045220547598 0.00035825014135209036 -0.0002514929774515722 -5.3994337540243116e-05
0.203 0.0008794346244097379 0.00011287604475395096 0.3952299074324538 -0.24239182896701914 0.00032771545443016815 0.0003520568625619072 -0.00021268138725203216 -3.830933729098968e-05
0.204 0.000889108756047142 4.963973003370636e-05 0.37844071713822464 -0.2668176167646712 0.0003181478663337665 0.0003311418403713458 -0.00021457399839052414 -1.6239828152852706e-05
0.205 0.0008632926343662476 -1.556190846514812e-05 0.3608700350597683 -0.2895074909229617 0.0003227580569547169 0.00033003499488664707 -0.0001902279419808572 -4.773651035293887e-06
0.206 0.0008839178532814057 -0.00010923882754851324 0.342002981733902 -0.31156978349908615 0.00034968707522500835 0.0003142558122152767 -0.00019004526223339154 3.710243756570125e-05
0.207 0.0008529992122120271 -0.00016742124537448064 0.3213827406822036 -0.33275616707583777 0.0003941600737707308 0.00029251651873609763 -0.00026886702498333327 1.3171840657333043e-05
0.208 0.0008909002407329677 -0.00016384671304875032 0.2996387724123186 -0.35214245938931205 0.00038535516081129265 0.0003220328708444743 -0.00019091197166507253 8.069838460324612e-07
0.209 0.0008378907466636972 -0.00024306122675587114 0.2764875323204239 -0.36968308599520233 0.00039878352762074526 0.0002919197016551047 -0.00021329730382496967 7.733757082274753e-05
0.21 0.0007783643090786627 -0.00030743371325826617 0.2522971687155503 -0.38605005414801297 0.0004082594844157298 0.00023435608183461633 -0.00018506882036695892 7.648068865601444e-05
0.211 0.0007227128578892762 -0.0003010473550426664 0.22739670655929345 -0.4022741981419213 0.00044625365231815676 0.0002591172735745823 -0.0002339968635017511 8.0750069656377e-05
0.212 0.000718690643194982 -0.00042016282783566863 0.20147660442231605 -0.4145218435543276 0.0004865127755771388 0.00022157645883113085 -0.0001699759804328149 0.00010637398224617478
0.213 0.000675108531969983 -0.00045449640004821215 0.17469064923052885 -0.42642002451748395 0.0005298301821970061 0.00021371871348205504 -0.00019739807641077218 0.00011548014469001122
0.214 0.0006427549988334927 -0.00048538199631405644 0.14740958929591688 -0.43669859105434233 0.0005102264697988251 0.00018898372293659995 -0.00016800197701129688 0.00013022765580523362
0.215 0.0005575272584738894 -0.0005118594354588898 0.1195645818474812 -0.4454920795835855 0.0005349150103496449 0.00020183794215534678 -0.0001580065213362984 0.00010796162690671665
0.216 0.0004878851510308801 -0.0005342219526885185 0.09106155322211494 -0.45104360521395576 0.0005004375562093521 0.00017218090836848318 -0.00011919017121978752 8.849826198085908e-05
0.217 0.0004808985406405577 -0.0005566504559697498 0.06222054784582228 -0.45625671610901825 0.0005714222065920255 0.00010971942624750718 -0.0001441561471199624 0.00013184186660413765
0.218 0.0003937767480320463 -0.0005943153255055153 0.03348262037456425 -0.4590313313856055 0.0005827053180540694 0.00010972996173967682 -7.39271581261121e-05 8.103154596188386e-05
0.219 0.00033557933512494935 -0.0006192679048162166 0.0036757475024800108 -0.4608007694420369 0.0005713241034524944 9.359590616553589e-05 -0.00011940981590436799 0.00014619099461762883
0.22 0.0002801882208498887 -0.0006595819190824443 -0.025257884882160204 -0.4597559377525916 0.0005691409877525777 6.621167903863098e-05 -0.0001053073316244173 0.00018624857016340805
0.221 0.000247609166306301 -0.00056819043954205 -0.05424889211203301 -0.45701183377885324 0.0006110816475704726 3.9366009226561235e-05 -8.377588565989745e-05 0.00014871143194799947
0.222 0.00015832663275331817 -0.0006396560318983798 -0.08325311702393236 -0.45298436045242485 0.000620334421103766 -3.0431356669894723e-05 -5.869431540861443e-05 0.0001278447011054545
0.223 0.00010917427504089033 -0.0006327717981036938 -0.1116679329902911 -0.4470964059165075 0.000568657340790102 1.1682108627676045e-05 9.033282806584391e-07 0.0001059955609951736
0.224 3.7906078231875296e-05 -0.0005618973492507083 -0.14022239733758313 -0.4384664310708942 0.0006325473926918847 3.432755621921219e-05 -6.330123131902583e-05 0.00015104292114005287
0.225 -4.57178030085243e-05 -0.0005570996143265176 -0.16701110113006012 -0.42825779525190033 0.000599666966770049 -5.4032458368294737e-05 -2.4840836507361493e-05 0.00012133426290780001
0.226 -9.442754896602704e-05 -0.0005221911866155224 -0.19426564812419964 -0.4174954437208916 0.0006422346307591013 -7.721251211978696e-05 -3.820185261804956e-05 0.00012787803053583414
0.227 -0.0001287134006105756 -0.0005538997296708632 -0.22022729874845193 -0.40448954733983866 0.0006434820036146706 -9.505925871539477e-05 1.4224554327010444e-05 9.544577828922727e-05
0.228 -0.00020926841736090192 -0.00045320667180920863 -0.24500706691284407 -0.3893117978017823 0.0006065922801007823 -0.000162436184899944 -2.813559176527011e-05 0.00013263431388632008
0.229 -0.00018322343522157033 -0.0004845070981887889 -0.26935333365930825 -0.37259952415548686 0.0005901522582188196 -0.00013490251208010513 -3.429356206116161e-05 5.1750572066609664e-05
0.23 -0.00027157927032730566 -0.00044081256029724914 -0.29233861838776537 -0.35493081444091623 0.0006023919019135937 -0.00015243076975142198 -7.709964126280513e-05 6.149965524269097e-05
0.231 -0.0003503356174068633 -0.0003278561930887098 -0.31359459881725427 -0.3354627294447388 0.0005921805638256425 -0.00019728824749408886 2.0289228002122186e-05 4.49994470326606e-05
0.232 -0.0002763302621816224 -0.00033633515870254936 -0.3348821375705355 -0.3152839693055356 0.0005874584847335787 -0.00022846163761305074 -1.557214998191778e-05 6.607198065539518e-05
0.233 -0.00032286442993122535 -0.0002466950638535597 -0.3534502854908393 -0.2935540763948307 0.0006035369771141383 -0.00028369140263213475 -2.9907609481060473e-05 8.596220337266952e-05
0.234 -0.0003515064503400472 -0.00019290540207043532 -0.37087129692823306 -0.27007236950028957 0.0005570119135322895 -0.0002581571660191566 1.6879953967964816e-05 5.404989592179471e-05
0.235 -0.00037531725299248586 -0.0001282025798416732 -0.3877098870793302 -0.24625586603237307 0.0005863259105158042 -0.0003297643916916404 2.871497106435992e-05 5.568825600850176e-05
0.236 -0.0004263833389588565 -7.117281135072031e-05 -0.4014234357184063 -0.2214405535678415 0.000581830873752689 -0.0003330965346812835 2.446492638475564e-05 4.552771986046949e-05
0.237 -0.0004183633502365927 -8.72922068559734e-06 -0.41439015690706565 -0.19578455783290652 0.0006015233525448628 -0.00036327611842295205 -5.077312727504781e-05 1.6988450742714048e-05
