!Created with skrf (http://scikit-rf.org).
# GHz S RI R 50.0 
!freq ReS11 ImS11 ReS21 ImS21 ReS12 ImS12 ReS22 ImS22
0.13 1.3134764805331511 -0.5629090398134472 -27.089133014352836 11.677810423913964 -0.4655081275993459 0.47460980951697407 -0.6895845404453812 0.9110968180722138
0.14241875 -0.2316717458748495 -0.7379253136798799 -27.59813649411732 19.386177553052487 0.009191218449972687 0.6842949655686835 -1.6785045596582842 -1.0832130348068842
0.1548375 0.672775676019338 0.7244285277202219 -31.86099732326197 33.65710991332631 -0.09161703240422354 -0.2621785976116488 -0.32623786254649956 3.4801033994973274
0.16725625 4.600857867561569 1.169095134843894 -19.459485176141214 33.741995007932346 0.8885963873406275 -1.1152447280631248 17.303196165299017 76.46912388643108
0.179675 -3.3585329236758192 0.6871173319678273 -43.52485431262972 4.99510505904835 -2.1856167096444685 -2.52119927139213 -2.481927113280473 -21.167491444532658
0.19209375 0.422747715235883 -0.8093270652357394 2.1781730640544423 66.39787602508883 0.4313224030536394 0.056307954743614 1.321878359393288 -0.539664095740085
0.2045125 -0.22887382111545476 0.4749181986555623 14.462523337140073 68.68528903684702 -1.352618700936458 -2.5318170531423214 0.838771658630147 -2.156462493267104
0.21693125 -0.6128719446848742 -0.38915139826722317 28.67700719546905 70.57601608130535 0.7468577135222224 -0.34783163566854775 -0.8504200300291279 1.2547011411831042
0.22935 0.27362556498328844 -0.16540262363407474 43.32596559139976 65.769702259916 -0.005488771743664597 0.08119744836344599 -0.6226317716891152 -0.612693517256373
0.24176875 0.5324804845627196 -1.5082520251656666 63.20205448214787 61.137690658264574 0.1465806361939451 -0.2620527746022181 -1.0293514801061494 0.5849758281385703
0.2541875 -0.5511723015667943 -1.9640444060664362 67.3245853188695 50.409622943436986 -0.3683610105633557 -0.15992908833676409 1.2029899043012575 1.029508906346083
0.26660625 0.10169074612661927 -0.4955015894555042 76.89039132349174 43.327926207071826 -0.24261977771089768 -0.03308649484908979 10.527071599372773 -0.07569658078961072
0.279025 1.1049050897175015 -2.9613561508655653 77.59465211808548 33.42663056983749 0.06802056423378974 -0.16743584969825903 -4.682947638464003 -0.9149123216317259
0.29144375 0.20519521338656824 -0.2199396828744856 87.0897899603226 18.58521256005012 -0.05899596400370447 0.6242938224966539 0.061005239938702986 0.1776046554118274
0.3038625 0.15978816510028598 -0.6986347529058013 87.7903790521121 9.443912359403917 -0.13404149417139946 0.0506166438596243 0.27979177617653467 1.8782618270275113
0.31628125 -0.2378099260262903 -0.30429729109627146 87.84051640293913 2.1647903420743284 -0.26916316779296023 -0.4399746689003017 1.5841994343513666 3.01805518009433
0.3287 0.3757678470229772 -0.7017458044062584 89.04152933785784 -12.495786827139288 -0.08105412359344953 -0.31376600592288123 0.03362632197968231 0.03889370419450831
0.34111875 -0.06826213242995685 -0.47306666911424955 85.50492510374511 -22.416532691524054 0.46901330706404604 -0.25402241761409433 -0.42081692654582187 0.8891152194978431
0.3535375 0.7441431466221892 -0.3849133185853265 88.8661726346335 -39.13459851861165 0.13418599534556416 -0.2592126373503026 -3.0624705799639202 0.4257190520023894
0.36595625 0.27261620886608157 -0.4352529725136271 80.69486003384229 -38.09348035765737 0.17548993562044593 -0.19504835058146522 -1.925977621395662 -1.4816133031238656
0.378375 0.17867878498334938 -0.3952840626551202 78.25804866145441 -48.199114531294555 -0.07674465240378209 0.10222008584589598 -2.9922158728547146 2.3325233556123335
0.39079375 0.007153523385236919 -0.3642791334263724 71.35848033709425 -52.58448140251225 0.0793969571445348 0.04652808955261328 -0.21445001348981835 0.3668608853334181
0.4032125 0.00144846984103398 -0.05257518934053178 66.03821134339435 -57.49314726158867 0.09479202938079409 -0.02118191314233038 0.19760695713789486 -0.1046723498272882
0.41563125 0.08724805211276494 -0.6450355458661096 61.47514537935017 -63.38639025806813 0.09112412608701624 0.1973802890201366 -1.0077945143033604 -0.20289243027506998
0.42805 0.5983442838110559 -0.2685658797155587 56.343921510868505 -67.83081745323983 -0.09581194766274108 0.04747681890500621 0.055751437089620125 0.13114323892744462
0.44046875 0.10987539941431966 -0.4378871386925413 49.16109997909097 -72.21862058785409 -0.09531478911096905 -0.01009683547482351 0.598903187759866 -0.12725812683122356
0.4528875 0.10867532138419389 -0.2889226378224021 43.67592069181205 -74.72249786180797 0.003377327032348859 0.058698849424900654 -0.5218130636229352 -0.0027037705208490317
0.46530625 -0.04017706946049315 -0.26560950149013596 37.93723983270585 -77.1278518509454 0.02524521025653096 -0.07302616807739093 0.045146082778622997 0.4517444688361073
0.477725 -0.006306997511317066 -0.1431106019484669 33.74620801011084 -80.76878744075736 -0.017549914826534944 -0.15678909733643254 -1.1271114301215257 -0.11411516440345863
0.49014375 -0.009377959611141526 -0.27555152375357356 26.68962038170087 -81.72491533529637 0.18697138032509375 -0.0009052527308230337 -1.2083243367631904 0.20017221934771479
0.5025625 0.0663279688073027 -0.2558235638691832 19.622615784669314 -83.2579375383882 -0.02054290868689896 0.1569483309080468 -0.1726400675104528 0.2188700880549683
0.51498125 -0.0818645703887763 -0.30092243122676293 14.190173761232007 -84.72616335990048 -0.07958152685022528 -0.33398768172756527 -0.6618433662675086 -0.6005176983086794
0.5274 0.26158519537971603 -0.2194504586236059 8.882236961656073 -85.46153795756672 -0.0894784180079203 0.03276105362979032 -0.06378866256379422 -0.29919921637231484
0.53981875 0.055731868120966824 -0.2548413621840333 2.5399489914962428 -85.03238634760436 0.024460788523510545 -0.1097686959408954 -0.15649451657468844 0.4833218471992479
0.5522375 -0.11069339813039279 -0.34719146234203685 -3.044524820869815 -85.51222571746771 -0.01295543737354203 0.14500651258457434 0.49168889259735743 -0.354729334578695
0.56465625 -0.1382370255815506 -0.46400728840343847 -8.979451320015686 -84.27296098981849 -0.017908957876787906 -0.044369766706187544 -0.1689361837059678 0.4797620547082865
0.577075 -0.20762336430423706 -0.21110626377773675 -15.647903631658783 -83.4439201013215 0.03613783127718324 -0.20086133653088856 0.30147121848382585 0.0995242533599056
0.58949375 -0.021869513068000897 -0.2728829989910915 -19.663599137089466 -82.17622970168833 0.09225736222622982 0.02769601874123444 -0.04862281862561779 0.06749282189182808
0.6019125 -0.03922156224039764 -0.2516308111343567 -25.27539156015627 -80.3160196946483 -0.013024545783190589 -0.07147000475270529 -0.14773800904168147 -0.08207695311416774
0.61433125 -0.14644670399729773 -0.23270116382240813 -30.473110687571847 -78.3614741345428 0.18679482536948822 -0.1026200244249785 0.3022424389106472 0.1725681386403902
0.62675 0.13740400869819716 -0.2051548223170416 -34.186105373740794 -75.82130960614644 -0.21572421084983134 0.033534436685067046 0.06043265179377459 0.045947554097426714
0.63916875 -0.03163353043880151 -0.2631199035391073 -38.70224772579871 -73.08859627696056 -0.024250611068293147 0.023038121352106505 -0.06186783850270836 0.13824659327588032
0.6515875 0.14821514621726062 -0.4799871308264066 -43.43557319539802 -70.9564021294758 0.05490076408612261 0.12196398446739329 0.029890215021533436 -0.021306650316239878
0.66400625 -0.027632337011623265 -0.2534265956309471 -48.14320418869539 -67.16441897472339 -0.026860803358202883 0.04161622268787205 -0.10777600548651751 0.018065733742247427
0.676425 -0.10338779044335548 -0.26856792735296 -51.583465539705564 -64.28962200531949 -0.07489362350511046 -0.1751420965297247 -0.2205554818349294 0.047446593129731
0.68884375 -0.14368590516452417 -0.25763982677012204 -54.904996584243676 -60.694651857858865 0.10423475654542518 0.08565034189758047 0.022053246953316737 0.016716350308215472
0.7012625 -0.1484116846148498 -0.2988915304160238 -59.26954656970194 -57.37666640679893 0.15555155670634044 0.0285912597273215 -0.003013841323441752 0.16310387128981044
0.71368125 -0.12023588303212693 -0.12687530868459515 -62.947170968257026 -52.892121517816996 0.05057181241313507 0.13206692159034442 -0.21521884750864423 -0.4182934782485288
0.7261 -0.18073677170275654 -0.28554374572641317 -64.94013406862976 -48.79721345008461 -0.08754575194317035 -0.06483588547504898 -0.2960740755915001 -0.013938222688191029
0.73851875 -0.16333757127587084 -0.324661350230681 -67.8601427983378 -45.128863445670675 -0.11720613034872684 0.06860984290491012 -0.25663829582993336 0.3044980152465452
0.7509375 -0.0793432892113001 -0.22616346416846048 -68.7386568323847 -41.955682373692255 -0.06312721547350343 0.0148644861071471 -0.032548964350839905 0.4552129358491259
0.76335625 -0.17318274259077762 -0.2810149100849451 -71.6296803341243 -37.12682144122794 0.061390814946436306 0.0849897156810998 -0.27673803216776244 -0.40454424698718255
0.775775 -0.24722588778502114 0.1283978827669296 -75.88659526841172 -32.0045513788101 -0.13980847983850841 -0.059840772835702036 -0.12049465769656133 -0.3820694004026733
0.78819375 -0.28399440418801036 -0.561338218504659 -74.33584980187607 -28.55812075212721 0.01277214114032569 -0.025466768571605573 -0.16424870921832405 -0.0641049859235449
0.8006125 0.07973341671701724 -0.41214275103874853 -77.2110535980199 -22.733601141543758 -0.030106646112854876 -0.028781533592256225 0.19183940455405646 -0.2057928865518295
0.81303125 -0.17241356595515756 -0.2552005799126217 -77.52359082200948 -19.57599837492646 -0.10495702214342326 -0.021666908046826902 0.11435679343461078 -0.001880464638813135
0.82545 -0.19273043604023277 -0.1911600788160472 -77.872545648917 -14.982674695049974 0.007927496786127955 -0.04144684894261505 -0.1340502280433064 -0.010973091587902953
0.83786875 -0.2173012779955927 -0.19738258374382903 -78.4631957213621 -10.569423267465913 0.019372142064826504 -0.050189815713622125 -0.04489834368594952 0.09968877572096414
0.8502875 -0.313342651524268 -0.2847764182592319 -78.4009804932375 -5.095728479720194 0.0666651456601658 0.02613679594400491 -0.09385721146514489 0.4112707030725221
0.86270625 -0.1278236671857915 -0.018729344724176936 -77.84325338414584 -0.8279409337823028 0.08413977555957237 0.01875417169315822 -0.300613556433031 -0.011729033494680524
0.875125 -0.20050762463340746 -0.2442513257541343 -78.21882535073973 2.8168924092343106 -0.06667541090727662 0.10782839073033809 0.06842831372284557 0.27605398057764463
0.88754375 -0.13949932727494496 -0.3018933942973121 -77.70431012486168 7.428609980801047 -0.04755963759792376 0.05537865761391164 -0.7536536480007072 0.26065377630157843
0.8999625 -0.2144345357090089 -0.07890982621393415 -76.68725715876542 11.514443613610117 -0.0004840111409592117 0.013491057278942344 -0.12592395556756047 0.18801421424803652
0.91238125 -0.18799641116381077 -0.13835774164611733 -75.41555259659572 15.247111932351151 -0.025717035969681338 0.0694174407913197 0.0727268491780489 0.15320012536574631
0.9248 -0.22889654792571087 -0.17688144536022854 -74.45809996212331 20.136089843626735 0.06223255403551812 0.024221677955306307 -0.06002784522642784 0.2266206353738655
0.93721875 -0.1319458576904367 -0.2220221154197817 -72.538370610822 24.348011382198358 0.08765385060482171 0.08830164316423157 0.13742084971809596 -0.22142809732196625
0.9496375 -0.32388169743513534 -0.05574399137769515 -71.3061605814505 27.70706522048835 0.02681633768572851 0.06615191807017287 0.15555339252104278 0.19724937855215208
0.96205625 -0.21081416610927275 -0.0402924157077546 -69.82016000621661 30.994722850784374 0.019965432075151026 -0.006175933644553943 -0.014824013298452107 0.13561339692310512
0.974475 -0.25136523021300994 -0.11708837355102553 -67.39735069968287 34.723544970653506 -0.022974180014900588 -0.015496280087521519 -0.016616246377679354 0.09495451049975794
0.98689375 -0.22777788739468713 -0.06912958450344497 -65.28498180974873 38.108872840367226 -0.012237213139803199 0.026459116584303215 0.07788833303833705 -0.01921329493164365
0.9993125 -0.29157245320541725 -0.20303752468941502 -62.486761472963124 41.016864476758826 0.03450300031142695 0.010716690335157448 -0.11869399302126162 0.14059530481202495
1.01173125 -0.175169749776692 0.04430951264126647 -60.18464506822442 44.67414739284315 0.07267700583577857 0.10798613849091501 0.1137712909601629 0.10892718307357398
1.02415 -0.15402493942295886 -0.12917070807932887 -57.027879365998665 47.010155967403506 0.008561364229633758 -0.024875025016536833 -0.06454862511376723 0.15052386179765379
1.03656875 -0.20750445135929382 -0.00795451551930072 -55.042181553700985 50.1476765482542 0.03678581456854414 -0.032605747347302316 0.07574124329561768 0.0841191726928357
1.0489875 -0.2428653019084331 0.03258043343795976 -51.87027443393064 52.98552079427103 0.005911582467220768 -0.0019060960606324278 -0.022083810463790498 0.14873722328552255
1.06140625 -0.2207667305494604 -0.025183685373906372 -48.651128382995836 55.59820586815321 -0.03704912509786458 -0.03514870708893265 -0.1282786160668181 0.0818947280609927
1.073825 -0.2602081414949469 -0.029467281998371845 -45.56655939112341 57.461712420177044 -0.04639061426126808 0.016834675567521492 0.010220317427138578 0.23154792840706373
1.08624375 -0.2316779437741323 -0.10680499499341214 -42.073376078052036 59.24917474231835 -0.021195295735356185 0.05452562112496225 0.0049787258937370816 0.19948469428002488
1.0986625 -0.1983948195202748 -0.02562395864537407 -39.120507193721714 60.38440192335533 0.021821561526974655 0.06049264196262707 -0.04914127323899071 0.06652437425696396
1.11108125 -0.26311022822146535 0.0025472821142971617 -35.94447168581852 62.60215740273965 -0.0900027103069375 0.0789519717676631 -0.021791368785016387 0.38702127747487824
1.1235 -0.2622444660649668 0.03536217699860012 -33.3047567791276 64.0631285190536 -0.08631018509605776 -0.009059667436825113 0.03498480951711212 0.16854172944612672
1.13591875 -0.25773284835063054 0.006995147122246091 -29.01211985766897 65.86196078106656 0.02053077996254836 0.012147348981967444 0.08185583913130207 0.09440458830624067
1.1483375 -0.34060098805689887 0.12391602936211099 -25.26273396737424 66.81730755226309 -0.000887079184761753 0.008445533422482904 -0.03778038669257535 0.38601874647509943
1.16075625 -0.1647299669624464 0.16549543590700283 -21.73599562332577 67.55409345646403 0.02574210195897468 -0.02831462264099936 0.04691433308999787 0.31361860096667005
1.173175 -0.26874859983605165 0.07433330405962237 -19.039597715981788 67.63285326317146 0.01605351300463123 0.06191757388796859 0.0014030349641403958 0.22865627902522917
1.18559375 -0.3106562096921291 0.01059389615365164 -16.089835449215382 68.20601732056195 0.049994143944288645 0.006381490647844492 -0.037210405331731984 0.29571801530408254
1.1980125 -0.23939562648257662 0.1014633541796352 -12.709898125025825 69.44810376887817 0.002151823594984342 0.02724651299063521 0.06412925171537609 0.10099673131072673
1.21043125 -0.30806205096370054 0.0530212372255299 -8.835786410449229 69.34166525439149 0.009066827767407162 -0.04326487246764323 0.08877618678594662 0.21827070342029747
1.22285 -0.24616643066135774 0.08121073239675394 -5.370788211770617 69.76231511745296 0.014800176765151395 -0.0035650827122929427 0.12661938041272885 0.08669936718229414
1.23526875 -0.18728412892790886 -0.03291793156639406 -2.1784456934555676 69.74332996901087 0.05806181628349447 -0.05243699743508686 0.21515040062213592 0.15570044681227427
1.2476875 -0.24891667104911933 0.09237043112636258 1.0355230103371957 69.66808584203325 -0.004067086237453206 -0.04217802314347285 0.09594355889850384 -0.01827052202587926
1.26010625 -0.19603099844356908 0.09574309392414411 5.078355592180762 69.36121485920637 0.022164359474632595 -0.11931577392531739 0.024130286757515003 0.2102592844849811
1.272525 -0.2905651142933492 0.11808780532031309 8.020909374532124 68.1664446305669 -0.04820365282501302 -0.030515418894526372 0.11431625555790413 0.18908426520552163
1.28494375 -0.07573033266480457 0.17195124391237834 11.071530657917164 68.01097336425424 -0.031285011107808965 -0.0425395168876447 0.08764062101544111 0.13597737171893753
1.2973625 -0.14161685410869837 0.20166402016740542 14.246105895421017 66.64276405212989 0.02134561016955884 0.02723491809889393 0.02341950397648899 0.22774955215615614
1.30978125 -0.19045018326412766 0.28198063493313336 17.61626683033012 66.91126842180732 -0.03652321737462705 0.03433884279368747 0.030918981237859904 0.21978253224353445
1.3222 -0.16356763934935045 0.006091553911342096 20.446303776721606 66.34263629360568 -0.010237315380933724 0.02551335597904809 0.22982536846162896 0.19679127031269184
1.33461875 -0.19389875480275737 0.13719272951213082 23.429563875065195 65.41094002033579 -0.015109347817819184 0.017049883340544504 0.1534270782150658 0.17584287793098344
1.3470375 -0.1642015767559157 0.08374950644011676 27.044696406630628 63.894906422056344 0.012713362821031821 0.06976244057698167 -0.008499006792005666 0.20939943248505677
1.35945625 -0.1543222749696577 0.14906795965740502 29.805589326638483 62.43393699789253 0.05124830296421802 -0.055920054171523785 0.263764885422829 0.06624885849286939
1.371875 -0.15179832163183907 0.18971902248487635 32.81925936560572 60.499644674235284 0.050118139978340685 0.06647600878691985 0.17943168825304 0.14093752938136955
1.38429375 -0.11392450949756543 0.13069481169030622 36.08918001891089 59.4137459238455 0.0003255999929904328 -0.07236025988300841 -0.028311899646306486 0.23617068601952446
1.3967125 -0.12969949061539024 0.17403492878994947 37.85408031349504 57.170102935533585 -0.0206886900288185 -0.009384125732042338 0.17872509664222816 0.08158219626491366
1.40913125 -0.13089523278694226 0.16936341385807 40.90869350132894 55.43891670979632 -0.03886820018640056 0.03959574355957188 0.21827106761582288 0.17216757293628213
1.42155 -0.07972223225512788 0.10129751711331304 43.63828075183932 53.94140453708826 -0.00970157037927531 0.03152474058805767 -0.04105922298047647 0.18008623788132944
1.43396875 -0.13270608506869744 0.19337084699492446 46.536413375320585 51.751289700397294 -0.002239530565479815 -0.02555781346798039 0.06027860217415438 0.2056578089184696
1.4463875 -0.09778577878745996 0.20017872228035075 49.09127674321676 49.52155914160652 -0.0014280280579661256 -0.022712681859130307 0.24847142208715534 0.3929717396132852
1.45880625 -0.0976453225620454 0.18116354993548436 51.55044367882187 46.60749728343503 -0.01811267770989341 -0.02751991343803564 0.18370120237236864 0.007087896471840283
1.471225 -0.0531389321022598 0.1641920880911263 53.64586013223468 44.3452273995085 -0.041762086849165735 0.02120000563043658 0.1420738191846685 0.11050969748024968
1.48364375 0.02495957745559656 0.23841261911369557 55.29986406171 41.429592491352835 0.028338664345630104 0.009459432247878695 0.2365420983070807 0.14265612639947928
1.4960625 -0.06027871522964154 0.16209811102302854 57.59316551670333 39.53934194136569 0.002899343262164397 -0.030132363769762152 0.2541422507873807 0.13096859903765168
1.50848125 -0.053442088221679625 0.13692841331891956 59.72965070595536 36.501627724590136 -0.05208437719233009 0.003050197155185071 0.0473161202397433 0.1493217738272821
1.5209 -0.022858660292585938 0.1890450789170421 61.51448197144072 33.528720017513834 0.03066922547395827 -0.025620723631135583 0.3003784164359983 0.10538533297816359
1.53331875 -0.01760321207193343 0.2542283263322695 63.15365850369085 30.839415026256518 -0.017497125169958057 -0.016037550865593882 0.24533849597577848 0.059331940069987654
1.5457375 -0.031324727922312535 0.2616047634952519 65.02318818218893 27.485678774338936 0.005226317199640818 0.030997510212237376 0.26178185412565874 0.25007199555973575
1.55815625 0.035075379955968246 0.2193276015744932 67.06461582871806 24.59869142427089 0.055826403641045685 0.023195431266373443 0.2436620203784667 0.02012339736759287
1.570575 -0.011700093909654489 0.1866988714778161 67.35514788055427 20.48838840616385 0.021531929944745253 -0.033661461439369406 0.09373124382064495 0.21385048391687905
