!Created with skrf (http://scikit-rf.org).
# GHz S RI R 50.0 
!freq ReS11 ImS11 ReS21 ImS21 ReS12 ImS12 ReS22 ImS22
0.13 0.8557676182756108 -0.37863783281040125 -0.004927245302371852 0.011858817451151612 -1.4202569747772131 -0.47952204513556473 -0.5599252396462752 -1.559186718687609
0.14241875 0.9096044920677346 -0.4678887732633898 -0.0019141339680458583 -0.005602441215274032 -1.242143271706878 0.9162576678401232 0.10699037823982877 -0.01162647246619472
0.1548375 0.8683963367686122 -0.49746893965695543 0.01576354126826396 -0.005828606483386402 -0.28074204613149845 0.022171914592431646 1.7620637916504616 -0.6349859450488622
0.16725625 0.8770556384776828 -0.5355704637803147 -0.0076211145705681735 -0.0010086251407022157 -0.791027438367477 0.6902851782838143 0.6130862456740462 -0.7986512758437233
0.179675 0.773805737910345 -0.5261323752869365 -0.0010119201108001448 -0.0028894639367426644 -4.158131038411892 -9.478104650261432 0.697257036840002 -1.1919621654076131
0.19209375 0.8097085407380687 -0.6174173201095836 -0.01573515742163653 0.00944004158343352 -0.7777742977697784 0.8153621082297556 0.7746603246652777 -0.6553904906907115
0.2045125 0.7840058626411277 -0.6311229023186647 0.003622547589125234 -0.009686930283301549 -0.983960740918702 -1.112776637787929 0.5474937411401284 -0.9390236771973326
0.21693125 0.7215426009754393 -0.6354786960242048 0.005512163813882065 0.013008029921192816 1.1653932372870979 1.0211793864459577 0.9264621428195083 -0.23478719529163852
0.22935 0.7030674377101006 -0.6896316048683797 -0.013702208430518939 0.006729331256441675 0.26889217838581 0.05782575589846007 0.7530699845526914 -0.6921423075831998
0.24176875 0.6583251781224755 -0.680182778227493 0.005928485718267196 0.006967775633659357 0.10231430857867799 -0.12454043427451551 0.47800477903946664 -0.7495276032483126
0.2541875 0.6710616110302844 -0.7163872920793073 -0.005688005280336153 0.0026071748328536566 0.7973765621077027 -0.7737559295643078 0.33971810094566046 -1.2259575416645092
0.26660625 0.6154827208906539 -0.7662332723795284 0.0015845397104839877 0.0028416564050306914 -1.2192410575939288 0.6029174694599662 0.25941924750968826 -1.132471037750559
0.279025 0.5729033131056134 -0.7967290000307496 0.0013034808026023586 -0.009139079501823733 -0.5639446586463681 0.8659408312965984 0.10807819826252708 -0.34681592153589313
0.29144375 0.5649262681714707 -0.8255851667243703 -0.0021743133055237437 -0.011830547099428577 0.12232707163555599 0.14642118154707798 0.39699883421067084 -0.5716887060491068
0.3038625 0.5255302505543575 -0.8315953318591466 -0.00036714869706583705 0.0042097509949661875 0.1438487644783844 0.6317172084077265 0.6516668547800847 -0.6944953597758027
0.31628125 0.49697704296305584 -0.8961380117322343 -0.001338286963731662 -0.00043806601767045394 0.17063767964347828 -0.21356294449544141 -0.0098466129360823 -1.3129513589290032
0.3287 0.4500464599948906 -0.8928000932102214 -0.006121782276808757 -0.006354879384386084 0.34086807525266777 -0.43099729541226395 0.5664840308559728 -0.5558857349106909
0.34111875 0.40222936170212065 -0.9250641997902188 0.009100225332049749 0.004579696505101734 0.5064708209515036 -0.11410366036844352 0.24441795512574213 -0.8249346561587237
0.3535375 0.3465141145369096 -0.8796773276871064 -0.00822546140164056 0.0034228764360024495 -0.05891453907604685 -0.09456966570676312 0.41431712554243805 -1.1604323713908362
0.36595625 0.3153495261037821 -0.9463382354035008 0.006185164125432911 0.0066696034410970734 -0.18438889565625358 0.19617189961334197 0.44088062229199815 -1.0511799877051882
0.378375 0.2974862957748475 -0.9480113882961535 0.010658357684802153 0.004295271436500821 0.09763406738893932 -0.19134344438372208 -0.3587067360265817 -0.7640746922017068
0.39079375 0.22763211413989154 -0.9374500833986522 -0.005935178549840885 0.001406093340464777 -0.028175489191744542 -0.02732779757807211 -0.6227059664940687 -1.3740921413365488
0.4032125 0.20495526332428554 -0.9674816058761224 0.02526662155486592 0.006315230863005137 0.27395821157403116 -0.21981329995810367 -0.4275517014834381 -0.7536556442564578
0.41563125 0.15488071581611154 -0.9830831096642748 -0.018006525668824887 -0.00602762946906517 0.01204432039169322 0.088817194303443 -0.4283556132485801 -1.0920264652722425
0.42805 0.13046469355016233 -0.978092595882019 -0.01585315438826766 -0.008666428940258175 -0.3819947026646215 0.17958767829986144 -0.12055098991664179 -0.34702827059562985
0.44046875 0.07954527941829842 -0.9733786919505459 0.0009673321674643559 0.012184906866876155 -0.027350405214855676 -0.17777904838950487 -0.14845253107636303 -0.8299986595626755
0.4528875 0.05382167449813313 -0.987059104240737 0.00464996145965595 0.01664815541766824 0.2687288447643553 0.05511485603470669 0.056540378395732685 -0.9532196409728735
0.46530625 -0.0015376815355293539 -0.980620132294812 -0.0020803170859218143 0.0013818322921616492 0.08538536193848205 -0.1947007986939385 0.11636797518685028 -0.9005017656884392
0.477725 -0.024010281579512592 -1.017661130949645 0.0014973664210456248 -0.0017723104970311062 -0.02689704285087977 -0.10073818280235962 -0.18092815220713393 -1.0372561035807755
0.49014375 -0.0671381089598766 -0.9842239999950514 0.0019705920596989586 0.0012818195577114695 -0.11191992272417271 0.09948183419915652 -0.12286149785677071 -0.6383388336100886
0.5025625 -0.11368859290851346 -0.9605500715083737 -0.003584309349663933 -0.004624638649601738 0.1563252651237596 -0.3244914800516554 -0.33077228046486096 -0.6506020137117836
0.51498125 -0.15873765155381925 -0.9822822261549444 -0.008343352443457543 -0.0013354550893029712 -0.13552558625204653 0.11921283234824985 -0.5805167322205078 -0.5949425115686234
0.5274 -0.19455083888096608 -0.9592603346243218 -0.002656065012874307 -0.00296364552703844 0.0954573839516754 -0.19766251286731584 0.0045985548968141806 -0.9239692695575588
0.53981875 -0.22440090609862393 -0.955917299946971 0.015014498343435533 -0.008391722511381774 0.016189902350119738 -0.0035692441753199847 -0.4509887591387202 -0.6636292713793932
0.5522375 -0.27457695183715697 -0.9349088613036628 -0.007196236586458822 -0.009689188748607198 -0.05122061506953616 -0.10992121626209557 -0.41987311921439363 -0.9772811535195832
0.56465625 -0.3229923537960614 -0.9222810656459713 -0.0019439918752913545 0.008087591998442336 0.20975783719734745 -0.0066034916315448906 -0.603064279172068 -0.6584896067545737
0.577075 -0.36637646395665346 -0.9000927414139522 0.002079874609871272 -0.0018373387524613302 -0.05967031917445087 0.01070614882163808 -0.5352106368836741 -0.6579897321548144
0.58949375 -0.39399582879696987 -0.8823375687602173 -0.001838213629337571 -0.005226030743929358 0.14022321000094065 0.009559819594482266 -0.84717611436866 -0.6044591552423634
0.6019125 -0.4113787505585128 -0.8730189919010518 -0.013772399822731323 0.005621288545776513 -0.06066882406966326 -0.005449571032063728 -0.5147185742839764 -0.5108032077122221
0.61433125 -0.47065563892523 -0.8496316001428659 0.006638099416927371 -0.008601051978593784 0.06790985166263233 0.09481586583486809 -0.6695971247222422 -0.408197668185869
0.62675 -0.4818767061075042 -0.810716464259357 -0.004165884081207465 -0.016884887189423083 -0.097156613136738 -0.01760982328383865 -0.7185160317613088 -0.6487309362874784
0.63916875 -0.5427957196879313 -0.7998956086303243 0.02056180724369832 -0.0055198505519063355 -0.0434343340695722 0.04399464177182159 -0.6109842439302506 -0.6871861092062989
0.6515875 -0.5747505171625154 -0.7770630853305068 0.016375743097817985 -0.0038567121268823336 -0.1721166129440716 0.1651259942318457 -0.9616196788744658 -0.37954959823929746
0.66400625 -0.5750596113144639 -0.7568841742794459 0.0031652091277857863 -0.0014381710114120113 0.015760562834779245 0.1837506894098553 -0.7657968469067262 -0.25449158662039784
0.676425 -0.624899022966429 -0.7228358909770649 0.002238874115985213 -0.005899692903081435 -0.09664081046181999 -0.26738870522611036 -0.5948828072682515 -0.2973069125794475
0.68884375 -0.6437991103075109 -0.687941126475973 -0.00027537988938634503 -0.000479914347847651 0.05773686328151566 -0.06580006794350715 -0.660634356532756 -0.31289781640385683
0.7012625 -0.6789545713059495 -0.6901558294902974 0.01694551637122664 -0.0024538866215804756 -0.0003254301031062538 -0.03458823655394898 -0.3963695220759368 -0.3498119130339631
0.71368125 -0.6987511400546016 -0.662366135779859 -0.009047122457127318 -0.0031538614507620843 0.0202403172066127 -0.08619458193964025 -0.8657464570410157 -0.29796837367261575
0.7261 -0.7337909326508928 -0.6020392302888097 -0.0012766342347080909 -0.012020218166834148 0.013410773366293418 0.178650796458705 -0.9967782215829156 -0.2537282231253167
0.73851875 -0.7663539164014255 -0.5902052594799405 0.010907908732616541 0.005192311653524717 -0.04926139076269611 -0.01219666456206341 -0.8453633003089461 -0.09328230812230985
0.7509375 -0.7784951087977389 -0.5361396248807319 0.0008245373316466362 0.0005619835983595608 -0.22377106900772262 0.0025326079707273094 -0.7922964590257312 -0.23704104346382673
0.76335625 -0.799157188582 -0.524885761902718 0.008824171963105405 -0.0008535420715983412 -0.03336148381673267 0.1060359319938068 -0.8543250509317653 0.0636044530363104
0.775775 -0.8120245606691501 -0.4841538348465854 0.016835568299183108 0.00809930205036237 0.001083164146884464 -0.09867645883739695 -0.6940317344578406 -0.270221067979133
0.78819375 -0.8405168365262475 -0.45354787219148657 -0.008751197517741418 0.001883833818103876 -0.04803619769864346 -0.12287961385905574 -0.5849548550446907 0.10092425487756672
0.8006125 -0.8525894669080316 -0.4187176817277384 0.005675032231572368 0.009827896717440568 -0.14842738107603284 -0.009911389636952986 -0.6705904902127667 -0.011247878654393043
0.81303125 -0.8719860749677348 -0.3825482516999099 0.00566858676472126 0.0031292784358674217 0.04403392795918523 -0.0799979112094004 -1.054054937504585 -0.12621323744779792
0.82545 -0.8769273751316566 -0.33169123200344314 0.00636164831747435 -0.008552681189399948 -0.009454472508660336 -0.0909673728201231 -0.8521255866235299 -0.045939718393145965
0.83786875 -0.8923187793368034 -0.2976189404582004 0.014991614904530805 -0.005212669073205448 0.027624839427537667 0.0754183121399149 -0.4641571057990822 0.16807979541303522
0.8502875 -0.8958945628159702 -0.2603344199689865 0.010853623577072315 -0.002960031148658096 0.09269560876065894 -0.08219058322338549 -0.5800854657743065 0.08217106823703664
0.86270625 -0.9061249408752611 -0.22225123910518785 0.015141271954938912 -0.0063832760583061665 -0.04423940783979136 -0.0529420030173351 -0.7410015439339903 -0.032858996345482526
0.875125 -0.9239612200323828 -0.18260886681770552 -0.007622595501390082 0.006566237653674972 0.06520528303360934 -0.028760018536212732 -0.8622668727646381 0.10933579113563295
0.88754375 -0.9202921910465585 -0.14807626739469804 0.0018666192674793086 0.023842333529129813 -0.14776384335232198 0.07157108163532748 -0.85162895953436 0.37569635602018603
0.8999625 -0.9354111420392328 -0.1105838729595047 0.006547290751675967 -0.0013987275994687496 -0.01919204943972468 -0.06295854120432139 -0.5610584479161981 0.2955779573149142
0.91238125 -0.9362098354431619 -0.06649248795235888 -0.0060121747473759835 0.008438489708807612 -0.02184458809834014 0.06888893877082568 -0.7856292651777053 0.44590288168969744
0.9248 -0.9383696530569308 -0.02073132266184645 -0.00016635400289110306 0.000327149501780994 -0.057356185067923934 0.021810842019268036 -0.8072173832939947 0.3034381909391635
0.93721875 -0.9386449490899649 0.00921542131016165 0.004917800636489041 -0.009009066942976427 -0.08911430857091705 -0.0025037807641668896 -0.5790687301118062 0.3759393829269744
0.9496375 -0.915791764215191 0.05513490274684168 -0.002486234799398646 -0.001453111187317462 0.013629646699728944 0.039636031215573415 -0.8444783356925598 0.6124944699440906
0.96205625 -0.935272836278216 0.09417702251511118 0.0029543583777313343 0.004241687343566962 0.000529223348603946 0.11415358892375205 -0.7407772433941403 0.8007109527363643
0.974475 -0.9157896263440836 0.12183657803327999 0.010075509936139709 0.006521648106058608 -0.06792284621617106 -0.07428730594198352 -0.7733543271258005 0.1844395827740503
0.98689375 -0.903279445144988 0.17289701872414023 0.010250671032979098 0.001685842390330334 -0.017066610868256105 -0.028202883946283668 -0.6018943011614454 0.45872813631471054
0.9993125 -0.8904825721910635 0.20328333538474952 0.00570955375331474 0.0004057544980112295 0.05695884783246549 -0.04889310664686746 -0.48036555121079094 0.23275133621972602
1.01173125 -0.8808337460016002 0.23692001928334763 0.014282805693155978 0.006542300614584199 -0.008907437168355216 -0.02632889249191564 -0.5941978697598567 0.5785262038589921
1.02415 -0.8685818174792374 0.27659965070098275 0.0007729724418478182 0.008039115239910194 -0.0009112937716654401 0.040498018512223614 -0.37609569459292136 0.06906888527850513
1.03656875 -0.8683866986531782 0.3104466210938902 0.0028589434928902578 0.0047368418937384525 -0.009938273855147436 -0.0042185469681044275 -0.6564804012515226 0.5689432462586701
1.0489875 -0.8444680967582595 0.3491158165613146 -0.013017511879932345 -0.0019001372787096989 0.040948110678350365 0.05102741482647487 -0.38925576317378874 0.4063999491187973
1.06140625 -0.8303148470385057 0.3849790533637406 -0.002503582435611539 0.006093475430687043 0.04033552386458363 -0.08287208871018255 -0.6615258728551148 0.5795046270964681
1.073825 -0.8032489277301263 0.4198168294784764 0.0002964021592300734 0.008047369208778403 0.03636739792206446 -0.0073548236495942585 -0.32502451281202627 0.6933115498841194
1.08624375 -0.7860185696522879 0.44910444754515383 -0.001978651808330078 0.028296039149167968 -0.05939905697241746 -0.03072586665804832 -0.4297385353570804 0.8306291263222145
1.0986625 -0.762456770389096 0.4822380136705004 0.012279691630752501 0.00035269849597842725 0.08293831360735363 -0.0669470596987669 -0.48231890107435466 0.4432965382080491
1.11108125 -0.7489004717316481 0.5054369493035987 0.0033053409046662013 -0.005219310046795001 0.06833031999335482 0.005241213266506928 -0.39774859703329785 0.7012323862010696
1.1235 -0.7155284117387859 0.5368983591026051 -0.009521934669817276 0.021277210604991582 0.012807347000837663 -0.032834593884499975 -0.4297180706918236 0.6259748113566173
1.13591875 -0.6983400095744599 0.5606336875952606 -0.013354875949002464 -0.01106100270882039 -0.055697269318364044 -0.014242357397033141 -0.42802908622778074 0.5944844263368168
1.1483375 -0.6717526299788242 0.5889492233610223 0.007133953788750284 0.023047193533529596 -0.0018982153945015245 -0.04466411858168865 -0.1551670141818106 0.6549664291207908
1.16075625 -0.6410822802948046 0.6216249664413951 -0.015083636290128018 -0.012068745890407774 -0.0713024743286651 0.025216710526014586 -0.3576228153314445 0.8045622373742637
1.173175 -0.613573269862378 0.6481624782209673 -0.0020287189206969094 0.0010712488772209288 -0.0018650713013690068 -0.06173368914439233 -0.12570661390450155 0.6997976594809372
1.18559375 -0.582580777977895 0.6714758625195695 0.004359733323358132 -0.011839941745428963 0.022547497189975552 -0.10128030081424017 -0.17104282321003622 0.6611875604565318
1.1980125 -0.5595343147202962 0.680279962013886 -0.0030565772780788945 -0.012708656482479706 0.017052879014542534 -0.040503795497946124 0.05176659348698785 0.5968498456535798
1.21043125 -0.5227112455617727 0.7080176365977325 -0.0036001460624834917 -0.00271829603867814 -0.002885254620679388 -0.0387186351735907 -0.04572952148551167 0.5745379660003674
1.22285 -0.48900475609496646 0.7222145810994465 0.00012609529107247404 0.016513343040363882 0.05230317269186645 -0.014633679180632892 -0.01918937538076936 0.804031295339828
1.23526875 -0.45846100878964186 0.7469967374422032 -0.010933636192597249 0.00788241470569757 0.016115868862283535 -0.02885073019867421 -0.11391502781721909 0.7217788407559101
1.2476875 -0.4219616788022997 0.7833863710893575 0.008738977598557981 0.0021867048016227263 0.028419910306148714 -0.023698935825120778 0.154711081622994 0.9025774202211789
1.26010625 -0.39044401124429207 0.7796455676378454 -1.7373028313660997e-05 0.023165696305405954 0.002627287352007466 -0.02821254891965384 0.07353559706346777 0.6489536684332249
1.272525 -0.37653223812615855 0.8010504607337763 -0.009736619836394388 -0.004438836754616012 0.021171554007371304 0.08488980923543207 0.0954303151437638 0.6763451435583527
1.28494375 -0.3259059071380866 0.8066454262081901 -0.013845557468062958 -0.005269373709565113 0.055321805232022625 -0.026156035054865284 -0.10874309334772167 0.6547581335902062
1.2973625 -0.29132877075586516 0.8253685689572107 0.009174142264815263 0.010568186553617086 0.025233881969871984 0.07445333565141438 0.05578909089534877 0.7088676109613611
1.30978125 -0.25621789315394666 0.8311553118756898 0.008726110440287538 -0.0054572297112998385 -0.001819603150094716 -0.02832391345127359 0.23284266165991552 0.45334407214127875
1.3222 -0.21542459884435092 0.8322828356329403 0.013008403882996046 -0.001421510722912295 0.01712805754925796 0.027095134814162102 0.1821610841570328 0.6860043077574045
1.33461875 -0.1896426694148082 0.8477609289345315 -0.0033614209909394338 -0.0022646405835022197 0.03930923162054456 -0.03988697270369757 0.2830703219498095 0.4813456562149878
1.3470375 -0.14270340330162598 0.846732085119326 0.0027493864421336647 -0.007677419090883478 -0.00037322897212351214 -0.04844521758974416 0.2029127346116815 0.8871864078162497
1.35945625 -0.11308585809964031 0.8571659810515541 0.012770304887264303 -0.01007153246818453 -0.015069513019674153 -0.06106085805091058 0.36275953550576484 0.5916075563960224
1.371875 -0.07810548021815311 0.8629275383069493 -0.001079182478456351 0.0017697206404405687 0.04321519413916972 -0.01755868261828183 0.25389647856852504 0.516670280046586
1.38429375 -0.04225303693568485 0.8576939945997745 0.0003957416215718142 -0.0026982847687632865 0.010263003769624338 -0.05035640440682227 0.42690106587756493 0.4279793040570234
1.3967125 -0.012178271409643102 0.8546190451236525 0.0019937306024032236 0.004658913528062942 0.018823895840098026 0.03561025242136655 0.3300495481533299 0.4995379477968496
1.40913125 0.03194775113693724 0.8562767793583403 0.0008290914461066274 -0.008747954219598529 0.00558396856599134 -0.016238597908250624 0.47057693042170207 0.5984330425993608
1.42155 0.07767658990197375 0.8536509917345956 0.0033468904888035796 0.0007182629878205994 0.015764479636430483 0.026009035489133983 0.3240598755491257 0.4062324093064103
1.43396875 0.10681535399097454 0.8474821125786612 -0.005881839028352943 -0.0019555585663084793 0.022817790193330707 0.005861473244675084 0.47209159886985436 0.5190919929504585
1.4463875 0.14079068431749128 0.8381722536800573 -0.0054663769385167316 0.008740074117279981 -0.002656393087924826 0.04678056674749723 0.592442621778488 0.6052630862737622
1.45880625 0.16413381828273438 0.8248625160821622 -0.013135802719275289 0.00910467355307715 0.00485945066429426 -0.04275451028645192 0.46983628626029295 0.38916281074839926
1.471225 0.205189344772166 0.8184515224717819 -0.010484972536922947 -0.0029246831131164957 0.03754996471163795 0.012444597336840914 0.5157950157986212 0.35263529796232146
1.48364375 0.24621646036351685 0.8156690409434161 0.011303843895679018 -0.010523728344639379 0.016893678077275716 -0.016266247390268135 0.6047243767889705 0.31712197014602045
1.4960625 0.2704915805011235 0.7866097313076749 0.0029570752153238182 0.012455435634809817 -0.0028108492237189616 0.046901473303011955 0.6073483795115503 0.42087271717226565
1.50848125 0.30207070200706715 0.7875629662375668 0.011272253515143377 -0.02125417887183667 0.06168245067303468 -0.04122097898947559 0.5904753033977748 0.26426040487263586
1.5209 0.34582996051342396 0.7668761916054172 0.00818201101224209 -0.004997077658726005 -0.05925273517187679 -0.00834390733005675 0.61748220665905 0.2487692236963814
1.53331875 0.36491692820611626 0.7477376789256877 -0.01491692247979115 0.002575762053802867 0.02102352529358796 -0.032829665393250114 0.7344437805373125 0.39195700161424746
