!Created with skrf (http://scikit-rf.org).
# GHz S RI R 50.0 
!freq ReS11 ImS11 ReS21 ImS21 ReS12 ImS12 ReS22 ImS22
0.13 0.8282624775745782 -0.3774609575032039 -0.003711284871773381 -0.005511116844608782 -0.9734106026175159 0.876222538119677 1.889079906903119 -0.1567110766338716
0.14241875 0.8886263514675928 -0.5484544554956439 0.011658224455391135 -0.00531151920092057 0.5669192801855132 -0.16482263987242246 0.46328770363481997 0.127682059134905
0.1548375 0.8558853793688085 -0.5204623970665939 -0.0009756283253007314 0.0029943375350511728 0.40581803665702654 0.47821347861735675 0.27574211704441 -1.9437345593195077
0.16725625 0.8184778996103179 -0.5468894481286709 0.0023321248270021687 0.006734180734381661 2.850281184049942 -1.915196643995791 1.3305759249801234 -0.49239608849327
0.179675 0.7724586418453592 -0.5724047339868845 -0.0005614363769943276 -0.004481571026879405 -3.5328900821608826 3.636520429765901 0.5593473637032356 -1.1432690435043276
0.19209375 0.7820288028833692 -0.7028396678643117 0.007063373377453711 0.004228061243671188 0.5630774286306873 0.9042643915890495 0.14493163941550502 -1.0515213984915852
0.2045125 0.711116019701243 -0.7012938975003697 -0.005326670083585188 -0.011711578103539025 0.6384968773568017 -0.8319291596907966 0.03734753081099334 -0.4396549675677288
0.21693125 0.683149348004221 -0.6944198107845887 -0.0033130826374964404 -0.0004780681043871084 0.31887678150707405 0.10918442561207903 0.5582749655379686 -0.8214405253882614
0.22935 0.6766155270375831 -0.7156865400031978 -0.002213915841129326 -0.005196931664672279 -0.3623825156810849 0.09429860429759764 0.48386535448874324 -0.7117983359942787
0.24176875 0.6149193314744524 -0.7135506323049063 -0.0002825648861857574 0.007714582102225536 -0.03790338358280073 0.483716216882341 0.27369273562119545 -0.873020841138176
0.2541875 0.6146903596310284 -0.7559655429530658 -0.007238749240932623 0.0010495686888855437 -0.5926443966071268 0.46133511926087517 0.040327872957832744 -1.0769429471598173
0.26660625 0.5463881631569829 -0.831586429063554 0.0033924081549029533 -0.00013765328703942245 -0.11978544861701661 -0.2949152308277606 0.42544542102787397 -0.42295822721101434
0.279025 0.4959027297351069 -0.8450345293147253 -0.006165133881841847 -0.0015827581263529753 -1.1870154242610325 -0.1631945354422071 0.3129113996840713 -0.512701903359909
0.29144375 0.4890391326613494 -0.8741506397068887 0.01555341833026771 -0.003253788293052196 -0.016026528130439865 0.33604383149487665 0.3294194870243693 -0.7205006600757449
0.3038625 0.4253191050203277 -0.894680748735152 -0.007171636663600956 0.002814821194661351 0.066299110915638 -0.1216919619820488 0.4220199944330419 -0.7282629839755793
0.31628125 0.40952560610376515 -0.9357320220676989 0.011162982413657756 0.010546364807485656 0.20571854636126402 -0.07964052487558264 0.4415439700901704 -0.6743685352162762
0.3287 0.3304241489237102 -0.9128644158151832 -0.008027402287837578 0.002175591169683372 -0.15052432526954396 -0.18346542794760803 -0.06507854701489255 -0.7857924009084957
0.34111875 0.27382330909223473 -0.968124516552888 -0.0032483091025638554 0.007733029476415299 0.7972576269501453 0.6234550861334629 0.24102275586704752 -0.5889089455766613
0.3535375 0.25414040737573557 -0.9156734022433273 0.009090451117289872 -0.012617452443011998 -0.17845055394336978 -0.5209100914108544 -0.3191812649563699 -0.8396987146086919
0.36595625 0.21667230857102857 -0.9795577071318715 0.004176594069981633 -0.0012452983062911838 -0.029658738335841532 0.20474935128728822 0.026007368869812652 -1.0197489782903268
0.378375 0.1703920217691673 -0.9713747686756641 -0.0009777936518146565 0.0005264188468900194 0.16408847072515909 -0.14920067288371727 0.09571131789744851 -1.2056184358506408
0.39079375 0.11542412518077008 -0.9661828865822367 -0.0010554445320035092 0.005952494484762168 -0.021554167084800593 -0.03263242500478343 -0.32377984603354354 -0.8507486301684188
0.4032125 0.08004355361149804 -0.9632939369541655 0.002387706668587434 0.005775567907233186 0.025021089477325023 0.0450703722740876 -0.41684365482191404 -1.0129847158705565
0.41563125 0.024197997461626642 -1.0110019598357918 0.0011537441856390557 -0.0020606527617430424 0.4614238845644439 0.03423633894234613 -0.23716587857312668 -1.0053639189078094
0.42805 -0.0012658708523175047 -0.977233066838418 0.007675493897891454 0.0016761048830956236 -0.11547646198537954 -0.0480349620573915 -0.3338626748643354 -0.8495974696610212
0.44046875 -0.05969017064635569 -0.9629956102923167 0.00434438817232134 0.002727871807965766 -0.11908180264725327 0.10400183185726443 -0.6708689502828223 -1.138022204158666
0.4528875 -0.09880940009499899 -0.9693422060405268 -0.005492223743195886 -0.000289337156632588 0.018971211537759578 -0.18205099512019352 -0.003329599851649002 -0.8277520924981369
0.46530625 -0.1356949847161771 -0.982525764272443 0.004518026903917165 0.004353196473232445 0.21822486439743238 -0.07072877624838365 -0.12229362107992922 -0.5660414206867728
0.477725 -0.16402913729996382 -1.0080430175656059 0.006440618794166318 0.0011805883115820286 -0.15291973974283127 -0.05047160892500654 -0.37075980353352406 -0.7903089033761823
0.49014375 -0.20991929752406396 -0.9552024290846753 -0.004877814930985455 0.005692300873323174 0.04116358285540623 -0.009875823773549935 -0.33151891222040386 -0.8662831918311897
0.5025625 -0.26414991374627406 -0.9307726700861322 0.0015235986478276226 -0.004733034289963829 -0.08887321111838514 0.28066835162691534 -0.592300542100177 -0.7417131307965363
0.51498125 -0.3019758297749681 -0.9218951064559243 2.4373217729391024e-05 0.003470812097121843 0.11018693342992697 0.0890101584621929 -0.48021255898852877 -0.5903749127746053
0.5274 -0.33606454675805547 -0.9073216711601616 0.00022162538717113763 -0.008807732278576565 -0.17127833167013976 0.08738837227561233 -0.611956277850142 -0.5675463083807327
0.53981875 -0.36719342723246484 -0.8999904930744949 -0.004370812053419052 -8.523551926612528e-05 0.03973040005665372 0.2889839267688625 -0.742739380108366 -0.7316818076840587
0.5522375 -0.420909834586381 -0.868396074913037 0.007547837115783093 -0.017246181389692614 0.03891279291737146 0.02004811911407124 -0.6032394372724139 -1.0653745602105984
0.56465625 -0.47445408440970854 -0.8507324916645658 0.007404874529657827 -0.0028979209398100436 -0.09043003525959196 0.10576310534969606 -0.7931427402028931 -0.5401899692287891
0.577075 -0.5096487825163223 -0.8252168699795717 -0.005305661892543203 -0.0021951348297756757 0.002923778513309219 0.05682676620688129 -0.38147701258988564 -0.5531114837150141
0.58949375 -0.5483828374208307 -0.8039933694418062 -0.011489299907418059 0.01339296499721168 0.1655820005023191 0.16689671516842222 -0.7962684579332276 -0.5966337453812066
0.6019125 -0.5583422241278233 -0.7754747690992503 0.006525974371532513 0.016104915471823012 -0.024194200900993376 -0.13710281098262747 -0.8316071026749808 -0.701286562911443
0.61433125 -0.6038157034824126 -0.7441967961842332 0.010417828298937368 -0.013149367973503183 -0.012075680419700174 -0.0011644176275351543 -0.5945632065400815 -0.6375909788255263
0.62675 -0.6196619085823036 -0.7015560795746115 -0.014302082072273983 -0.0013653254485360674 -0.0606251894399905 0.10630747952459689 -0.9311954967758517 -0.4402673042654676
0.63916875 -0.6674566406470802 -0.6844161717680678 0.0006100701704221918 -0.005858212096622398 0.16797885828609588 0.027995246549154407 -0.6831007503034946 -0.5131487718759398
0.6515875 -0.7057135287043561 -0.6470214443495378 -0.006440779741858511 0.01066647703570647 -0.13871414409701807 0.12265648591700344 -0.5251107909849145 -0.21149251386945128
0.66400625 -0.714109928828508 -0.6253968192644971 -0.0011723316701127218 0.0026712398478663858 -0.023614485581073413 -0.1251257570803038 -0.7291089961274273 -0.4070156834629229
0.676425 -0.7478559013882546 -0.5779109993465849 -0.007518948109914905 0.0005628781280103015 0.16637179592029663 -0.04539928729433439 -0.6594195713450894 -0.5511770382120008
0.68884375 -0.7751336271984847 -0.535852770863793 0.00929437572108972 -0.009693805072331363 0.08414373755523516 0.058347099028130615 -0.8793844478066537 -0.2597031595768988
0.7012625 -0.8110324571256008 -0.5293675029056069 0.005814768740425865 0.007890226045169884 0.1116612414475398 -0.10901321101686065 -0.6211507792873641 -0.4866615865067342
0.71368125 -0.819520697731625 -0.4902909128233138 0.009563459716518525 0.005655946318040242 0.06744916810893643 0.008086028638818828 -0.6529247202669552 -0.4583779475995418
0.7261 -0.8377259619133544 -0.4387091500529651 -0.00628065806118831 0.006320176152050861 0.004605228399557459 -0.026201105242156245 -0.7690299398018682 -0.23626314250942362
0.73851875 -0.8563112141913457 -0.41519652869926266 -0.005326832887988764 0.006383545549106145 -0.11249705360379365 0.06175791562060062 -0.8963901154032701 -0.04857127030173823
0.7509375 -0.8740953130273902 -0.35398955691893896 -0.0002442070909934207 -0.0007675862080394554 0.0843242498478841 0.02123136893918187 -0.8061955881806405 -0.030244340726171805
0.76335625 -0.8992547435684634 -0.3355189624290846 0.002081453048964962 0.0016175428016470155 0.13876462421907382 -0.006483707462900579 -0.771310722816089 -0.011254115329447522
0.775775 -0.883297845965287 -0.2860690619630277 -0.00016181141944820093 0.009847265303138219 0.11515526984280444 -0.04514334810387473 -0.8686392614600784 0.14840608734475777
0.78819375 -0.9160570742903055 -0.24894085070349928 -0.0035093081860509325 -0.0058986167369613225 -0.044691477942058855 0.09217276902690563 -1.0059297564399299 -0.2588345147404258
0.8006125 -0.9218681556485572 -0.21561228273835886 0.0015298108718245047 0.008054749226289676 0.09171717646604037 -0.0375389126299423 -1.0359762604524099 -0.14012702298161508
0.81303125 -0.9214014651802901 -0.17116155410844436 0.0020830173637023932 -0.012595277602544903 -0.052400849379360626 0.0202542900313448 -0.6421764202168994 -0.023565076564883068
0.82545 -0.9230507614347926 -0.1334504912023289 -0.0004960949297683126 -0.009466055164998138 0.025965338988810288 0.013196014270610753 -0.6651292506140631 0.24424636108127187
0.83786875 -0.9338710151479905 -0.08581069157490116 -0.0015166234912056028 -0.003908666022680623 -0.08671387181261234 0.06222780198103982 -0.7143522857766059 0.18142236877268114
0.8502875 -0.9236151478436229 -0.050930673673117335 0.004734579468743749 0.006519860669257159 0.004540490087385702 0.04371587111589005 -1.0234093885044808 0.059653482273097455
0.86270625 -0.9293750582313809 -0.0036750112466661343 -0.005259127067383212 0.024134764057692003 -0.0009700642452846163 -0.017768148111378706 -0.8439008941262992 0.2207046558321264
0.875125 -0.9365519529900591 0.028358608922083903 0.00728945284130245 -0.00586963086456024 0.002333110498548512 0.03755768369815883 -0.6143380632261474 0.3309598714668507
0.88754375 -0.9175472663000442 0.0705762440770651 0.00540646323917775 0.01256734399727282 -0.06167021106808677 0.18228681566610758 -0.6949695236496578 0.3712253142244369
0.8999625 -0.9292786031023376 0.10408133329560496 0.0027823688832172913 -0.005434575704198765 0.0719477845011863 -0.03185851864928515 -0.6658293815710208 0.1549624917793975
0.91238125 -0.9065926751432507 0.16547103156499038 -0.011532287688880394 0.010074664143240073 0.019853146908954622 0.07939598526156695 -0.7403149130208279 0.2996939157472382
0.9248 -0.9060547556761636 0.2078783415589081 0.00084016646869591 -0.015948114930389855 -0.04120790552022052 -0.13038475423058266 -0.6322993110051044 0.3665541283198756
0.93721875 -0.8928431810558174 0.2323342385102424 0.001997197030149866 0.004028429135192329 0.015562548128202286 0.058111914284380894 -0.6876841234041838 0.3991628823827076
0.9496375 -0.8830940739842074 0.2707791615842467 0.013196039098086683 0.004187416494865134 -0.1030974220542638 0.04514598850480285 -0.7051929292197674 0.46814107659126053
0.96205625 -0.8645438711967561 0.3164048637157589 0.004895620995064594 0.006016597536073509 0.047984302276448274 0.01862901068516896 -0.7270881491059499 0.37736478864213
0.974475 -0.8459189668485751 0.3490405280999867 0.007831609083040517 -0.008557237070178515 -0.04976726573657412 -0.133357992904886 -0.3671081724047462 0.4731264557397363
0.98689375 -0.8250489002885804 0.38117150709108427 -0.0002777598094939778 0.0074174868620462565 -0.07926432476414015 0.03722505972562905 -0.4767758080986026 0.3767037659734746
0.9993125 -0.8089458885866316 0.42097039135783293 0.01237091596744556 0.00523746130375402 0.019193595364915494 0.04103655614670477 -0.7621331972302963 0.5877829067054963
1.01173125 -0.7896910620174086 0.4654537085683162 -0.00354565030821289 -0.001575150694558773 -0.006304599707469035 0.04503778058100533 -0.48151165754774816 0.2904843120578655
1.02415 -0.7665813233674432 0.480613413914506 -0.0013185745401334981 0.011657768456726359 -0.009381318276292846 0.05021572354244534 -0.5125800548860746 0.8575730119563032
1.03656875 -0.7525570673986516 0.5226756340327346 0.009765342319497003 -0.009629147644185333 0.03995121550947398 0.001993394677743397 -0.6562542303722239 0.4476138368787776
1.0489875 -0.7202629565643854 0.5407580103599905 -0.0014479184600354263 -0.002752040327890028 0.02391659696756184 0.06704408432950326 -0.5264966611598406 0.7211392754534731
1.06140625 -0.6933164490510006 0.5825675293969815 -0.016177709922675157 -0.004415290012396152 -0.07494998046476103 0.06916942053103764 -0.43688147285732737 0.6972510354781719
1.073825 -0.6634798574698105 0.6064710823968193 0.00032925561274556894 -0.0005306955722041686 0.05543709421082163 -0.06361524358182642 -0.40105907871083274 0.4229744718409029
1.08624375 -0.6404625774918903 0.6345515304361061 -0.0035750070461815896 0.010541074473975946 -0.0501501206450685 -0.015026379798693845 -0.339492803604236 0.6329648749517146
1.0986625 -0.6143150983878577 0.6620224879994061 0.0025297666244029826 -0.0026021969007757003 -0.018069462238145664 -0.07771128586219807 -0.30916578226761604 0.4800044466542824
1.11108125 -0.582627466925129 0.6914712572463808 -0.00618878122171246 -0.00936964709858619 0.013685932850170182 0.05535731256746946 -0.5541708952678498 0.7214963657354823
1.1235 -0.5510239057740193 0.6983827043063464 -0.011570348329004726 -0.004455927727966782 -0.015306587240762412 -0.01781814345293547 -0.17562994001739668 0.6126520283716925
1.13591875 -0.507069115640415 0.7347812780628832 0.0022285798257518133 -0.003949046421339641 -0.03686347102589851 0.007846080409391352 -0.28788277296268727 0.861561984268421
1.1483375 -0.4827710239171975 0.7487551932723977 0.006251405823005139 0.0074315949896335744 -0.034735389538857575 -0.00581757976136274 -0.052678305598767385 0.8165092421957567
1.16075625 -0.4476242384397011 0.7699645652796482 0.0035686106960561995 0.008808406158842335 0.0007789258856325451 -0.0054586114646993 -0.37556572056960674 0.7160825665187601
1.173175 -0.4016508987923648 0.7781583262347443 -0.0030863247281891905 -0.007891839179705516 0.023895649261743507 -0.057423265006657453 -0.16740247222848564 0.9115443055939688
1.18559375 -0.3766427212727859 0.802279808052423 -0.000617979835796251 -0.009926174240994949 0.054426236447507687 -0.009714506532840669 -0.08210518627437192 0.7468738587194639
1.1980125 -0.3479616907134717 0.8076245435771684 0.014872766447334299 0.005836294875363542 0.059598399140506235 0.04198608686112722 0.012790485936450212 0.7533704353085965
1.21043125 -0.31074185059256537 0.8218799211208607 0.016055949562427493 -0.014678369187675162 0.03699579154447296 0.1013011427366419 0.05908981838846583 0.7751252448833315
1.22285 -0.26499882752579323 0.82999938571391 -0.009674528115644359 0.008192357425551597 0.03389028452409161 -0.07009078611551062 0.028540891398411396 0.5858530529840812
1.23526875 -0.23540397485183018 0.8383977929729378 -0.0007613417189386769 -0.012323726484233678 -0.03444639464091961 0.041520825107308715 0.14814676547191 0.6022238485291629
1.2476875 -0.1740708377905383 0.8643291458751738 0.009042026773738204 0.014123980390738141 -0.03405643748556785 0.03750348720321914 0.006251722179292129 0.6237784867866438
1.26010625 -0.1543476990177828 0.8701448236476452 0.006329438992937061 0.0024254365165629435 -0.05439328163404944 -0.018183244818788042 0.07008942782864873 0.7796929563139267
1.272525 -0.12654796606868235 0.865307089139433 -0.015848989333214873 0.0070408935981199 0.0767645797529352 -0.059366365157401305 0.21908159437209976 0.7277486508766239
1.28494375 -0.08149730348905382 0.8700010237687182 -0.004089008451057377 -0.006261882530062494 0.034367869381162756 -0.017948892648212204 0.1858634546063933 0.8221794576140988
1.2973625 -0.045732157995788315 0.8703508549480403 0.0023538410648739475 -0.001162432324433921 -0.055552238928555785 0.031570088157674286 0.14969434430916273 0.8672723558053517
1.30978125 -0.007375098442145647 0.8653860545582232 -0.0051838488575864 0.009821978598065832 -0.03362556611679483 0.008608168973764228 0.10607406410086373 0.6566796971694262
1.3222 0.04193364808680826 0.8523932286688899 0.0021697170978773363 0.00459964568892125 -0.04548381262139269 0.024759975132049385 0.2613790845842378 0.7101386138887021
1.33461875 0.06592320218962444 0.8593525792234814 -0.0011550583503956175 -9.708812462854738e-05 0.03736338568234582 0.003224759986094761 0.19785761894345855 0.7247596932093574
1.3470375 0.09952383538303443 0.855866199359364 0.001541559799509855 0.006723220353053358 0.008743650226279459 -0.013172132933063345 0.4840106222456665 0.5342795852059521
1.35945625 0.13193048980320657 0.8460374182329723 -0.0021240902034542503 -0.004717022846411932 -0.007540958960851426 0.036668146467187065 0.2987868125301601 0.4727981277177782
1.371875 0.16564758715279448 0.8543596191469411 0.001124569324496905 0.0054028803373333155 -0.052787230485678766 -0.040151703715637005 0.39012833714730116 0.5999834769410254
1.38429375 0.2106426382602545 0.8409325503386661 -0.004592333284735987 -0.008593060415295051 -0.015240014839206215 0.0006966261900948849 0.3278964857696758 0.7503301798315292
1.3967125 0.24757957242675951 0.8179669216865638 0.01713843960134579 -0.014978408130635586 0.01015201883615492 0.022557176621376462 0.18715839481789467 0.8188180799351437
1.40913125 0.2704187148062278 0.8107672755444478 -0.007419251085331559 0.0038339743222280285 -0.05493439499774163 -0.0020758601861250482 0.4428599935824896 0.6676534874787224
1.42155 0.31539784467400156 0.7944826819053841 -0.0037959496321165014 -0.0022527499923041027 -0.005843024373315831 0.03432681504211847 0.3460056286460042 0.5900195586972665
1.43396875 0.3574448845122372 0.7774480549073132 0.005693329508615472 0.0020964122048279356 0.01786536197736871 -0.005454997823579557 0.4566645709702117 0.48777572025588334
1.4463875 0.3751172940513774 0.7559147351104339 -0.00014403868361025708 -0.0043012827081332985 0.014716584917096076 0.047247245289746866 0.5312417389768334 0.36604630968703616
1.45880625 0.39734549623151855 0.7405248562257908 -0.009205258914614245 -0.00884827050778003 -0.006856410977027721 -0.03325905801646858 0.5066448619234916 0.4706168240437168
1.471225 0.4298808146383924 0.7268435209014734 -0.0029041194016160626 0.010289174860852601 -0.010082202367913611 -0.007485998026249391 0.5929025473091777 0.5649141504744258
1.48364375 0.47556608548882623 0.7016454094459355 -0.003642836917939615 0.0012050837590280316 0.016021822418617635 0.03868756102258545 0.7708705332734009 0.45597314385555077
1.4960625 0.4865198110154134 0.6771808640854675 0.012064273890980732 0.012219904355403996 0.018604984586780535 -0.008602020755624896 0.5690043494305012 0.2734874401321119
1.50848125 0.5129253356615491 0.6669026167941511 -0.009544936120023014 0.007796369864587125 0.004428672537745832 -0.054930787278721006 0.7569903784700827 0.25321370566231416
1.5209 0.5622442771395582 0.6328015772850163 -0.01062935014822548 -0.00584466717927745 0.030411877678991697 -0.03203868195271489 0.5794477561504793 0.38986607980830573
1.53331875 0.5670782815295023 0.605091136231218 0.0031001262795307925 0.003257053638241844 -0.01798160252286626 -0.033941190583565026 0.6170187796276073 0.36886973183257815
