!Created with skrf (http://scikit-rf.org).
# GHz S RI R 50.0 
!freq ReS11 ImS11 ReS21 ImS21 ReS12 ImS12 ReS22 ImS22
0.13 -0.1520448014963054 -0.8899371073221692 0.000782874707437906 -0.0016869807908875376 -1.3143641862921893 0.8697009673721066 -0.04080230174560558 -0.6723776241174428
0.14241875 -0.3623518440009662 -0.8512260953740368 -0.0010867624251692852 -0.0002473115639048191 -0.24610084132905738 0.6469082755708254 -0.20618380689956858 -0.8783149382543063
0.1548375 -0.39049167023778686 -0.8267916920171057 -0.004919739632224164 0.006654337621752031 -0.2922144958910878 -0.2116980898086751 -0.4929822108307656 -0.954624474251055
0.16725625 -0.5324404044888509 -0.7469924073708518 0.0028944540399386126 -0.003686566007998959 -0.6538076206606017 0.5113850073603077 0.19636661122744362 -0.6526160390140507
0.179675 -0.6076883967871737 -0.6219405289649419 0.0051345891206492356 0.0044806672874411054 -1.0368612109885125 2.4935820361517096 -0.04626714171360538 -0.727167272797645
0.19209375 -0.7649042877655193 -0.59710500160922 0.0001417110718744434 -0.009278645835164115 1.315609442524157 -0.20458104393466275 -0.3091054209247718 -0.6046140633795976
0.2045125 -0.7454281392106581 -0.42510388126631765 -0.0010135568260543912 -0.002730727394210694 0.6024808183976273 -0.5203486201753887 -0.4357084048441849 -0.8410438282094475
0.21693125 -0.7977716568766587 -0.35584273589464016 0.0033960027976831513 0.004855981517959656 1.2473315008743333 -0.3117738449815815 -0.4747496588950968 -0.9398127377598422
0.22935 -0.8675737724721747 -0.23157838580518386 0.0023241239453402197 0.001945450997077141 -0.5492069003301205 -0.1106460219496995 -0.272010226605332 -0.8741218443628914
0.24176875 -0.857041237280961 -0.11425856425305754 0.0013021200491184326 0.0027879379688066238 0.03566640512085407 0.04404741228908906 -0.5931191917228026 -0.5110641921823469
0.2541875 -0.887162747110523 0.013670471959513836 0.0009157886886843235 0.0020095148733839945 0.19433136615306182 1.0663606926303661 -0.5311709345990936 -0.4304936250198373
0.26660625 -0.8762823320721512 0.09935564844763718 -0.0017362163991576007 -0.006026981793508305 0.20544755530108638 -0.2232422435130407 -0.6661290517308561 -0.07985486760424693
0.279025 -0.8451473499788427 0.19426815740102543 0.005932584337415769 -0.002286359635074313 0.32652560007521114 -0.2549126402234588 -0.7111161018136462 -0.14356779700199743
0.29144375 -0.8105537951315636 0.29414161438374875 -0.008386337737472467 0.001975927360132997 -0.295725854938669 -0.2637281593958981 -0.8493509534894271 0.0692930497724241
0.3038625 -0.7765918971612157 0.3919658616662885 -0.0027665688512432717 -0.0008433506424354506 -0.15156780164584374 -0.4882456284316234 -0.5730006189310396 -0.05738245353541327
0.31628125 -0.6852962602581105 0.44903274578766295 -6.214346716733579e-05 -0.003231881695246247 -0.09742178214826899 -0.2888054166737554 -0.497309284986845 -0.025654914964117072
0.3287 -0.6744534496436589 0.530802097524436 -0.004932776954846209 0.00040446466873665367 0.25322758018716246 -0.46284422321845087 -0.7924330288086906 -0.13616489800751516
0.34111875 -0.6007365982619872 0.603034544634374 -0.0012739792269017885 -0.0027560579438824953 -0.4481987185646263 0.3161145043400066 -0.8264515913941477 0.1285877294877933
0.3535375 -0.5519937076298229 0.6662833259347875 -0.003624113471144697 0.0009853927714030483 -0.07858896969067485 -0.19303519573793845 -0.6114926644934734 0.0483772120018499
0.36595625 -0.44166423222160867 0.6920239448743376 -0.007597199603122758 -0.0010202205597041744 0.12675910467420295 0.05410973454067924 -0.6927416296945659 0.16062860894111777
0.378375 -0.36656272731615136 0.7328322903234902 -0.002456536157537392 0.010663642772173175 0.050956023301105914 0.07749021154295857 -0.6849189445354701 0.055126069040027176
0.39079375 -0.29315532444117454 0.7682322004501181 0.0034482346657487128 -0.00015474156386656053 0.40594101398811794 0.0784510816361581 -0.6664729202413208 0.3378696634105878
0.4032125 -0.2068589514837853 0.789859504001244 0.003196022974590867 -0.005338430606484975 -0.21391882201839182 0.10999096815788624 -0.43821824348178234 0.14815555645555137
0.41563125 -0.14499504855273754 0.7895308180823786 0.003075050133116168 0.004433634504692716 -0.06670672300130863 0.24693156473050487 -0.45356654101596233 0.2854015793837988
0.42805 -0.026480330983307165 0.7939921453953777 -0.0030712216549000624 0.0004380395713704002 0.1952116423462247 0.20329552629843392 -0.6418043470060739 0.2667672800284264
0.44046875 0.020376988128118504 0.8232036505496301 0.002821812864745659 0.005281838796693574 -0.19444685476082474 -0.1730271711644207 -0.4012879277128105 0.3793547701542634
0.4528875 0.11882999956025009 0.8136956231959489 0.0016277359664703874 0.0013249271014460784 0.1624450036279293 0.10867048459745232 -0.7367096451033874 0.4538085864545481
0.46530625 0.20419992555445027 0.7920324222534499 -0.009244420418346859 0.00471185534098841 -0.014985155226002854 0.2307991342951527 -0.5236619698857142 0.6102592560616094
0.477725 0.2611422418682983 0.7251643281063964 -0.0004222424311713193 0.005450607546935166 0.07925460334034179 0.10299552027845263 -0.20708059040725824 0.5794986998883853
0.49014375 0.3396936836445839 0.712807843601872 0.00939927387543695 0.005378718226436722 0.03215978883112806 0.2173140487365411 -0.25593486148319927 0.6529901647849654
0.5025625 0.41124968658857053 0.6733118526433499 0.0009022898949350623 0.00010102349982365538 0.10680992834373498 0.13488144989052986 -0.0975969963903778 0.6896617499551132
0.51498125 0.4347348829332009 0.6371855198086878 -0.0006943973712034386 0.00041852576937545147 0.04126496239504721 -0.06452034676821598 -0.12090618494477456 0.4930834278683257
0.5274 0.5067604211335078 0.5775714359677041 0.00606953652801371 -0.003343737646645854 0.16463050234294976 0.13261968517212824 -0.04538264883987974 0.5381594248083355
0.53981875 0.556887015287466 0.5440514139328408 -0.005007957890521521 -0.004462417713437111 -0.0678850800589755 -0.026473685001537593 -0.03913494089397779 0.4938130231200761
0.5522375 0.5967403098156324 0.48810026348086694 -0.0005554060878115122 -0.0024460183947166768 0.06848210592262892 0.08353855764845833 -0.03713718141160531 0.5444196418954251
0.56465625 0.6274423827003932 0.4302222276720963 -0.006342379624839366 -0.002488345169426086 0.10077019981482306 -0.06227776175578695 -0.15296566873246997 0.590809641047555
0.577075 0.663510752697833 0.36204540575699307 0.002271496760757715 -0.008923636770203315 -0.03325942700080724 0.1833558650360616 0.2592904244144218 0.6906314900136303
0.58949375 0.6960887703547473 0.30156827059442887 -0.0035712494779978027 0.00827339949661616 -0.15709754387280653 0.1582585495710179 0.05294960897812169 0.5944788506389566
0.6019125 0.716963036920047 0.24383960614506492 0.0015624780010214767 0.005163469788901675 0.045514707830868584 -0.07699231278817045 0.058989342711839234 0.47560377193618575
0.61433125 0.7322187002637148 0.18169460444227536 -0.003411321692895857 0.006070948677787358 -0.017836530796147013 -0.11281453253015214 0.08263199174243296 0.40110758999492496
0.62675 0.736839449902762 0.11459351167349512 -0.004827560739870514 0.019413025884551932 -0.00585503412924416 0.10710937649103794 0.250321742412277 0.36321156991750825
0.63916875 0.7446089989452886 0.030642944940407615 -0.0007347773245771164 0.0017849135695314298 0.01833174586755731 0.04227831235785137 0.13635077351054323 0.36137823482503234
0.6515875 0.7340612847806604 -0.028623625884568956 0.0031137584122998565 0.002446095317264716 -0.008980336611199645 0.01887732474222699 0.20800015437067051 0.44494848161601686
0.66400625 0.7285017546519058 -0.099460924134262 0.014105460940310736 -0.003538727817101143 -0.06025799130651336 -0.19011914437408003 0.4215251824017145 0.3459127307090384
0.676425 0.7218267223243648 -0.14953060187458006 0.003929023421706019 -0.007348275525503223 -0.1361780262508174 0.04047919256036281 0.3400231375405359 0.3851455901532097
0.68884375 0.696982056377987 -0.2243767753475468 0.012855347520126107 0.0027691512417751143 -0.059695442088784 -0.10982031020744817 0.25729867399213363 0.4168372118306103
0.7012625 0.6734659019072634 -0.2837583715100618 0.013134859555808337 -0.007485524718067349 0.0085719350715812 -0.044667572812688065 0.35660194516510063 0.2551144205182481
0.71368125 0.6311859039257216 -0.3326326059315961 0.008147785586077622 -0.013564381536904804 -0.0334706209701623 0.024067693839144973 0.41110521630460695 0.3115292968476696
0.7261 0.6000882147715769 -0.3840549449945575 0.01122112328663812 -0.01852884697319421 0.02369125447698333 -0.02054491933798612 0.3229629276731427 0.3124353263866333
0.73851875 0.5493011329381644 -0.43696442340817315 0.001260195899648707 -0.025977103063142187 -0.06402070933569208 -0.13192326429383622 0.425593879089307 0.26170312545765684
0.7509375 0.5055615647891302 -0.47254045440160786 -0.0071321272291922306 -0.02997742293098644 -0.05442740643138145 -0.07026427671856852 0.3068828731991639 0.2845927729863692
0.76335625 0.462749942076631 -0.4972911052209883 -0.018264132069600737 -0.047891726304396094 0.18684349870071054 -0.005079698751824393 0.45805007155713656 0.3697338919951368
0.775775 0.4129952890328836 -0.5288699397220363 -0.04381552828398011 -0.042208373798080276 0.03860843351006356 0.07702841578161361 0.3898868981855404 0.24715391629322023
0.78819375 0.37422749008008666 -0.5740295915861467 -0.0563638935802474 -0.037328556053997305 0.1023658366883568 -0.07716007700199458 0.44615620636012765 0.25240295967399784
0.8006125 0.30195116755295665 -0.5906202544433479 -0.07111596816088575 -0.020654789594737946 -0.037919750716792204 -0.05348481980450093 0.43648890487408554 0.1603534251845399
0.81303125 0.24475360320941628 -0.6136012946333081 -0.11102792715444404 -0.0035285941127753107 0.11065948118802948 -0.15635326891213414 0.3558908622318687 0.31836473525386466
0.82545 0.1931008252893074 -0.620392469741458 -0.14856603690000522 0.03187522576860288 0.09676743257726209 -0.034918181303313124 0.39599372712586195 0.1499437081230032
0.83786875 0.15369877623128714 -0.6342927608828783 -0.15682440097488426 0.09214635437612234 -0.07400132358720617 0.018718771860654102 0.47088974816046886 0.14137168204502537
0.8502875 0.08987065363467263 -0.6426416799672029 -0.17515242438913772 0.16062948448935324 -0.018437514047962067 -0.011962741669400912 0.4576586704906995 0.1284459621048442
0.86270625 0.02541476221613989 -0.6347147732464379 -0.15632530718392088 0.2606920866798635 -0.014325708247862778 -0.08811460096439583 0.5684910554475424 0.03759295946598174
0.875125 -0.019985995830518865 -0.6288633994898826 -0.11425849581694329 0.3858268096745728 0.021007819952127894 0.0028706187063967602 0.46244404106861486 0.029178393863151356
0.88754375 -0.07503897776507402 -0.6146072368736586 0.001717527517291674 0.5038422874473439 -0.060637803876936694 -0.028265806903197143 0.4801020348593367 -0.11321745132164991
0.8999625 -0.12621946169191228 -0.6080709501336191 0.2048644898413704 0.6278852090526075 -0.04281980077800355 -0.03229450501680334 0.4443084645277267 0.04557730832519908
0.91238125 -0.18767680129663966 -0.5789525528902819 0.4793577916570422 0.7027945803248601 -0.054290073945629555 -0.08028746398915766 0.59322026833733 -0.09396722484142835
0.9248 -0.22320694951195366 -0.5553979026986184 0.8732663968204766 0.6858731203494439 -0.047354564391575024 0.03850760353158956 0.4326376854423497 -0.244472949678197
0.93721875 -0.2611232161014396 -0.5397648271244908 1.349201300546759 0.46287023193436017 0.017669338448656712 0.012731080463339492 0.4521117201460698 -0.23864531146642415
0.9496375 -0.30993633085897265 -0.49743448004467683 1.8279940275490423 -0.0749232722156272 0.013046885786691493 0.08084023445990082 0.4139447510749556 -0.2771404670097536
0.96205625 -0.33555582444340687 -0.4722001855418636 2.01478302437958 -0.9148737843471527 0.0017115816651988092 0.00040898651721501514 0.3450075078636558 -0.3060134821431225
0.974475 -0.3757775981980732 -0.42661112109535876 1.7832788732734435 -1.8422356472836368 0.046456049046583466 -0.011700608434057132 0.44657650081585404 -0.25653365670856765
0.98689375 -0.41656099426450294 -0.39562559842129935 1.205482054231414 -2.794272305018281 0.14589610453432733 0.009093127401704683 0.34866504585517116 -0.18994882113351255
0.9993125 -0.4269012554291774 -0.3468559231650485 0.2275186747721145 -3.4676417019502153 -0.016331753800384857 -0.04398266829264152 0.33728879357040115 -0.2587559962412975
1.01173125 -0.45008947889719503 -0.300030520018345 -1.1187278425275138 -3.8062842149996263 -0.012650824456947853 -0.10332386569291331 0.38287432509585595 -0.3122125238368694
1.02415 -0.47414221671103907 -0.2767715475137447 -2.597639501705753 -3.6088677650574787 -0.058117988238917666 -0.06047929478611502 0.2223508245744105 -0.3950120449581942
1.03656875 -0.49862820868492996 -0.23243138375820954 -4.108409843437749 -2.84844604583545 -0.03518172585506974 -0.03928820202558895 0.2670641704856316 -0.47516618033938907
1.0489875 -0.5036309289969139 -0.1810545872062554 -5.273580968565491 -1.4942924929704127 -0.05490266954115703 -0.03326456495818268 0.1951290298771371 -0.43891107937886376
1.06140625 -0.5111922823497217 -0.1458279803413934 -6.135182288804289 0.22764754255070577 0.08260778772032641 0.07793820231388987 0.23820533860246304 -0.5663222201768064
1.073825 -0.5140229349901875 -0.10122583465645978 -6.333325983147963 2.402445620554829 0.11016845468340139 0.03883738762707093 0.12148531097986869 -0.4989736677528124
1.08624375 -0.5208814696598264 -0.0641003972800905 -5.717419148991584 4.7235608587137445 -0.0035797469290271854 0.014777502918005003 0.18453407871826938 -0.5260037353494953
1.0986625 -0.5030740256325962 -0.002881066820228673 -4.238839161304891 6.8519755382311 0.08840023552548923 -0.06984561940799432 0.07048937681209018 -0.5093669418483167
1.11108125 -0.512439091201001 0.018034685216807986 -1.8945481383229328 8.110270435700095 -0.005188325201064017 -0.035766084800268445 0.07624255780469129 -0.516898822797126
1.1235 -0.48251879639578643 0.08732155853094017 0.5526086037839644 8.601896663671594 -0.013011804830600628 -0.06782831373010711 -0.1486469957009732 -0.47745691905198645
1.13591875 -0.4781769359110056 0.10532542267707921 2.958668435123222 8.596404657634382 -0.05935204663502315 0.12185837098592532 -0.002338273260312455 -0.43413676944804125
1.1483375 -0.4760646041270112 0.15892816787819256 5.448690011207054 7.910550364481541 -0.09223245520999188 -0.046709996302934535 -0.16163290783357087 -0.37459015762637704
1.16075625 -0.4301181264730084 0.20178250730326533 7.831261771234613 6.490643023057362 -0.06029675958265553 -0.0063374448049333745 -0.20086626817233716 -0.3802098974302811
1.173175 -0.41944118609145714 0.21465333294948563 9.69304764731361 4.317998596957173 -0.008649545421515116 -0.05645295583631187 -0.13257502810277136 -0.3893321750100113
1.18559375 -0.39586791889298667 0.2536398914337889 10.876762946974473 1.8250059706469581 -0.04676795668956907 -0.027763605737874366 -0.17438753108098615 -0.3489923327531633
1.1980125 -0.3691677342097235 0.2938136844554011 11.310992394029823 -1.0366610474026456 0.027873141828320274 -0.03538667555149577 -0.1674251691149142 -0.2413072545689223
1.21043125 -0.3369674111926451 0.30574438679597243 11.24341017579583 -3.79376984437056 -0.0007298105511890425 -0.030063355174003405 -0.19356099928343753 -0.2427275152912215
1.22285 -0.3111039472260549 0.3121237019925244 10.537632144067071 -6.704630212224071 -0.017939636114554427 -0.05823740081851025 -0.31098295316505986 -0.2950312241268004
1.23526875 -0.28762250004538287 0.3333424994027723 9.145655671967313 -9.424847292660415 -0.025015112404335675 0.027113068029172238 -0.27592395375653705 -0.25318400773842475
1.2476875 -0.2368097759385141 0.3574627531232964 7.194524958462324 -11.68489214261951 -0.044220913467743685 -0.030847143740789052 -0.3190061401590295 -0.15312033844498046
1.26010625 -0.20231335984668233 0.3739513301296009 4.714654169400303 -13.741024433921236 -0.057735185638818194 -0.03853188567237309 -0.1952532784927202 -0.19761031915421115
1.272525 -0.18111923170756142 0.3945748031008333 1.6813212036942782 -15.323073722605686 -0.01656845626720946 0.11526657369262415 -0.32916146974652466 -0.16238027448383122
1.28494375 -0.14576745380877631 0.3658762384983669 -1.9998781682432643 -16.426560158679532 0.005766966358301103 -0.02798403113429383 -0.26014098426579396 -0.027413647412729523
1.2973625 -0.05980794445762791 0.4251350126983662 -6.183946941860796 -16.109732554888236 0.0005878222582674423 0.015361510479046313 -0.26287833703376845 -0.11426013528461337
1.30978125 -0.07458193658548194 0.407522862915309 -10.23564592316586 -14.9759272825316 0.02289243250849997 -0.0032216984863365794 -0.14304371780536035 -0.006264965455424529
1.3222 -0.0374653372595397 0.3576315510812441 -13.85433829150371 -13.050675526656994 -0.04010073385198295 0.015086605360444337 -0.085224774010124 -0.09640852126525425
1.33461875 -0.0033477662281021173 0.3928232593025152 -17.345476142394315 -10.57409396409224 0.001067464966592538 0.00010709753913713786 -0.20357824782230272 -0.004525409599270961
1.3470375 0.017364610910549503 0.3839000842070383 -20.38794035403163 -6.861918951689106 0.04963568351285583 0.010026270754418132 -0.18455889974478082 -0.046764850361902414
1.35945625 0.052248813257474894 0.37984621179301553 -22.925441136468898 -2.4285256202286316 0.073209506847075 -0.06515391054351682 -0.14333745700080314 0.006003703633824235
1.371875 0.10163168201462516 0.40386677897094686 -24.155356502715527 2.90240160301062 -0.03535447803309526 -0.030767049102534052 -0.20528789727587485 0.046805139851928516
1.38429375 0.13199677936002344 0.3495499539696548 -24.188919275734108 8.89754262919966 -0.000792062065675355 0.02233245501898196 -0.10977551890878 -0.04794548535189742
1.3967125 0.12139536970632589 0.3683118944739011 -22.832805298044754 14.616229474933869 0.04424680470527417 -0.006148898999392468 -0.19837163870282212 0.1040232549176841
1.40913125 0.2022549457035298 0.26956580205575376 -19.659111951389782 20.235773143147664 0.010075586129415889 -0.037870992643741795 -0.23302635158399296 0.020483219249328534
1.42155 0.26564702674178176 0.3322403471912191 -15.881946603570515 25.339478121164575 -0.03874526861067789 0.06979727896603333 -0.10198500852929966 0.10406415319723489
1.43396875 0.2739603059030447 0.33227118883100853 -10.508748483063501 29.528556552499587 0.011763835825070967 0.03961484584253674 -0.07026727035267782 0.017753849058650746
1.4463875 0.23863296444618165 0.25160405667102037 -4.184195140333852 33.21601299796494 -0.006440097765807247 -0.01463082348572224 -0.1298692513868522 0.02355734235881129
1.45880625 0.26690357344187576 0.2443043927335273 3.1610981718857047 34.951090789991106 0.022340015896792312 -0.020146778592626466 -0.04792383463684345 0.07006679968497256
1.471225 0.2899955528127024 0.21261833687055945 11.388033712329369 35.277765759958584 0.021137666075555835 -0.06535814717807223 0.012236980782568779 0.07224752349887334
1.48364375 0.2825598259916359 0.19603299388992018 19.972681030223676 33.47490039469378 -0.04375939373264822 0.0519055899448958 -0.17533745795008462 0.04376732999084622
1.4960625 0.2757920132704514 0.12918812643001928 27.919586070915532 30.030268753168507 -0.01721768704861649 0.008415071090697678 -0.12703453376135318 0.07327415202937405
1.50848125 0.29807204922631103 0.15734260087648688 35.27766852365264 24.336078429094037 0.01710336022984406 0.04224106833165035 -0.06799135775210816 -0.044537330242702525
1.5209 0.33394860815424426 0.11066272859319405 41.77679021382469 16.724227917308514 -0.0009903492923556182 0.0729913286345976 0.0018258643809105498 0.21597281186653863
1.53331875 0.3912550339548001 0.10992070709936957 46.58542170843387 7.850016817340881 -0.0064934187945547145 0.023090195394445765 -0.14735769677211025 -0.08739679090724409
1.5457375 0.26757565070970174 0.05054808022330125 49.165034292189915 -2.6847241016333383 0.02207747490060002 -0.04595536018824001 -0.11176481518968065 0.06193232815098
