!Created with skrf (http://scikit-rf.org).
# GHz S RI R 50.0 
!freq ReS11 ImS11 ReS21 ImS21 ReS12 ImS12 ReS22 ImS22
0.13 0.8433151025173294 -0.38703210948004585 0.0031264765305091045 -0.0066431603187315155 0.9680788339040405 -0.15460589808056802 0.9144923619363263 -0.7120230313130603
0.14241875 0.890331860102802 -0.47895984648147166 0.0038364449062556175 0.002651762152026274 -0.5397587576313881 1.6889815637684167 0.8613408434670267 -0.18498718431397512
0.1548375 0.8697512941727447 -0.4669713117119702 -0.009660001457299063 0.004438955762435904 -0.08518114074446355 0.36397520608271056 0.38464198089235024 0.1866133432683052
0.16725625 0.8734883228704494 -0.480355502848061 -0.0027155488847009626 0.0014230510084823256 -1.1833802862371803 1.6775970564360914 0.6790317762917212 -0.16305170816597236
0.179675 0.7947172122122396 -0.5735553329105008 -0.000792674620770205 -0.00850568146106723 7.432750100704313 -5.551876529259642 0.17704670733412686 -0.8623849060209224
0.19209375 0.8241787782878188 -0.648865050427383 0.00023281598730466596 0.007111792710598024 1.2064948375031506 -1.4228071897965304 0.5559581569879445 -0.9335399088489215
0.2045125 0.7452892073304004 -0.6468002914972971 -0.001682557139694797 -0.007074187195375991 -2.17835760165981 -0.8825331276663352 0.6168134809120581 -0.7538399541920414
0.21693125 0.7222797663480426 -0.6469188444367661 0.004016589996681429 -0.007552864823922117 -1.266395444096123 0.46621729342155166 0.5386618498355753 -0.9168947569527826
0.22935 0.6910734606950542 -0.6998929372352235 -0.0013603512904757974 0.00243804163596772 -0.11670292187092818 0.0825968326547844 0.5913080594042676 -0.3113596293077232
0.24176875 0.652977796823464 -0.6885179505228446 0.008226902560125846 0.0039854854005347135 -0.3885622493194647 -0.48238436072224156 0.3418777177235816 -0.594674913989245
0.2541875 0.6516631298009529 -0.7174251559708953 0.001365507837123894 -0.002956182419625713 -0.7689008979708751 1.1444812026661313 0.16909513818963484 -0.9232411536311207
0.26660625 0.6062341783377007 -0.8023354165324496 -0.004947648575350645 -0.005789754259082314 -1.1169278288859585 -0.12772069649765755 0.2494255607807496 -0.8885688226253585
0.279025 0.58255502503862 -0.7827485629074793 -0.003544836960334966 0.009339136939848293 1.474466546179143 0.318835671645126 0.2567254676633901 -0.8855023199370631
0.29144375 0.5288471970119026 -0.831624448883586 0.005837863712654816 -0.002624859985401372 0.21911652836395326 -0.08991336010056857 0.5466592371970035 -1.033038612527019
0.3038625 0.5138675184961934 -0.829389376821655 -0.002863351005264202 0.0011705163748779576 -0.38374233521244544 0.2457232214539313 0.2688500393748937 -0.6026303771969147
0.31628125 0.48142903574383633 -0.8891379403296241 0.003907265641360566 0.0029247534877981656 0.042772175005933964 -0.021493166975833724 0.3699252677781571 -1.1499731176511447
0.3287 0.4355496150160048 -0.8918513453573422 -0.002531982831794856 -0.003884980103306441 -0.11376549930047226 0.04303095067227795 0.3288262714212091 -1.0270118240193373
0.34111875 0.38281504853195053 -0.9295703053170584 0.012330561134572626 -0.0011172847218313005 -0.084248792260938 0.8889303842369729 0.2803506276524229 -1.0951165799303786
0.3535375 0.34211758064478615 -0.8970917136234025 -0.005872848303602105 -0.001545335661252407 0.30887592791910684 -0.4707290398796057 0.30117090142358044 -1.1043853692221497
0.36595625 0.30778975442640905 -0.9457434732960545 -0.008543121850964066 0.006560921988945817 0.10917417523398033 0.1954442978690286 0.3653031140767718 -1.0732627240478279
0.378375 0.26348957226468855 -0.9551683189179209 0.010861346011228562 0.005412031758076908 -0.24070158790311147 0.05178048721303852 -0.1719656089890078 -1.0406973906702566
0.39079375 0.2393885151264364 -0.9540365949369182 0.014581803317404721 -0.0045027126187308485 0.030997390220488356 -0.016955608715183357 0.030814857177641417 -0.6949042662368831
0.4032125 0.17281680768018798 -0.9542033100976413 -0.009890740233814824 0.0028580299463522836 -0.03989859075167685 0.26609893554992264 -0.23145006783420283 -0.9594470602875909
0.41563125 0.13632363993838303 -0.9885695630579242 0.0066673471715095285 0.00407388512543646 -0.08520023942345388 -0.006366517158700845 -0.09738294991368053 -1.1876646052412376
0.42805 0.11705087087597657 -0.990114434162376 0.003280072604395342 -0.0021687822505546328 0.04948529493455174 0.12666288731179545 -0.2146496735723168 -0.904944983335403
0.44046875 0.0638665034183984 -0.9888760181983594 0.006317545205155979 -0.00956175696817298 -0.17671347863882947 0.2141920160317287 -0.12883442019299143 -0.5820734467020253
0.4528875 0.037009867219184964 -0.9637366481453845 -0.0026824590339831257 -0.0019612418742519237 0.47783574512947047 -0.35709603924565864 -0.29455114680164546 -0.8085864582672424
0.46530625 -0.015110721280779348 -0.9893865682030276 -0.003715257924254977 -0.0004582333591706488 -0.08721598622430585 -0.061977595643166405 -0.6074748432487224 -1.0892488946817718
0.477725 -0.043995130950335026 -1.0139996378526612 -0.002273116468262828 -0.00259341891610257 0.054375026531968094 0.05424913024079487 -0.478613074507975 -1.0464369789173287
0.49014375 -0.08826154491918452 -0.9758751870382715 0.0032828214291347746 -0.0016436065962964089 -0.002742040782808263 0.37239591084285323 -0.6447573734327918 -0.6589795006854717
0.5025625 -0.12386927539264282 -0.95547460874126 -0.005427942395578323 0.004625670250770288 -0.048790502491662516 -0.07680511816692423 -0.21958899311436503 -0.5678789904622868
0.51498125 -0.17084500569849626 -0.9712332282074013 -0.001068050914863888 0.0038138817952407924 0.15247964258287244 0.13317032323179612 -0.5193578306937044 -0.8858327141164474
0.5274 -0.20551838283323606 -0.9521943602050517 -0.00426721625587651 0.004285876238638611 0.03518783238593106 -0.06425317026244307 -0.7658731235913313 -0.8258019814376153
0.53981875 -0.24390650062483193 -0.9412631037533055 -0.002005224532024264 -0.0051647637643789275 0.10844267957544243 0.05036527617704026 -0.19121113911140794 -0.9762317969439287
0.5522375 -0.2904277692477794 -0.9211192034081996 -0.0149663607998705 0.0023119002102980775 -0.21148547495980727 -0.08514393077224357 -0.7328868586273988 -0.8026574809416013
0.56465625 -0.3463706594840492 -0.916303263325059 -0.0009850980529668033 -0.004617491663878087 0.008864030270666606 -0.03819232604966108 -0.4909162859343469 -0.7099241421160054
0.577075 -0.3836399401304638 -0.9012354529812002 0.007475417225581276 0.006121707748348912 0.011406836111122632 0.048502384631680925 -0.4596830967271601 -0.5214367897691058
0.58949375 -0.40046518097677253 -0.8732128803645125 0.005611726755865743 0.0011482942615443639 0.04568338469265653 0.016808389630931054 -0.5259323465901896 -0.7419210645154012
0.6019125 -0.43504254158816763 -0.8528126706644198 0.010159122847260553 0.003935524588468065 0.002733239230097081 0.0006829577264826925 -0.5099469935428409 -0.6355582959501459
0.61433125 -0.4882043683460067 -0.8294529826720212 0.00469079339348309 -0.002355037476241908 0.09010992096302198 -0.07019405657646281 -0.7928358834631871 -0.5302252438453784
0.62675 -0.5022635915698517 -0.7919658024848386 -0.0027651950155753854 -0.002800102561334057 0.032952692903440904 0.0023878228233466473 -0.6713406935946816 -0.424480846909248
0.63916875 -0.5480968526168549 -0.7888145623879519 0.0067695657670662455 -0.0015007765989689462 -0.027466033530887238 0.16879283630201591 -0.7746307486863493 -0.2898633717898108
0.6515875 -0.5793995576030063 -0.7620569234184875 0.010239421263563446 -0.009079629668280562 0.06955093012264577 0.014880795852415439 -0.8544508034457388 -0.4340444600391915
0.66400625 -0.5901675364571203 -0.7496746430799665 -0.0031313163607680516 -0.009789124783066008 -0.0873187984851378 0.026852343857100763 -0.8896488052980701 -0.2984818751357421
0.676425 -0.6306049120511913 -0.699398208707932 -0.010276921926257721 0.0014129028698810298 -0.028651268738176982 0.0030429722681657584 -0.9486451223124385 -0.3881009662597294
0.68884375 -0.6633032391252177 -0.671859924101981 -0.00220726968039732 0.002437349760897137 0.041759683947758176 -0.046308939383034035 -0.7479719944666383 -0.42587906852157786
0.7012625 -0.6956992723027247 -0.669449828078682 -0.002417297038928699 -0.007893147701699542 0.03503235855182544 0.01220036139745617 -0.8979048102916342 -0.27867262292401884
0.71368125 -0.7189035743512259 -0.6379569986443447 -0.0013264347538856115 0.009556228731334045 -0.06700389722301821 0.0373321932161615 -1.0107743799966211 -0.23277504996778267
0.7261 -0.7496870681484904 -0.5880278587785136 -0.0032698379619343506 0.010877917421019581 0.07430125533797537 -0.05079407034554786 -0.9290274489187655 -0.09674827827001053
0.73851875 -0.774716742850077 -0.5713008974222169 0.003778225053149866 0.0015413542813008311 0.015701052470127024 0.0683061139022086 -0.7961331289705937 -0.13769494778115593
0.7509375 -0.7936405635211484 -0.5028706169511443 0.0019315404147728721 -0.013549194727339718 -0.07765308403196748 -0.09621504422496491 -0.9021378299098654 -0.10129061824011673
0.76335625 -0.808096032905973 -0.5015901028428612 -0.008829483889014555 0.010230183526137089 0.1376336666790325 0.15507588791692406 -0.810071722954793 -0.03625387342270454
0.775775 -0.8125236119853064 -0.45430767395209987 0.0012321618207224681 0.0029277323107944554 -0.049678122211176005 0.029080459789761634 -0.8570590401352962 -0.1295223658402007
0.78819375 -0.8450158517163253 -0.4299767051408391 -0.003943564286754386 -0.005155345113150961 0.036476453082299395 0.039180423325959716 -0.8122641126339082 0.18391303371087367
0.8006125 -0.8510418208394076 -0.40038484301276006 -0.006174537855267154 -0.0023431750108735545 0.15567267349754288 0.1470134235210453 -0.8013825364311656 0.010599962574848463
0.81303125 -0.8705491233819224 -0.3603151472443603 0.004293389316805462 -0.00607720278570288 0.06320608343257522 -0.02833630390393059 -0.8226570423272683 0.1004403134292532
0.82545 -0.8724431693462414 -0.3081452900981482 -0.00377695530246751 -0.005106446106356343 -0.02824548828577487 -0.045881540690995745 -0.7375731489994873 0.14775820687077815
0.83786875 -0.8977101264310335 -0.2719164295615601 0.003225147748465876 0.008182606234987292 -0.05522749176380565 -0.11751408987600827 -0.8079594081690226 0.11433780610244966
0.8502875 -0.8932046000611309 -0.24050866362073114 -0.002628649866657252 -0.008181153066197695 -0.024310134540308108 -0.04325655411889486 -0.7471053598316436 0.1649881219436356
0.86270625 -0.9118892372968092 -0.19421794674524295 0.002222249115347986 -0.010525410183522523 0.17608853845095931 0.09661328971153674 -0.657434690413627 0.3465801663370812
0.875125 -0.9198066843869211 -0.14992877959532697 0.0013040285109175663 0.009552574432357885 -0.005185326448561551 0.07279834988802088 -0.6090449753624722 0.25023392974328046
0.88754375 -0.914532394409723 -0.11317662256249739 0.004683707962920249 -0.0032449486817177045 0.13844655386525573 -0.09310211448002352 -0.6644498891052304 0.36076685441381234
0.8999625 -0.9323657384912727 -0.09195837665469078 -0.00011202673591426343 -0.01711618002291469 -0.02581087782790099 -0.019783026055731408 -0.7422146331583792 0.37283868924551905
0.91238125 -0.9227767512320677 -0.04142394056505789 0.0016977403986754827 0.0021156361589273866 0.043624064305376686 0.08842285516812408 -0.8636983064454452 0.3617633976978449
0.9248 -0.9264828442375451 0.0007579771735728257 0.0076946996126274125 -0.004497263932135725 0.045259248990285696 0.05129704688227991 -0.572099301442354 0.33962440466639965
0.93721875 -0.9320908384334694 0.025297949360609227 8.509980265307984e-05 0.0054502996495076885 0.04380794704927313 0.09519743484018872 -0.7431977812785184 0.4920576269362544
0.9496375 -0.92170636944762 0.08545341104615319 -0.005284813401687086 0.015593002555876576 0.06281089664611707 0.1727180596781137 -0.6541047296015835 0.48002097568066576
0.96205625 -0.9169677211554415 0.11436673666900365 0.006205060325290082 -0.009724624471457444 0.028860250376666716 -0.0037086082988263577 -0.7471989792772826 0.408602901359028
0.974475 -0.9075726903378705 0.1441259834956989 -0.005778044748424239 -0.0004959880985407932 0.0570136788552912 0.026704314818946116 -0.5791292884250986 0.46182174133565285
0.98689375 -0.89830555543229 0.1892770866045742 0.0001221921536198088 0.002086521590336704 -0.004341850834591463 -0.05140310612229564 -0.6313731628113203 0.5569057855999414
0.9993125 -0.8709676026835368 0.2257544202107626 0.0021429056641823767 0.0033591378995566053 -0.08640095793428128 -0.006871031904819827 -0.5092946210126803 0.6164524827249133
1.01173125 -0.8692500567247703 0.25555088582575686 -2.685988640698926e-06 -2.5792264413523947e-05 0.037612221779582775 0.05662434439503844 -0.5235454174681519 0.40731681575085643
1.02415 -0.8624144476889134 0.2926191195064929 0.0004746056318418036 -0.004271687072704518 -0.021701712429533872 -0.03133760092482315 -0.4285918133122384 0.48737311925660526
1.03656875 -0.8541841621744626 0.33311299659753685 0.00845700749030646 0.003614990723375914 -0.06249007421171431 0.09207552736671724 -0.4815015666253288 0.642978172426254
1.0489875 -0.8284327434113078 0.3631716379233389 0.007463385109512584 -0.002296399108222626 -0.08219981239876986 0.04649162135670559 -0.4875491850582601 0.7235660176522116
1.06140625 -0.8180118425666059 0.39800497666294105 0.01077398175811845 -0.005901256173268713 -0.01953406576843188 0.016720554486300797 -0.5709151090206243 0.6558590911552006
1.073825 -0.806551116091953 0.43948917557262024 0.00022249063180013876 0.001746066529435142 -0.010553800800353874 0.05523902201197056 -0.18079510401427365 0.6799256528092087
1.08624375 -0.7780556554044824 0.4610290937814621 -0.0005059472600806371 0.006808342707234329 0.024387998241977297 0.015797594994711523 -0.31462179025409537 0.5938646531184976
1.0986625 -0.7468600552571985 0.4908286380676548 -0.0008688510468122697 -0.0029983860552902355 -0.04658639835438554 0.10143542960508085 -0.4795380643178502 0.6342966476935119
1.11108125 -0.7311582844650112 0.5251486849253149 -0.0019034082248985387 -0.004237747814694323 0.004724470505671631 -0.037361161877974385 -0.3303542479967591 0.6153221376835204
1.1235 -0.702859993072393 0.5514531836151588 -0.005277504990489941 0.01104319829479344 0.007698893274994603 -0.05872639349898776 -0.30911934122355317 0.724665391601355
1.13591875 -0.6851737783585082 0.5840635785581403 0.010108366758928455 0.0027999587680391153 0.0212967760209403 0.012084620717786085 -0.18755229518427766 0.6700786021057119
1.1483375 -0.6563335945686685 0.6045545073118994 0.011984908953231767 -0.008679488097438723 -0.04547073350481723 0.04487938491868986 -0.2055531039154149 0.6531731507729205
1.16075625 -0.6159976459092059 0.6387551604331964 -0.0027025669544046534 -0.007650041555024851 -0.01839148810314974 -0.039030014023751135 -0.09841097517304438 0.7582892013847236
1.173175 -0.5864464217060655 0.6523872914853726 -0.00412036761171099 0.001752308532454052 0.012135783899736212 -0.02299399789782051 -0.12457709782846974 0.6820140282477596
1.18559375 -0.5704690327874202 0.6768541214071032 0.0016995365809265228 -0.00021748159214843627 -0.0029920679324187726 -0.023752373873768766 -0.13368430645086057 0.7701299334579402
1.1980125 -0.5485053866992716 0.7079058845644661 -0.0031389836362295865 -0.004934638273215703 0.005337393505239452 -0.05896876666768506 -0.07173851695414137 0.5295562251002901
1.21043125 -0.5117755071766652 0.720908074872359 -0.008126457600424892 0.0003692423522923237 0.02444230309661015 -0.011165172213938427 -0.22249107583311423 0.7819511919707345
1.22285 -0.4732954043889688 0.7266399523426527 0.008456901888956375 -0.005051059331619396 0.024302658250213497 0.02916814766319247 0.1671987829735433 0.8077051527361745
1.23526875 -0.44651734766134216 0.748552398641632 -0.0037579065783558303 -0.0003499542154612619 -0.04722290783322928 -0.01626015114681367 0.03101064990612056 0.6356575941828151
1.2476875 -0.4034447120867745 0.777986188498727 -0.0013377876320200743 0.007580925925113498 -0.07130624720309535 0.04001008593902621 0.08292307518623536 0.7629323158768874
1.26010625 -0.36751222978571924 0.7973386248381249 -0.001010842516671023 -0.005640529518333351 0.02376553854522001 0.06348464105491362 0.15983452636063228 0.5811111336342195
1.272525 -0.35387208126270087 0.8081182962973584 -0.01181459008764263 0.006170776074624071 0.023345010352043186 -0.040276053258413776 0.0031875254686447477 0.5772006713487892
1.28494375 -0.3137546002538134 0.816028093254223 -0.005025998215071574 -0.003190364564966462 0.034184846771927034 -0.031015192402515587 0.26552978466354377 0.6861301448037134
1.2973625 -0.2776568635127848 0.8196026132145556 0.009516873681023136 -0.0046224285383794465 0.012028974763463296 0.021598286046504957 0.1112596369779758 0.6352895047638051
1.30978125 -0.24700302143529623 0.8347040519592163 0.010741321204605548 -0.009480947164989402 0.014854891367105438 -0.01318046105512756 0.1839642589421594 0.7386984775516543
1.3222 -0.19374967161083292 0.838439609946227 0.01135897632848002 0.003469612298917658 -0.02223483479954315 0.006658874980993783 0.24940857570569058 0.5839137373690878
1.33461875 -0.1669154732671664 0.8500390316883976 -0.002637128723196033 0.003494132906874133 0.022748800560132374 0.019137456452466946 0.24379371145891665 0.5882297646450451
1.3470375 -0.1372462818869107 0.8481901977618412 -0.00822803230792639 -0.0109050394206987 0.01393024244564521 -0.11370906998850623 0.2302311349255068 0.5387105887565888
1.35945625 -0.108201656584931 0.8509979530372538 0.0026794358412769535 -0.0007536827414339172 -0.07921725379304036 -0.06985476295134668 0.2933371733520348 0.5771650122539079
1.371875 -0.07044340128119313 0.8605554715591964 0.006321870906230684 -0.0031209513193663574 0.026661126477962597 -0.02548244711464232 0.3435723621882949 0.5329842755035715
1.38429375 -0.030578851130495407 0.8555938683536359 0.004295029926457386 -0.0015317509181360185 -0.009263491323342365 0.031194908378081754 0.20471786084099117 0.5997192104108747
1.3967125 0.01052443436921854 0.848140270924424 0.0011600064431563518 -0.010538825574117328 0.0025395444685928485 0.047165261997240276 0.34535269230281573 0.6444703589957548
1.40913125 0.04644085308258654 0.853840500020991 0.003168257067498216 0.008195088989728967 -0.017709305647890076 0.0182337470281837 0.43743477802204245 0.4857539355482482
1.42155 0.08501419706969078 0.8448545544339523 -0.00388411888434899 -0.0013665046700960233 -0.06756947094498895 0.027654156422590195 0.46029239448985393 0.5008108630413812
1.43396875 0.12051985472330178 0.8308120977585685 -0.0021999242565572128 -0.0007692577361965165 -0.019322910173350888 -0.006594524022606686 0.2957981806620809 0.584026705216648
1.4463875 0.14759534753588785 0.8248816542912117 0.01434057989315764 -0.0017283083664959965 0.014557834052881472 0.0011910515788248058 0.5501453003582799 0.42300606364321663
1.45880625 0.17453092083933314 0.8153615191220325 0.007500586334467959 0.003462469104613495 -0.033304797816453194 -0.047973741080728806 0.4667120445727083 0.4448323490608493
1.471225 0.20642856382393024 0.8193672785614192 0.0034641957643915364 0.00574053903287388 0.06225370878461901 -0.05686568714236224 0.43784334471478653 0.45133261458289076
1.48364375 0.2551961046118366 0.8059286833644844 -0.004477831877232433 0.0025991355887254363 -0.03680092737969931 -0.022482671765672056 0.5079778640761718 0.4162495161172134
1.4960625 0.270965492461101 0.7820877659935388 -0.00905289406517471 0.008091112324686048 0.014056775648578598 -0.024637125499444572 0.43692519617401043 0.22161236873343937
1.50848125 0.31670326789797415 0.7745779192264544 -0.0012013044120634006 -0.0014320553606225874 -0.025993979862855048 0.007549643190998907 0.5800768721281374 0.4235690251231086
1.5209 0.3437998964328851 0.7640419182417177 -0.004659842408417061 -0.010827753788416829 -0.019387623715558137 0.012885679519349907 0.5435104720142891 0.27244327187643974
1.53331875 0.3682738066202007 0.7400955460538466 0.005108007440473083 0.019268125961404536 -0.0387112325481591 0.007180162749004637 0.59033482156917 0.281513513897281
