!Created with skrf (http://scikit-rf.org).
# GHz S RI R 50.0 
!freq ReS11 ImS11 ReS21 ImS21 ReS12 ImS12 ReS22 ImS22
0.13 0.7568433251864017 -0.47396916980229503 0.006814849543001682 -0.0048214864411852566 -0.5328296687279406 0.34695401618039784 0.6505064309933679 -0.5427107429490149
0.14241875 0.7739582991540672 -0.6474075657414277 0.010678886616242823 -0.008186681745946129 1.2732344777268352 0.13637900357015753 0.8082167609255368 -0.5592120123668992
0.1548375 0.7263895158675199 -0.5830706491747454 0.0066342697962010816 -0.009740874923902203 0.005857323405678308 -0.01144736824076617 0.7666655199801901 -0.6484920874350318
0.16725625 0.6485461820850804 -0.6624451931622923 0.008191571035427206 -0.015157155686879784 0.008451218873990767 0.04619605679585718 0.693502559594425 -0.6642468058454236
0.179675 0.6288988053477947 -0.6762577644135637 0.005821170000923122 -0.020474575285872827 -6.135038882308803 -1.6080668256475663 0.8142522653292753 -0.5956272055129521
0.19209375 0.6106228104496338 -0.7870218166078031 0.004525064619028918 -0.027941006706499846 0.10389064531581665 0.7594984534075618 0.5970027363477365 -0.7242222308987222
0.2045125 0.5725645710480476 -0.7741628818882083 -0.0031908717378048017 -0.031516126945373195 -2.062080337722301 -0.2557607212534198 0.6423585747038482 -0.7024522426594969
0.21693125 0.49441126237860633 -0.7617244457912181 -0.015799752324578885 -0.03302052361288898 -1.2860216291220605 0.37331959303382795 0.5642467719967182 -0.67072326537925
0.22935 0.4461609047371663 -0.8300064934326702 -0.02635720198807191 -0.03162963419102417 0.22538739802053304 -0.1829098147244831 0.6944544708997354 -0.6631189786941751
0.24176875 0.3854303528748533 -0.7785623936214878 -0.033797547929107864 -0.023065930258367066 0.8700457306170506 0.04015088358564334 0.6514540285823078 -0.8233016969813749
0.2541875 0.380682559402213 -0.8550270276013466 -0.04342996064712218 -0.01693672743410237 0.24503012524926027 1.1672467070464183 0.4406246723828376 -0.8708570849746152
0.26660625 0.2922398758617284 -0.9048764401112258 -0.046863695289635715 -0.00786857139849787 0.5012391402340928 0.35326810808563275 0.4089684225080278 -0.8318779187543864
0.279025 0.2602776619509202 -0.8952436684414055 -0.04624531240975832 0.0010406204233181192 -0.24076021925728194 -0.15616488705954498 0.5025500213413859 -0.7835304245306719
0.29144375 0.2335119102406295 -0.9247386230245517 -0.04726523301632627 0.010728909443578556 -0.43745554444732365 0.05213921694827505 0.4817938085892652 -0.8408339949590948
0.3038625 0.15412444968553787 -0.9198555979208648 -0.043723914352884787 0.019111028955172252 -0.3420290700401744 0.08537650397082959 0.40689588606732874 -0.8694937214980332
0.31628125 0.0879670342054661 -0.9544815689772499 -0.04465409304188303 0.02637713698447801 0.2351422186827344 -0.01762320050488764 0.19999184627598152 -0.8827183982219712
0.3287 0.03766999966286695 -0.9157905125848608 -0.03630000385083738 0.031148944214406886 0.0004759763916578516 0.30354271763826435 0.31122707389956294 -0.8512951073551042
0.34111875 -0.01650569062551439 -0.9493194103414064 -0.029046309538406968 0.03548173266370466 -0.1591376345576161 -0.3327045098429727 0.36582331039349314 -0.8351007456183289
0.3535375 -0.055923697213320044 -0.9002422013343058 -0.02435306085346479 0.03706738292301405 0.01738937250941201 0.2348689169330434 0.14482663121288636 -1.051289420614938
0.36595625 -0.12891632054478877 -0.9386371392418048 -0.01965345547764778 0.04116098651209086 -0.8287290494085722 0.19454355476969762 0.19631322915998892 -1.0789038811335327
0.378375 -0.18159098966824858 -0.9204604965437618 -0.01569786735742208 0.043666010579905774 -0.32562740265296264 -0.3258050533012847 0.1503851792971339 -0.9444929107452894
0.39079375 -0.23458337946512522 -0.898469767072485 -0.01045458414382209 0.04349422039428298 -0.08304428289503145 0.10344213449029763 0.06026442027218929 -1.0290596433735617
0.4032125 -0.27790030719570336 -0.8774224173921618 -0.0072574650930327545 0.0454407883479707 -0.08945977227124444 -0.05699216045262063 0.07816215981306222 -0.9360122041744927
0.41563125 -0.3561820287944651 -0.886275056417052 0.00012677567342597902 0.04648763536392312 -0.19423862110333084 0.4707480090643024 0.026245115872509158 -0.8826665420444738
0.42805 -0.36091754605906273 -0.8539891567119821 0.0027035536406460436 0.04605757577832208 0.11019440134362869 -0.19286125132194504 -0.07064513320435517 -0.9250407211097139
0.44046875 -0.43357668796908666 -0.8046872122483414 0.009848768891514776 0.043594327489760276 -0.01969810049832571 -0.13279380698654392 -0.044798193343535325 -1.0055944348539307
0.4528875 -0.46788580247000855 -0.7808617394832303 0.01337926726135524 0.04241344810691653 -0.029042641052602614 0.10472438042244132 -0.1980359474253161 -0.9120982714860404
0.46530625 -0.5123413998250536 -0.7663206090183526 0.01837367100674308 0.04064735117888115 -0.030700925142315486 -0.06391666377658949 -0.20949726916376535 -0.8617409905449971
0.477725 -0.5596364340165851 -0.764012143964101 0.023025704083795673 0.04205186380913497 0.033771728968570176 -0.017516118846165857 -0.1630978287977734 -0.8452170101612543
0.49014375 -0.5898881280599003 -0.7055373836560505 0.027802160715826436 0.037303175307550354 0.2933926049293228 -0.14198455608105554 -0.29295806189677964 -0.883963103703477
0.5025625 -0.6076743133499953 -0.6554034801802832 0.03030794110751706 0.0350482717048024 -0.016836304036871228 0.0005626545598040418 -0.32276832782630627 -0.8212006376476366
0.51498125 -0.654892968666711 -0.6260685400279546 0.033478869120218406 0.029917960150570237 0.047499769877423506 -0.008110702118107962 -0.42253017999093434 -0.8399936136939656
0.5274 -0.6789205839210114 -0.5776151827392014 0.0350589126166127 0.027832524199806495 0.08082212335883031 0.24182578709153926 -0.45263553727556033 -0.8350080362092264
0.53981875 -0.7190726575604609 -0.5437070857550674 0.038943778678890505 0.02210260545334677 -0.07027432376349171 0.18206842316591562 -0.39274650166742686 -0.8940720877651841
0.5522375 -0.7451792951582643 -0.4853709663323107 0.03890489819397436 0.019770443327039554 -0.09133874780004375 -0.13756944878134536 -0.4224870969938594 -0.8981804404303513
0.56465625 -0.7769405316215706 -0.4378951569795181 0.04212164260937952 0.014745792594310213 -0.044307438690276923 -0.13427418875740657 -0.4862357453872687 -0.7402011833784707
0.577075 -0.7971639205403126 -0.400849971555848 0.04088176492582232 0.010813952555150637 -0.05302644406014865 -0.0558629557260161 -0.47516772072856217 -0.6919795547614211
0.58949375 -0.8035325134655018 -0.3445760583005206 0.04231978605564619 0.006112511698626404 -0.10565461522047064 -0.0554221408568551 -0.5811696152461573 -0.6468718852256256
0.6019125 -0.8184922955134156 -0.31252623945738983 0.042166495275998306 0.0014245468640477206 -0.027945432479004113 0.10277873071863497 -0.5721023651703188 -0.6272530651241386
0.61433125 -0.844295585700135 -0.24846468527656132 0.04037988128718079 -0.0018955240571406446 0.17854224034473185 0.17145434944305896 -0.6411719351022507 -0.6580018744978077
0.62675 -0.8499119539908279 -0.2098154752795417 0.04000184162901076 -0.004687697260485749 -0.14311955271118607 0.001502702648417031 -0.6379021410507469 -0.6254983373513574
0.63916875 -0.8540513273369785 -0.15792772445445985 0.03843108244229825 -0.010358329492584166 -0.10081607276248665 0.047061523691868196 -0.714131847504955 -0.49411386504929317
0.6515875 -0.857346714265886 -0.10182930834931196 0.03686232704502197 -0.014411699230581394 0.030873553808460373 -0.012806743636916028 -0.725828469983241 -0.5497492010303139
0.66400625 -0.8574758023875145 -0.06525001772399956 0.035636678973386356 -0.019074761786884265 0.016130344926121806 -0.019569032194091153 -0.7688424492759635 -0.4918725317068054
0.676425 -0.8599207910474657 -0.0024623304118777407 0.032301459932462584 -0.021196663195699465 -0.06598218857234178 0.01942743541953445 -0.796997096112304 -0.46421261909943146
0.68884375 -0.845600011442726 0.03322371493527167 0.030185077543723675 -0.02092032545760574 -0.01940587078263109 0.04608380804862268 -0.7638230541505252 -0.4844155003887823
0.7012625 -0.8461242274715798 0.07821330346234279 0.02701192725394696 -0.02584418163842357 -0.0001306363248652044 -0.08709706999852106 -0.7967981585775425 -0.41713721407191146
0.71368125 -0.8403508541834488 0.12044147881923305 0.025474328618082784 -0.027659946506137248 0.04884784339566029 0.030934888602670955 -0.8688393857529029 -0.3404670994048203
0.7261 -0.8258545323422533 0.18356017106261427 0.02084741469215234 -0.029229104994766563 0.0669470400521468 -0.003799095862082284 -0.813190611396607 -0.24849607891453893
0.73851875 -0.8198069393096497 0.21906766891550963 0.01667458710072519 -0.031339716187773814 -0.07509928285379532 -0.004295266325140898 -0.8071781483000253 -0.24149338086089261
0.7509375 -0.7968560726119502 0.2714659434189541 0.015108887339919374 -0.030724875866612465 0.13867516129268964 -0.0069127809725079295 -0.8573869964162185 -0.2249812501868428
0.76335625 -0.7855683252023453 0.3108054926589038 0.011025697391853967 -0.03269287431611104 -0.037566810850120445 0.0004098065913408432 -0.8101825997844543 -0.19614412909353723
0.775775 -0.7411416759421116 0.35760888451006434 0.009592467328753367 -0.03270268210553913 -0.01798059834266968 0.035282964312581364 -0.8306160421795012 -0.11269583516871165
0.78819375 -0.7171055656654725 0.3785368507301492 0.004431980311640269 -0.03153517851964809 0.10191118982780233 0.015483872505912287 -0.8630031953207857 -0.09225223928783488
0.8006125 -0.6947356282321627 0.4259951906836388 0.0013009567255998881 -0.030415381339514883 -0.05080133378129761 0.028168695149400767 -0.8605286950738447 -0.03710126507980311
0.81303125 -0.6787048864454843 0.46170748179858456 -0.0007862803388331675 -0.0292643794392452 0.024619327777846322 -0.08596839137940676 -0.8417925474188248 -0.04250528052981883
0.82545 -0.6511847362631067 0.5029240970088109 -0.0019267564048761592 -0.026193421340242457 0.0845324484086354 -0.0970161339348826 -0.8654768615347442 -0.014634771037246577
0.83786875 -0.6047176898111608 0.5284297969685131 -0.005739239123597342 -0.027936185392200254 -0.09010378469942217 0.055859910027282286 -0.8209066645473353 0.026985755903812192
0.8502875 -0.585822230916083 0.5767860604675742 -0.007442326372042545 -0.02595447648563927 -0.024113813919233056 0.07697301937521234 -0.838555520561805 0.0823596173367283
0.86270625 -0.5415025036099308 0.6020594958110452 -0.010059801635599136 -0.02737744519898019 -0.039948777540031566 -0.021838760496591465 -0.819098389619402 0.14385341653032702
0.875125 -0.49221638419638714 0.6136316392867712 -0.013192172042413153 -0.02547748219684511 -0.0732126143484124 -0.016471903868986566 -0.8228973486452799 0.19744150571398908
0.88754375 -0.4636847210577041 0.642065498620409 -0.016632369063387456 -0.022084427263407726 -0.026149459265384173 0.04009287169120043 -0.7903064591623014 0.18688880159594964
0.8999625 -0.4413389729530889 0.6645240805707792 -0.016315775990852897 -0.017795799426138202 -0.04686151098637746 0.05982851692763334 -0.7825343756119049 0.19635488115161184
0.91238125 -0.38655631267998 0.6819336237857511 -0.018041102931249005 -0.016768495142747846 -0.029968164644291875 0.17789041253679463 -0.7772350343350134 0.23403677766652342
0.9248 -0.35354934092636076 0.7052529425354833 -0.01732582151063656 -0.014937117734471681 -0.037223635913311535 0.06434146564572815 -0.7456512611325988 0.3284585442560925
0.93721875 -0.29914417796790055 0.7154285694791572 -0.01840263365981982 -0.012762644710788532 0.010065553971832982 0.012293086304403929 -0.7611995373857058 0.31481288002698093
0.9496375 -0.26882583609945593 0.7300635160483038 -0.019870712735053475 -0.010104165177632565 -0.04241817564800493 0.03978327986375209 -0.6972329174581198 0.36610397687979435
0.96205625 -0.2255792549610742 0.7405442708010962 -0.019735466192412135 -0.00754796097779305 -0.06339349007424493 0.02129770568176937 -0.6964795237067756 0.3770515854869439
0.974475 -0.1827041157076156 0.7566979248433955 -0.019549390266620743 -0.004772405888604722 -0.057446870760805804 0.05523410068870879 -0.6599788026272472 0.4100269214214158
0.98689375 -0.14871597637078826 0.7447263789095747 -0.020808718334604025 -0.0010820034747297876 0.07636798147667331 0.110687160273362 -0.6499212821342537 0.41641657627124645
0.9993125 -0.09812864789777057 0.7557100919701432 -0.01815469478047657 -0.00028965368499754004 0.14437796659777039 0.0736851767406309 -0.6205955557762458 0.47862428901971743
1.01173125 -0.04946695903503798 0.7643005340829546 -0.018149341513482888 0.0012069693314155196 -0.02965869898916291 -0.07751618375036534 -0.5950850983428088 0.5202986745631389
1.02415 -0.005018103011457519 0.7510513513494819 -0.01703748358663847 0.004349233262148157 0.031763725547013594 0.04256704679921933 -0.5692406386827028 0.5218985965865364
1.03656875 0.030437192104985772 0.7537191789159831 -0.016496270982043735 0.00454818632881928 0.006302641256869385 -0.03895069841302435 -0.5430832311826681 0.5524947983205569
1.0489875 0.06793962814910048 0.7449552564578812 -0.01713199896070128 0.00687833768816523 0.003271007148270624 -0.012046447263945608 -0.527314373128197 0.5748329026917827
1.06140625 0.11068944503891688 0.7341339031526236 -0.014018113549929696 0.008804737094461812 0.023551093904000894 0.03103049533294492 -0.4665826869257712 0.5785973310450794
1.073825 0.14840878034275812 0.7186619287391044 -0.013912637189929607 0.009895193139857214 -0.01986457291251651 0.027146156631334108 -0.4608946831441801 0.6068797786161545
1.08624375 0.18639131688127233 0.7017421521646594 -0.010288901200828109 0.011658284637272543 -0.01630085137785677 0.0007339810896225791 -0.4378791944003525 0.6292746278980355
1.0986625 0.23304162697190883 0.6883681973816235 -0.00967070127248102 0.012402315235421086 0.0030587312508067676 -0.1026346380551188 -0.4145392283090207 0.6488399755717205
1.11108125 0.26643576199355556 0.6789644707766532 -0.008255802761324439 0.015509046535381477 -0.05022544928090008 -0.049396813561019666 -0.3793635425263642 0.641029764178461
1.1235 0.2969231899918734 0.656394542189639 -0.004852384329509456 0.01325304363764775 0.034357895952712846 0.040557142641748985 -0.3519528756895693 0.675532847014418
1.13591875 0.3434070595660331 0.630988795326831 -0.00493053403513622 0.01532737039058101 -0.024537888571565913 0.021096601662386836 -0.30075928070343116 0.6792519272315504
1.1483375 0.3669083513998917 0.6104023554752778 -0.0018870052532421815 0.014889831516936325 0.025563968227211683 0.0212775494014018 -0.2539829118390901 0.6687246035745865
1.16075625 0.4037647998224885 0.5872669712636667 -0.002135240336415289 0.014387862700957314 -0.03411344551480557 -0.1043605801595447 -0.2756560309033475 0.6860402586576723
1.173175 0.43113586093492684 0.5490842990268325 0.001131288008960399 0.015265565565797579 0.04734536890787569 0.00558957902325173 -0.20073291178072775 0.6966318240889172
1.18559375 0.4538519925843044 0.5306227673517615 0.00010419949900740268 0.014983768553847887 0.007516555483384165 0.04225777235771135 -0.16299698040815105 0.688644910376028
1.1980125 0.47429235843329415 0.4994246717492323 0.004401886024629508 0.01638783387826056 -0.013039548998704485 -0.010956638710972456 -0.14599350201687064 0.7198415406646768
1.21043125 0.5007535035336756 0.4766593487870557 0.00726303334239475 0.013591522810167666 -0.0015587242802504511 -0.04771357523662357 -0.11297306874031628 0.6907121609003177
1.22285 0.5150758673879062 0.4410411040746394 0.006858093617736584 0.014213346529633394 0.07879460818114123 -0.016302453118688106 -0.0724935168048916 0.7121400212099138
1.23526875 0.5465874274547 0.39176361777810914 0.006979955527040548 0.013090762312376797 -0.013534689081401055 0.04996669529930434 -0.03223893861668114 0.7052877280590827
1.2476875 0.5747162909202115 0.3727796267161807 0.009729260354785869 0.013665523062964707 0.014117978314852323 -0.01140385540712611 0.0011154687266419867 0.7113638715274662
1.26010625 0.5890155754974896 0.33622406706267594 0.009148238731210062 0.012073198391971962 -0.05891345877088347 -0.0024354081297380185 0.04693835795116307 0.7116801049300991
1.272525 0.6027517447314071 0.3175297804607425 0.009854144082740064 0.00999215841269598 0.007900836676706978 -0.024734467223032856 0.07253566763230136 0.6552994619071411
1.28494375 0.6132105855413965 0.26823626374188253 0.011265688775950987 0.01049752975808386 -0.05568350112555021 -0.028958051522594994 0.07125425857522157 0.7071430264848663
1.2973625 0.6186616650141015 0.23615209703546292 0.010314959471388092 0.0073820204149773 -0.00427089769048921 0.04679494620897271 0.1137811788022825 0.6717676962406565
1.30978125 0.6339026608266122 0.20191373642523958 0.011587110943802303 0.008340926600301727 -0.0031527800317304195 -0.01883238312890031 0.14127049802679242 0.6693361426565788
1.3222 0.629168698721977 0.15977707832913904 0.014720858229587937 0.006701107684096788 0.054568336289772076 -0.046246622400041765 0.16612234733514872 0.6189641517255149
1.33461875 0.6374521222961779 0.1286222188023179 0.015230297418013393 0.006875430465986451 -0.018432849177911208 0.004044293900347924 0.17400752200419475 0.5936767678740072
1.3470375 0.6417169346743746 0.0869662449437065 0.014439373787709509 0.005279205211949107 -0.022115763759948007 0.01645364254227321 0.19396823000120475 0.6304424102129785
1.35945625 0.6311781288620253 0.05180781001058523 0.012813507280127229 0.006057130900840096 0.04186249385486391 0.03996537152426475 0.29611507480445914 0.5947270559647759
1.371875 0.6390535963592568 0.03392827923764746 0.014796009746590087 0.003557942689075355 -0.018409531833194916 -0.013398333051087636 0.29589851893493235 0.6044316147861287
1.38429375 0.6371195186735518 -0.012264279907877143 0.01319053500594571 0.001006679527617952 0.02225171398769194 0.07064058697945494 0.3088882434273966 0.5334132256325284
1.3967125 0.633457667401044 -0.04480563470740619 0.01315756043025997 0.0027014669265956423 0.030980422733289076 0.012707724583967867 0.3222131991682933 0.564157857421659
1.40913125 0.6311445851903033 -0.08004305376518434 0.012614514550034506 0.00183834834642322 0.021154275423491745 0.0465112246409765 0.36370655146241165 0.5104864912452837
1.42155 0.6208031847110668 -0.10326691221383175 0.014497502190169985 0.001984538831295737 0.03994817311078138 -0.04789281773575333 0.3519220265052763 0.5304773509298668
1.43396875 0.60335028954677 -0.14726834951929335 0.013941490268824339 0.0010162619422807095 -0.0003128804596939801 -0.0596000088239882 0.3876297423375042 0.5191360913053231
1.4463875 0.5863133777234016 -0.182241424662221 0.014112740359411118 0.0009098099588578033 0.006168523541236795 0.033055931576755654 0.4023005693879804 0.5040307401277635
1.45880625 0.5771537490437441 -0.2069306798538655 0.014194084685708066 0.0008853290690546276 -0.04392734858839459 -0.057775570726514014 0.4203255321660306 0.4257768074723122
1.471225 0.5613419736292765 -0.2427258221196999 0.015367365867140227 -0.0007782211397042193 -0.0011255474305600188 0.008129294977775623 0.48397580026335296 0.38916456373319186
1.48364375 0.5480026990243543 -0.2591059705848641 0.014276257392843605 0.0020142139411420115 0.0675187702054278 0.06907402095569831 0.4656864731484868 0.4132230756756792
1.4960625 0.5210175253709024 -0.29738561918063566 0.013514278036695818 0.0007827932371783171 0.0006667050709431025 0.041258193917820075 0.4860531929062255 0.3862726124471597
1.50848125 0.5072886783002615 -0.3117000397854755 0.01265968225335146 0.002278883350713001 -0.029598860579772485 0.05358715350011197 0.47598026954314265 0.35391725806210467
1.5209 0.4899094705911517 -0.3408775081653941 0.015011717411410158 0.00133985035204873 0.04209654594564873 -0.009545465256244938 0.48675168435497906 0.32875288585512696
1.53331875 0.46124353262869555 -0.36990279689571326 0.0172207495461144 0.001944367796756735 -0.0045864078498783455 0.031123695224518667 0.5265124909519809 0.3170327653667011
1.5457375 0.44271611713918796 -0.39835020004572097 0.016580437246966145 0.0019280451878821321 -0.030113201691952016 0.02492010746131398 0.5365319618759158 0.3140246788224751
