!Created with skrf (http://scikit-rf.org).
# GHz S RI R 50.0 
!freq ReS11 ImS11 ReS21 ImS21 ReS12 ImS12 ReS22 ImS22
0.13 0.8890600208410481 -0.36102042948554103 -0.00530690191612004 -0.0013001246290840188 -0.25496255666774914 0.05437566988068493 1.3168904927383402 -0.9566397805031629
0.14241875 0.8803893985629365 -0.5048974668496565 -0.006238836973794204 -0.006502958505321806 -0.7751868490862718 0.4177496767921315 1.3293470142308204 -1.6863868851155415
0.1548375 0.8683310578642294 -0.46257345204058287 0.003851026186422352 -0.003160675211713478 0.15945630243692097 -0.0037385229155083447 1.7197365626647554 -0.7317843704578656
0.16725625 0.8727644043627851 -0.5321742893927306 -0.0027179007221901598 0.0020825761144841986 -2.8756173432163585 -0.4618862782929103 0.1114724396838683 0.03423642249095554
0.179675 0.7981906391386414 -0.5773459415503466 0.004350001113269986 0.00020763578065375135 -3.2866078983415585 -7.551639984431124 0.5069019118255416 -0.5081822107946885
0.19209375 0.8167108036239985 -0.6107780272685958 -0.0002550064634415239 -0.002576517898513656 0.39628173181343074 0.5619847601702576 0.7168703533982063 -0.7220205811740991
0.2045125 0.7432274164545237 -0.6255871816256925 -0.002045610011361582 0.0027846809962260017 -1.37242050656938 1.5440125152177504 0.5506119732873752 -1.1016281919414617
0.21693125 0.738035782398396 -0.6244048109503867 -0.005925981241727225 0.006497246164390436 0.063019427965083 -1.3367110955354282 0.8557802758732914 -0.744277034236798
0.22935 0.708978677214064 -0.6657116236901941 0.005084894480674858 -0.0020976066960809604 0.3529441242619981 -0.29703797547391103 0.5762628212887695 -0.9473201979254188
0.24176875 0.6608524886965332 -0.6681464301115893 0.0006481446416077389 -0.003563471311047647 0.4275128862812256 0.10167777694028182 0.5563682383252334 -1.074939039372119
0.2541875 0.6540874175372643 -0.7121523109587587 0.0064445849733048574 0.007799471422553491 -0.021054561938023117 -0.9928492912188613 0.5188659169508449 -0.6481212825186612
0.26660625 0.6139754768994264 -0.7594132143782935 0.010775605163852132 -0.0008840115327402286 0.6001933641608298 0.1993896541103196 0.2920845380759299 -0.7616822035636724
0.279025 0.5915504998448717 -0.7676674980262098 0.0014030698452072434 0.0007271427717725583 -1.569613389755173 0.5563110221014277 0.40572974681240603 -1.2574530445442762
0.29144375 0.5544839737728477 -0.8116895235835397 -0.002805311036157511 -0.0037949466360735293 -0.08998721595882873 0.030000190730530084 0.34086785916139883 -0.5655947947238116
0.3038625 0.5449063680689515 -0.8339073126118988 0.0006484226569067311 -0.0035746886788888257 -0.41770864139084735 0.39747457447426426 0.5356443328555099 -0.7810202577930982
0.31628125 0.5087372005025639 -0.8632605852107746 0.005334462546166951 0.0035907370698020054 0.04423181221793851 -0.02423110596949483 0.5177682627199375 -1.2361548307214891
0.3287 0.4443054206481138 -0.89495554241432 0.010255807304011193 -0.004493689391375582 0.3499331301909586 -0.40505516240547895 0.48638854677351157 -0.7535759003714027
0.34111875 0.4152383611442809 -0.9312733202763394 -0.003251331416980483 0.007147304725121945 -0.20030071834370242 0.44239399686862513 0.3087462362832308 -0.913627983485078
0.3535375 0.35547817802426385 -0.901172473752139 -0.006696741084998425 0.01355401323210587 0.0021268955722115487 -0.07303956532677192 0.5138270398687521 -1.428982194440483
0.36595625 0.3392341499084372 -0.9450479486785576 0.0009681627375580322 0.0035751811302769266 -0.08957642623299536 -0.32671852499388043 0.07116985327565457 -1.2488281757753428
0.378375 0.29079092781310295 -0.9666700754851758 0.0012432497191810707 -0.00526540915302795 0.22941133748954898 0.05070135280086881 0.37364840916037323 -1.1074258272753443
0.39079375 0.25247322723006455 -0.9381482690957973 -0.014546772044204492 -0.006970133142283379 0.28240379167286606 -0.051342848270574976 0.34371602111764293 -1.391087990034627
0.4032125 0.21606879916825375 -0.9576160276451363 -0.0020548442541194973 0.010937068683369898 0.6366436679520435 0.1286172005509068 0.1808579509966287 -0.984812429337091
0.41563125 0.17170319021441832 -0.9943787991518159 0.007427831941616074 -0.010934051713968936 0.13788227461270952 -0.3050315440756983 0.09230223894650652 -0.9154021837376468
0.42805 0.15567024243986444 -0.964971714593612 0.009931436792099334 0.0001759255133552063 0.12920168373986787 0.049113893423189024 0.15271389207384684 -0.8199142078350385
0.44046875 0.09352624318951898 -0.9713071729367231 -0.004978321668838629 -0.0030014493786640483 -0.023850726546955886 -0.07183525669403261 0.02973767774170344 -1.0024276554327
0.4528875 0.07003547580831473 -0.9619619656997765 -0.00035691058773655625 0.004144588102666166 0.12979116890733217 0.22362383481798406 -0.05807959025484105 -0.8146130781047595
0.46530625 0.01457184468094973 -1.0128956760696755 -0.006283725497612731 -0.0030562971650687797 0.37518192473391543 -0.24306454511443376 0.4051074885947175 -0.7463578509223822
0.477725 0.00034951908035772716 -1.02532953027091 -0.00038977302570035157 0.006444837887932773 0.23987308717017364 -0.2049275436187462 -0.1022245996631556 -1.0731451195614414
0.49014375 -0.05160718863609059 -0.9872995999691505 0.0017891006108291013 -0.0003035165507869465 0.016656967154264252 0.12276890367489096 -0.012901867230332676 -0.9230665768275045
0.5025625 -0.08751068901044613 -0.9734915797919242 0.004113294833347769 0.005322881583404706 -0.30371128300631606 -0.04818804735517113 -0.19719680991449834 -1.2870436836453703
0.51498125 -0.14972641922276125 -0.9758855185656782 0.002478586217561594 0.002686459115061524 -0.06716890321963052 -0.12041968484322216 -0.09016526192492103 -0.9569125910323677
0.5274 -0.18635682037294357 -0.9753991663663678 0.0019273688894303953 0.003158941385811246 0.037158609360034046 -0.23368212500455612 -0.19372621741951074 -1.0943127313982708
0.53981875 -0.21404629211125828 -0.9531914241575127 0.0005768807039487449 -0.00017755348014466665 0.07203021832559335 -0.38209437393155943 0.022514023333210516 -1.218419939826903
0.5522375 -0.26122195667698966 -0.9377142463167678 0.0011509447137357663 -0.013989868063710732 0.009370301356055582 0.043213823937700624 -0.08306367612362074 -0.7661709198599674
0.56465625 -0.30234454744351164 -0.9425318779908214 -0.004767374669425209 -0.0011239399957565593 -0.018068470468850992 0.061848826742168524 -0.44950311575201235 -0.7693287136303995
0.577075 -0.347663217981462 -0.9176413777909457 -0.009105576537776078 -0.00870005280987012 0.002979592693074316 -0.2276111135673376 -0.040957824875615285 -0.9222171522646351
0.58949375 -0.37809713863708044 -0.8989085309830046 -0.00016922086789751038 0.009848571484506794 -0.08762390862290398 -0.14298922311910478 -0.46417647219792546 -0.9073244069819546
0.6019125 -0.39284752976010767 -0.881379516855683 0.015581086698013837 -0.007859842962115848 -0.1790592100983849 0.07817671482073107 -0.13626052966272736 -0.5811635954182244
0.61433125 -0.4528573139281333 -0.869207248185699 0.009313300674041805 0.0050869644269579415 0.07198779172890936 0.16821976667104557 -0.18962408255571533 -1.132674445161165
0.62675 -0.46013114181234144 -0.8173046257665968 0.0012838248889073475 0.003843914226447658 -0.08696857472853854 -0.04896990734565561 -0.4934427049875983 -0.8716023424221414
0.63916875 -0.5055224148510051 -0.8224183477787581 -0.004206579244120083 0.003333906847497922 0.04471215334156361 0.1404387998357391 -0.6169966582890595 -0.553872846305731
0.6515875 -0.5554483238409429 -0.789819285175455 0.004794136502044936 -0.009202556185921314 -0.08112453666659085 -0.12898343680721563 -0.7126217109555966 -0.8763435686304872
0.66400625 -0.5592924544227473 -0.7850043984366835 0.0014011745446175462 -0.00619230047531633 -0.07539001249892713 0.09099942186974395 -0.49964147495721845 -0.7980187807646214
0.676425 -0.599260480199256 -0.7346841265188884 -0.011822462673286814 -0.0038913155241685395 -0.12812145363598013 0.13886668315856482 -0.6615798790018046 -0.6464193878574545
0.68884375 -0.6317111066915567 -0.708939150129305 -0.0028241873400372537 0.004357317004926594 0.07659218301521546 0.11659699033490123 -0.47164504812600966 -0.6274057443327452
0.7012625 -0.6691067098988636 -0.717921521188655 0.003518435130481092 0.004880744749955268 0.05233888165593787 -0.11716787321796443 -0.6855436238484757 -0.7289534717650543
0.71368125 -0.6944701408546677 -0.6906926858650277 0.0012745126976861276 0.004154556365943255 0.057875113891841586 -0.07095399897331928 -0.5442615085250371 -0.5599207461113601
0.7261 -0.7332631341119076 -0.6286906663078722 -0.004560928078929769 -0.006521247566765878 0.18596298342826362 0.012776481668618882 -0.64311823494502 -0.4842120173309702
0.73851875 -0.7553123411144562 -0.6150579363831173 -0.012965661673383162 0.006457819616706153 0.03764926295266171 -0.08928787801627584 -0.783049916467063 -0.5063959792651967
0.7509375 -0.7706970883398132 -0.5617122927241867 -0.0028459001451511417 -0.013949099129601239 0.02248853178090189 -0.049977272066090726 -0.8007592851635968 -0.46508879937756964
0.76335625 -0.7847148070138397 -0.5549025398165353 -0.01328635796067703 -0.0030387877937249 -0.06851743742167564 -0.11604798339827964 -0.839801671072873 -0.7377026434959759
0.775775 -0.8008911800117744 -0.5207260716209643 0.010508625078143865 0.008178555441012168 0.09231325954004624 -0.0669782016446445 -0.6600000630751892 -0.34140397113995485
0.78819375 -0.8321888470901522 -0.4830399417204671 -0.0034926179309785694 0.0039858553464890995 0.10300461317864625 0.011157819769104894 -0.7576984673233594 -0.4478506512782519
0.8006125 -0.8437206093389764 -0.4462558278694017 0.0020215154157549233 -0.02159596183777054 -0.11149207147946233 -0.17147790662984105 -0.6585978667612838 -0.2564249011812637
0.81303125 -0.8692694585436793 -0.4131662669904384 0.0008087375038441087 0.016325958879613967 -0.015412706803135744 0.009129805978949057 -0.7708684205457335 -0.5222544718611547
0.82545 -0.8721291821015554 -0.36879423813120754 -0.008114679068393213 -0.0022468253833143586 0.09573755370549593 0.01075876320335973 -1.0028539178567335 -0.2081659741181309
0.83786875 -0.8944120633863611 -0.3399785766218923 -0.0004719869752530517 -0.008242455944208709 -0.0814598597194589 0.04994922825903642 -0.7744274189352688 -0.29703254738965557
0.8502875 -0.8988538914269791 -0.3018429716367405 0.009369666974035013 0.0028178598396234925 0.05941112024691869 -0.049882917677735936 -1.026301738339488 -0.39460270340494613
0.86270625 -0.9024620228387187 -0.2583773515797047 0.002807276052506047 -0.00039746491786420385 -0.00022834972791690056 -0.028626484886405346 -0.8267050173006332 -0.35558117113844195
0.875125 -0.9228513279501526 -0.23598245655212258 0.002809599420810384 0.009367666953083862 0.006607574743435509 0.1405613324120686 -1.049555319599771 0.05199172407443258
0.88754375 -0.925233476712957 -0.1824670826033338 0.001083492283216788 0.006091350001569845 0.14233475015805724 0.014600745453363114 -0.862952686122448 -0.3164898265501059
0.8999625 -0.9382261036168044 -0.1571367203433084 -0.0006825669182118771 -0.005307595283186949 0.06148911293694618 0.008063211455518141 -0.9114918325717506 -0.07398739666729126
0.91238125 -0.9377456237083138 -0.09610542278310015 0.004855002850646844 -0.0019452037690919147 0.011428164096778177 0.061896332575524904 -0.8711802584184297 0.02840057316478453
0.9248 -0.9506151261506136 -0.06478039331389297 -0.005557385515622645 0.0057172800126334 -0.026948118942566043 -0.013564543164847828 -0.7383802870368144 0.07597857489893275
0.93721875 -0.9551581632087219 -0.03361565716105181 0.011758572152431507 0.0043748902185332195 0.015224154411633831 -0.03495449005217685 -0.8562166470508061 0.06116314916284764
0.9496375 -0.9476927301348878 -0.0005168862524438986 -0.00624785367326532 0.0011791325297260053 0.011372463582453201 0.005485186324712036 -0.5544918746608376 0.03414185142557863
0.96205625 -0.9392671768270873 0.04550134993682907 0.0007218041048318372 9.160630862493183e-05 0.03814189332565038 -0.06834751185313877 -0.9268569606409292 0.06239961286485682
0.974475 -0.9308804238869199 0.09053041442658319 0.00275297639087228 0.0070225127837728295 -0.022721313265639344 -0.0513813342910682 -0.849471905379909 0.07945739565659288
0.98689375 -0.9231214637595371 0.1310200812296368 0.00790556545470268 -0.0005945986106575083 0.009812478095217741 -0.016943649661194805 -0.7825128172255957 0.005441718031665669
0.9993125 -0.9180837257747677 0.15324848287526346 -0.013215418731326513 0.0028750099442345894 -0.026933903335624364 -0.0812139440421608 -0.7610600546718674 0.5332093516366365
1.01173125 -0.9021138973509465 0.197414343273892 -0.011359009759516842 0.005079643677162451 0.06861904534271719 0.06754679416725567 -0.7976663747843583 0.09033176237818102
1.02415 -0.897624241514514 0.23005329761790494 0.0007053894416426963 0.018466833708377855 -0.021576205605328753 -0.044276077542710957 -0.8037041823755507 0.17587882618376915
1.03656875 -0.9038373926322283 0.2666567370690259 0.0003562135107890668 0.0057532289831596015 -0.06697182231609317 -0.058105582829300624 -0.9562975361157857 0.36096734427606547
1.0489875 -0.8723652267265508 0.3074489754355705 -0.021249230142948744 0.0072422353328895645 0.0013432521758152537 0.10649406180755677 -0.6007006401180223 0.1959947907848431
1.06140625 -0.8644558816761279 0.3443365113014623 -0.0006645774595060139 -0.0011351195390490805 -0.05472687361118385 -0.026397110213995198 -0.8755309780142757 0.35304331973378167
1.073825 -0.84660012813524 0.37113592822867525 0.0031563940094894165 0.011457385541952607 0.03793605056979244 -0.0019247717931238245 -0.5769371772148713 0.4342601951497566
1.08624375 -0.832347401083627 0.40863568405606154 0.00752154534129997 0.004166244571209203 0.006753421729314462 -0.04206385181504259 -0.4552347906167837 0.3696707755919664
1.0986625 -0.8063799218479836 0.4413943694410522 -0.008349485221420391 0.006215371634215893 -0.004053224879443652 0.01940037166899888 -0.8614347767858125 0.41405988666702853
1.11108125 -0.7947801337096886 0.46859930258027277 0.006952315063409178 0.008963249111394308 0.026826893788131755 -0.06484085903804823 -0.6302720096995693 0.31585322677487604
1.1235 -0.7634639584541144 0.4977255617596737 -0.016444947168407324 -0.0030455715035595256 0.030816612698987042 0.012624580859126796 -0.7930001553893996 0.5768094229756737
1.13591875 -0.7375669631713223 0.5329597532706617 0.002446540273054802 -0.005856716417167872 -0.002246278055982499 0.02525851432388278 -0.6187876247788482 0.5050081555925836
1.1483375 -0.718539949972379 0.5612271710353928 -0.004889901965358871 0.002796578629279649 -0.01873131701727179 0.01930708270324308 -0.4811124751107775 0.41022861872483435
1.16075625 -0.6912032729176808 0.5896916768225542 0.008236553187275345 0.006190415858577445 -0.04166105241023581 0.02062269847995363 -0.6743646435793452 0.5715235089070917
1.173175 -0.6656669245777793 0.6064739565242224 0.005080001367900411 0.0022129668645506557 -0.0730092569256829 -0.11193924663926648 -0.4129343386275755 0.6994958113997832
1.18559375 -0.6449009206251815 0.6406938066997439 0.0051973736024906415 -0.0034214976002743826 0.05469609854105341 -0.022754226602613423 -0.4235055711655129 0.48278273970347424
1.1980125 -0.6172780164234165 0.6648517775759787 0.011403390837253606 -0.0012416955953774439 -0.04549169067816422 -0.024124744761077704 -0.5939739426344334 0.5762607634977149
1.21043125 -0.5967151183334412 0.6870096006027853 0.010028416788550992 0.001783176608584156 0.03527270886806732 -0.045411259855389366 -0.5176007523266698 0.5142241013353523
1.22285 -0.5581119351307839 0.7018392747387717 -0.0027055556685014926 0.000847788724002728 -0.0004312381817731929 -0.021081328908091886 -0.4385475565913476 0.5035198055417037
1.23526875 -0.5305275331298934 0.7266603362813349 0.0016173215157106442 0.004757015813807731 0.035027262296683646 -0.026275320920841807 -0.3265411400520977 0.5452223767320323
1.2476875 -0.48227819997066745 0.7566835614123999 -0.008518404551751726 0.0145111077761047 -0.10000236810126457 0.003492159645093139 -0.46529754065379003 0.7259941960828663
1.26010625 -0.4640930450557022 0.768577409245379 0.008900767534219403 0.003612389144067345 0.009706316640542749 0.016706451589819205 -0.46865127173173643 0.4503536159768851
1.272525 -0.4468423985752588 0.7900425982757191 0.007835485937429464 -0.002369287082866972 0.07428465570203488 -0.06616068899645695 -0.2967352834568342 0.7331500935286253
1.28494375 -0.3991051511760535 0.8032219707887466 -0.001297388866836961 -0.001444853386564618 0.03605946141279633 -0.014128996067689536 -0.2621756076654615 0.6666375875718484
1.2973625 -0.37293326801317156 0.8093901653906866 -0.003023995030505418 0.009214892364099388 0.035232491858334346 -0.02060496518058597 -0.4044513119368686 0.7421291541767863
1.30978125 -0.32782824642942493 0.8314092463577385 0.008445209399432045 -0.0048798751321384145 0.030447518281676782 0.02192065256697722 -0.30208362710610537 0.6490908855789456
1.3222 -0.2896001483389232 0.8314723242155106 -0.0008524864513428389 -0.008284693303011167 -0.012613469581490922 0.0037606131480725554 -0.5215308598606101 0.8032069783015758
1.33461875 -0.26127965354095234 0.8556503410808066 0.001423982857052772 0.001763506261696782 0.056095605951609714 -0.02919909377865467 -0.16059085831578498 0.6760112951622534
1.3470375 -0.23883682556988645 0.848401117427541 0.0059784544408213024 0.014878906938888046 0.0062010111092060585 -0.05220909957835343 -0.25348843260751003 0.7615635985711998
1.35945625 -0.19609903718712463 0.8584722541063953 0.0043254036554100815 0.0038220650097138885 0.0664314407772136 0.022943860386001085 -0.13450811833285395 0.8078483639448749
1.371875 -0.16379920690817487 0.86857052782336 -0.004046386845398111 0.006967896338907847 -0.015985805501041145 0.06041711015827052 -0.18336288958479458 0.607896324258497
1.38429375 -0.12347692836770986 0.8759838280533558 -0.0013125851349001958 0.0052782866073641695 0.02956213515967391 0.04573643249249257 -0.14631898237579719 0.7912728530998401
1.3967125 -0.09333528265644331 0.8692097587929019 -0.014437570456739613 -0.00683569064344245 -0.022538047726401743 -0.006088485724035218 -0.029775858009862214 0.857698638458337
1.40913125 -0.052095209624447934 0.8782781159874702 0.0057030664092317385 0.0009145400690958246 0.027286718283173472 0.01012106024627363 0.15343292559137692 0.6264735948959773
1.42155 -0.002105684574254184 0.8824437767771106 0.014745551017631746 0.010057554469630239 0.011653667379566204 0.03285909635323074 -0.14081852725932484 0.7310991814798903
1.43396875 0.019613595288917818 0.8769474389944772 -0.0034771987330559097 0.003048582769776078 0.02115401146506957 -0.016140579929377504 -0.05470194179238926 0.6332006351201388
1.4463875 0.05482878373635541 0.8654524623745905 0.012122495277582725 0.002689768714183955 -0.026644568711400144 -0.024989484288310267 -0.05269879505945002 0.7795929381823085
1.45880625 0.06990893979667831 0.8590681404272396 0.012515030637121645 0.00477179223402411 0.03238599147862878 0.022321726351160965 0.0593458367087864 0.6349278567284686
1.471225 0.11395416232215828 0.8601294974954019 -0.010011137914786535 -0.0014334317403164308 0.006528976160643546 -0.06029934317522057 0.06256562093195263 0.7585937316606495
1.48364375 0.15579184600267731 0.8515894658012356 0.0015584329438509542 -6.5145400865034e-05 0.0013518380277435587 -0.008170631397242775 0.06269238915604698 0.5808550790096422
1.4960625 0.18091588026526212 0.8379306368997955 0.02011200814257218 -0.006205502746490959 0.004801946748177357 -0.012614781288033484 0.18268748573564722 0.7382922184445705
1.50848125 0.21954094125330503 0.8368867844644848 0.013917612914744425 -0.006595607970191132 0.03064458530986905 0.07146149613410296 0.14125502077339527 0.6728946397255975
1.5209 0.26005699963737544 0.8240118059049558 0.013898537363976246 0.0014102182553196029 0.007239805989401251 0.003128608224868603 0.24571551372386544 0.6264137450644591
1.53331875 0.27812300748018876 0.8022160406083869 0.0029188253650619922 -0.00783278964279546 0.015447555647045783 0.002300039841523007 0.20067700749907671 0.708771725226885
