!Created with skrf (http://scikit-rf.org).
# GHz S RI R 50.0 
!freq ReS11 ImS11 ReS21 ImS21 ReS12 ImS12 ReS22 ImS22
0.13 -0.7973044619678972 0.515768545924192 -0.003679188089699552 -0.0005053149628187571 -0.8954174787558712 -0.06052828328028064 -0.2627582161891543 -0.6061097218200331
0.14241875 -0.7230089016047698 0.574785394999862 -0.003423061084435761 0.00036780254919786717 -0.3371175639781893 -0.3874891519286877 -0.4821895928289653 -0.7033351543004546
0.1548375 -0.6840536612448125 0.6225432481804862 -0.003350436514070797 0.0018108658413054618 -0.4399814857991753 0.33183209735392283 -0.40539486802852387 -0.7829219100298952
0.16725625 -0.694043897120192 0.6762920985629254 -0.00020812304694563526 0.0018037091331047043 -6.281550989923181 -8.077411379208913 -0.40071339180846527 -0.5564659771621512
0.179675 -0.6856199710466351 0.6967411360737161 0.0001181653661597016 0.002499172593325848 1.1631712518441732 1.954053804294877 -0.5609969050506773 -0.5149039262293211
0.19209375 -0.5773230448354492 0.6986003710588765 0.0008333635709087451 0.003552192239491079 -0.2080195128203171 0.02539763715869506 -0.572827343965766 -0.4638664369209815
0.2045125 -0.5503521571761942 0.7528435962174939 0.0010779869880832781 0.0027154338807759996 0.30259834255987633 0.550940276033184 -0.5469308677323163 -0.3945270071860933
0.21693125 -0.5355091108360803 0.7563047727939064 0.004248254383403695 0.0018134548799320501 -0.8041247072428198 0.5108977055141891 -0.6694180453561377 -0.502299341590074
0.22935 -0.4613853368375645 0.8253140131582289 0.0035454823708944154 0.0011476559796478611 0.17281719151647412 0.04138694551392241 -0.5352602127016035 -0.3070894215538744
0.24176875 -0.42459101625713225 0.8961410358168225 0.004491324843853969 0.0019874794023467543 -0.43541127908182714 0.24728521258888533 -0.8099327795227194 -0.2889268464531435
0.2541875 -0.3691877512992428 0.8800763460826501 0.0022640617804131464 0.0007453350420324957 -0.4825014900917972 -0.867663463634554 -0.8240444651223054 -0.24898987145829432
0.26660625 -0.3249677615287326 0.8956905556001216 0.0028485925199305488 -0.0019304553551277288 -0.2831361575107738 0.8028554448460669 -0.8176147593956038 -0.08818975558258026
0.279025 -0.2550492063033911 0.8806184163751026 0.0018235847021631359 -0.003307094033945654 -0.2717820674570895 0.9475728823057692 -0.7458666334874305 -0.09643684179016827
0.29144375 -0.2049306807883129 0.9036595920727168 0.002527961936458535 -0.003365925412477329 0.03240958517297149 0.1693199358117878 -0.8038686414660978 0.05940712146018661
0.3038625 -0.14759387987161182 0.926148926665309 -0.0010145029811085321 -0.001897690364821821 -0.45016621802289236 -0.28938311641322173 -0.7719645112134933 0.11440254385651615
0.31628125 -0.09672231547733273 0.892724813782186 1.7308868765991832e-05 -0.0024648297064221855 -0.45130939673198184 -0.06487136524656674 -0.7580821793072566 0.18604940453771848
0.3287 -0.07303558631786777 0.9337018335120072 0.000432404263518569 -0.0015596122949711848 -0.049672009161537266 0.04353722467887131 -0.7270616170121614 0.21892883168361416
0.34111875 -0.040046230765614935 0.9200883923171432 -0.0015445835074092747 -0.0017140232477713786 0.19299940328780377 -0.43292759735347824 -0.7592968997735644 0.29981282126110287
0.3535375 0.02042604614322783 0.9390478934693318 -0.0015281706569636525 -0.0005437345040010805 0.034941120236644224 0.13140490787244857 -0.7035496577900929 0.3126659229616372
0.36595625 0.07936985199782118 0.9001330177620258 -0.0021765865205190743 -0.0017235954275348008 0.04972183372054669 0.18890906216482564 -0.6511891906750438 0.3642170515186994
0.378375 0.1355536076005839 0.9070103671230763 -0.0010717156271507502 0.0005841666798200041 -0.23788468106092667 0.2928638679478492 -0.7436372649950918 0.5090003583861138
0.39079375 0.18005774826218066 0.906826875628658 -0.001321969338290607 -0.0003902130437457128 0.27820747100246496 0.07204294287789373 -0.6523883809594979 0.4907736106153201
0.4032125 0.22903557617275472 0.8677750957393652 -0.0018412218481205283 0.0008877905456373846 0.05539607723366886 0.016516960949132124 -0.6474150806524378 0.4896639345603047
0.41563125 0.26757716925434033 0.8434303074243167 -0.0007914421904143194 0.0007186985395580115 -0.3793866705885218 -0.2552227029623526 -0.5209486610825966 0.6667838795548579
0.42805 0.3284746455938717 0.8451828569784061 -0.0004533530250950803 0.0011580753985108905 0.1570646539894621 -0.06847198700053052 -0.5203680225380473 0.5992747521895713
0.44046875 0.35756775781268735 0.8363459542226749 -0.001714967209697024 0.002228689976085236 -0.3309660326169227 -0.09018321603892755 -0.4468447985500979 0.7408116015063838
0.4528875 0.4274380376118837 0.8073432111574916 -0.0031973262772763892 0.00302174483321966 0.06924019623163115 -0.01616508182124003 -0.41937715392454383 0.6611713650633101
0.46530625 0.48070741901543584 0.7837234166323122 0.0014752315344899152 0.001414734792717448 -0.06833989412272778 0.05078549915437184 -0.443589457794894 0.6803229041523438
0.477725 0.5074535986419715 0.7232486072059696 -0.00014461153601850598 0.001450021096892929 0.13769017600146574 -0.07120932127463281 -0.3231766889788644 0.8118171514251394
0.49014375 0.5346477054059057 0.7043424250843872 0.0011229614767878705 0.0014650223429848697 -0.13201654478855857 -0.40256634649276773 -0.2680971458333131 0.7200499369633974
0.5025625 0.5836026582549126 0.6766043005423297 0.0011107759915753273 0.0015943207600172145 0.16376124547263898 -0.1666787467749342 -0.2539228511599728 0.8068746498406191
0.51498125 0.6042479924932191 0.6505061550792242 0.0014445704768519725 0.0005031686179048557 0.09256844994039694 -0.0007210993156263839 -0.19500691689275257 0.751288247986535
0.5274 0.6490436173932793 0.5997646280282977 0.0020513036707026987 0.0016287143092084538 0.07872943293179772 -0.03638592169774042 -0.11956073669272183 0.7684338272520549
0.53981875 0.6862849547700661 0.5832760180425848 0.0037361828478436037 -0.0006089989823193651 0.06815990309219695 0.14726888431213417 -0.014974292849486022 0.7546732313432322
0.5522375 0.6981897449733349 0.5451407426364935 0.00016119444338372045 0.001013715548498123 0.07531814142804558 -0.08090694483126873 0.03720169745375574 0.8337957374941162
0.56465625 0.7310112700902544 0.49129876830658237 0.002284299509037263 -0.0009302166506585461 0.08751019781612669 -0.06708260775615042 0.07091028624579958 0.8547908662043833
0.577075 0.7591428715925649 0.4434649589979643 0.002596910613724021 -0.0010168706345703709 -0.05950066569027738 0.1017722085241639 0.14956972185072953 0.886735641565243
0.58949375 0.7730111807750188 0.4017680252299775 0.001102198272523515 -0.0033851485168631444 -0.1264056441915161 -0.011528145332047393 0.14951294951798774 0.7875073897295606
0.6019125 0.8122485172604003 0.36196815901390134 0.0022790417105160213 -0.0025643394927015377 0.07964993288108971 -0.15095227620530724 0.2135589767864756 0.828099932422528
0.61433125 0.8170600651848006 0.31709616518109784 0.0007746679151662519 -0.0009191334515391921 -0.05880415887639265 -0.14765696380223756 0.23067492480225849 0.7230042783927523
0.62675 0.8395772138062119 0.27475828977441225 0.001464186728783542 -0.002600543755506535 0.16788392130630214 -0.23514409060299743 0.3360111773331132 0.7485048090390509
0.63916875 0.8503873714458077 0.21233331560358226 0.0030623753006974504 -0.00030480644667877163 0.06375386083020168 -0.10468457100157019 0.26666087660390414 0.7389082885877024
0.6515875 0.8548361486601052 0.16575509690056708 -0.0002221763594418206 -0.0036284916024024462 -0.0068136496838472485 0.17493907519254392 0.33776902158909683 0.7066590598873989
0.66400625 0.8533767332032235 0.12140303985977907 0.0018194787590077985 -0.0017260315812647217 -0.027434993849435874 0.15881876239858445 0.42796444892580415 0.7250691887795568
0.676425 0.8700367565580172 0.07775857521385268 0.0007027227467610454 -0.004176562308466361 -0.13580151545015437 -0.1418988424693133 0.468992299873555 0.6943391981749295
0.68884375 0.8735556869382046 0.01113950038337481 0.0017408090911542043 -0.0027983850107639887 -0.004191517114798892 -0.11465042678881456 0.47448117881243923 0.6291667963796522
0.7012625 0.858293111376024 -0.04371245369673147 0.0006713644635322635 -0.004274658763868683 0.008004757518558125 0.08724570506674913 0.5497450658061257 0.5784805043403032
0.71368125 0.8458232667416044 -0.08140350478591833 -0.0016751271463495367 -0.0038439256662888047 0.06574306165109235 -0.1276587323947419 0.5378446999367759 0.5551338338780611
0.7261 0.8446913590113297 -0.12783002641269364 -0.00031450244246003034 -0.0037203653240062656 -0.054847859571834336 -0.04515031793273093 0.6315494747037034 0.5543493336752804
0.73851875 0.8182900452113565 -0.1834089204497053 -0.0011117201719362966 -0.0042508466510506595 0.04357934295483284 0.013290248937157306 0.6119238902755606 0.5346533307530087
0.7509375 0.8161105311326553 -0.22059304956784923 -0.0014520961288233003 -0.005420774790241691 -0.008516694992819299 0.02088254587378815 0.6425772916289471 0.4387988656030335
0.76335625 0.7978195910028868 -0.2696712137543783 -0.0027383842836014786 -0.004827015690310323 -0.014471712814773089 -0.0745047451221637 0.660637661118693 0.4366514583209619
0.775775 0.7683415046114151 -0.30983617079508813 -0.0039854181964328736 -0.004298448854150424 -0.06486496183905216 -0.07833864843966189 0.744751904907711 0.37138300120576706
0.78819375 0.7477280889313804 -0.34413577602712186 -0.0023929390893694122 -0.0025161290797775233 -0.018108685110777473 0.08623485794408145 0.749680732346823 0.3269433063082228
0.8006125 0.7143780095534183 -0.39032278453047303 -0.0033681575147528355 -0.0027734108058688305 -0.11622229594245577 -0.052525989851708886 0.6968462054653178 0.2598364021701722
0.81303125 0.694709523507981 -0.43121040959599494 -0.0033681285979092245 -0.00198274234864393 0.06059147534297214 0.002074671385890936 0.7511578544226043 0.2541844136029437
0.82545 0.6619557653599625 -0.4664381920217209 2.3279251694744108e-06 -0.004268168768233048 0.08280093919393758 0.03427577956318651 0.7520458005533527 0.23600630807208725
0.83786875 0.6378161687697779 -0.4880677251059199 0.00027944984555513017 -0.0005919953131338594 0.1259941734328801 -0.036954728002325354 0.7566566387411678 0.15331911725312883
0.8502875 0.6049644244696248 -0.5345291908848905 0.00030685941438798154 -0.001743761954371939 -0.13626119999819705 0.028555656385855388 0.7974188667468916 0.10859316127703988
0.86270625 0.5641242103653836 -0.5648554288777133 0.0016143004954583787 -0.001628782867546919 0.04054834799585338 0.045107661917800586 0.8006489770526153 0.05739946223231169
0.875125 0.543648575177325 -0.5905342642079158 0.0015585396283249186 -0.005696756181215647 -0.00822464983040947 0.06809719092872481 0.7658637476585924 0.05394466640201788
0.88754375 0.5000811071190996 -0.6124094890348372 0.002382256632052772 -0.006639403777741221 0.08356541058885042 0.06168539536753546 0.7418224857853816 -0.03081324304320557
0.8999625 0.4652533633532927 -0.6531084552720458 0.002335369615304879 -0.006425915485746621 -0.006886502662347291 -0.05189800354205356 0.7651577910041895 -0.0411938960942844
0.91238125 0.40812256278348363 -0.6650282783574755 0.00425535196528141 -0.011761292508773537 0.04909767872034799 -0.006868657184223107 0.7199773648311947 -0.07792528445836591
0.9248 0.377383166595229 -0.6803249320655101 0.00374928345276699 -0.014049973652396823 -0.05407363628445809 0.03870400014825326 0.7946864763285019 -0.12935339173690985
0.93721875 0.3423228206902357 -0.7011377186565377 0.001351059981453332 -0.015358264276633846 0.006268764788340864 -0.002668375726212744 0.7465550166181613 -0.17577022687000585
0.9496375 0.28912164286168035 -0.716444819640405 0.0004813573365158457 -0.018773584617842703 0.035761143982936894 0.06655472549780223 0.7600345445960277 -0.22966303526897033
0.96205625 0.2551019226974033 -0.7393956459169979 -0.00024517585671301827 -0.019867337950928092 -0.11970970418498562 0.07753169651916864 0.733004105112011 -0.23894120936115468
0.974475 0.20682491133804434 -0.7233310716922446 -0.003758200156818728 -0.02281146277435981 0.04180841092355602 -0.046156923668980464 0.7174387207500963 -0.2872217168601054
0.98689375 0.15201340380206493 -0.7516277386218433 -0.004003535602533727 -0.026455067121996974 0.03347710665351827 0.055500766875352596 0.6981686161561199 -0.35099612780938627
0.9993125 0.11456080023818595 -0.7392842946303799 -0.008886810479446642 -0.027024419874195824 0.12426677662284835 0.01609830131837117 0.6507283830980114 -0.3757129955163123
1.01173125 0.08158746246294635 -0.7389176154635905 -0.01005275622639534 -0.029105049567725715 -0.039475642270396356 0.04763580262422383 0.6439383249481155 -0.41007967430239795
1.02415 0.033302463486715825 -0.7533230893359607 -0.013028407205206276 -0.029796478648724714 0.08544080772758997 0.030702691035365662 0.6056865156314118 -0.3971350031154958
1.03656875 -0.010748892916905096 -0.7436356979497503 -0.015996152471192644 -0.034109377441361256 0.03660640648054523 0.09114028832385021 0.5932523700234607 -0.48010501271150247
1.0489875 -0.06069682983283055 -0.7359350703629515 -0.02100392862459353 -0.03535378010845696 0.029056405212740413 0.0015998903629854963 0.5552039781815339 -0.4908319673138349
1.06140625 -0.09214609881409394 -0.7306934630426267 -0.026511470121165212 -0.039847544124808544 -0.06914233294988131 0.006201199341339378 0.5593146118257842 -0.542783093219044
1.073825 -0.13895823302911256 -0.7177515323667787 -0.027657129673300248 -0.04036505743092568 0.016522655367133984 -0.0628793063509138 0.537094972995631 -0.5362534305102457
1.08624375 -0.1783854016939777 -0.6956315138925309 -0.03324163958921105 -0.046515799781683374 0.07590947218047672 0.03954063978391435 0.4807409393131274 -0.5931693274743226
1.0986625 -0.2171999119171653 -0.6844741938793475 -0.04301488846143334 -0.048101614110860204 -0.01052673720483218 -0.03134742097616176 0.43152143743572374 -0.5827521921989811
1.11108125 -0.25681751963489585 -0.6606718277823341 -0.05065887058041255 -0.048787386285594196 0.06137243329897233 0.050465163271865426 0.4067745596476035 -0.6191446921815962
1.1235 -0.2973587107995105 -0.6325013686458562 -0.05674909951028532 -0.047803051152675226 0.05503647593634486 -8.706324736597477e-05 0.3716692574934173 -0.6165127364470422
1.13591875 -0.3083497521942238 -0.6216347016784818 -0.06201434479929099 -0.05010631826444221 0.0270266094467493 0.03885114220817452 0.3732964029373005 -0.6683846047159937
1.1483375 -0.3491147550847233 -0.5838159077797075 -0.07334303916467466 -0.05052515823162741 0.10049112863612535 -0.04646626437935404 0.2999263315664137 -0.6501241340904654
1.16075625 -0.3819646438597463 -0.5714817836664356 -0.08561920634329019 -0.05367954814831177 -0.040238219090249404 -0.002896444289450382 0.2658764591488228 -0.6716075453835422
1.173175 -0.41152347988225435 -0.5464200754569539 -0.09933405646124031 -0.051744471735709736 0.058755287808817606 -0.12320463868808397 0.21875696293084346 -0.6663021753688376
1.18559375 -0.43628833214643437 -0.5147949664719492 -0.11125484292354892 -0.0470638327156312 -0.03005401802747906 -0.02538637723569933 0.16614605585010112 -0.7045205109713779
1.1980125 -0.4747260275019228 -0.4792789407560527 -0.12487258578572426 -0.042255652132434686 -0.014538680421379607 -0.023203341428039082 0.17202380824619154 -0.6634869797346253
1.21043125 -0.4909358584279801 -0.4496135953333843 -0.13895825609179255 -0.035391766727920056 -0.011618132858724749 -0.04074781192401446 0.14284779793134894 -0.727471225139373
1.22285 -0.5065150584902487 -0.4248989189051674 -0.15643391251559408 -0.028001588890290263 0.15143481546434648 0.054134752433544056 0.10214109648287747 -0.7123186236409275
1.23526875 -0.5304736183492539 -0.3912998858267757 -0.17311115969177765 -0.01953226266874914 -0.11705171475959043 -0.057267856975322856 0.0497493258272227 -0.671315871161399
1.2476875 -0.5413986135404931 -0.3430437748792651 -0.1860476257489209 -0.01135369726668134 0.030894817655933035 -0.07040905069511587 0.01868254201769876 -0.700678707711193
1.26010625 -0.5564516234806125 -0.32055972410209727 -0.20487035425841094 0.0044143910409511255 0.005071380683751865 -0.04762618458693736 -0.02075312863185064 -0.726296579122658
1.272525 -0.575402821789531 -0.28356221817050686 -0.2236105732008668 0.0168317610944632 -0.019075417143368606 -0.02060746626683129 -0.017236822628802013 -0.714055903741184
1.28494375 -0.5682313121963026 -0.2379148286189619 -0.24876185518350458 0.0345116453950748 -0.0030031741569823346 0.027335678834448228 -0.0908556128634512 -0.6793764939207892
1.2973625 -0.5820022460064648 -0.20896015798649334 -0.2705487066043219 0.0689855733916886 0.014325648175083475 0.011054656293020665 -0.1293635242868309 -0.6791031506623668
1.30978125 -0.5913051576619289 -0.17664451345271273 -0.28738421595954877 0.10838750174654962 -0.015599225162641044 0.030568819333178638 -0.14879641676465194 -0.694442855354231
1.3222 -0.5932569925303871 -0.14029125927927136 -0.2954715883980476 0.13807507186497484 -0.0048342688496373475 0.0034165234383188425 -0.19626959787466447 -0.689973769990693
1.33461875 -0.5950423180313417 -0.09590960073338713 -0.3063474728948756 0.16839419053906537 0.01080960729244748 0.008450139077610585 -0.24281571619893333 -0.6648731787722182
1.3470375 -0.5884528481004604 -0.0595783093934441 -0.3161099450720796 0.20602034826405569 0.07145834217419735 0.021315389093845172 -0.26888486222101426 -0.6114265394953387
1.35945625 -0.596201815161649 -0.03703648833582101 -0.32914281053102207 0.2560721516026616 0.004425169988860873 -0.009717170873598835 -0.23741319135513866 -0.615595542719945
1.371875 -0.5784821709433878 0.0032340427579383418 -0.3352788912240043 0.30196926003307534 0.0011739644478609645 -0.0049493354451712055 -0.3019513333616774 -0.5755328978566464
1.38429375 -0.580224854801979 0.031042998175836545 -0.3391319202674937 0.3721298805929349 0.00812594715794956 0.021078564282367908 -0.3420034129083221 -0.5843354821157071
1.3967125 -0.5697942885627578 0.07114521468674648 -0.3129715174031704 0.44335731252071614 -0.013735178018681524 0.001697875427214876 -0.381972402695078 -0.5531033106867661
1.40913125 -0.5566535376018493 0.09479122019037191 -0.2784904646697503 0.5108373636700748 0.020676873074537742 -0.030056494005501852 -0.4086390214515263 -0.5212737570681418
1.42155 -0.5424550815923125 0.1283559124649111 -0.24889789301198229 0.5673414943888208 -0.0015671072224345136 -0.009112582014610971 -0.4182543330000726 -0.505694943050318
1.43396875 -0.5338441445978921 0.15118846652116483 -0.20762596617724083 0.62993434699947 -0.0077096913755017385 0.01607898736213744 -0.4209033450251729 -0.48848237777864323
1.4463875 -0.5193477394230213 0.18486757866319445 -0.1672445389577753 0.7070204987627027 -0.05823873025116347 0.019415791419063005 -0.4741384854655921 -0.4482235416357088
1.45880625 -0.5076881446630878 0.21183391949323704 -0.09269462936566387 0.7705677709178445 0.02609986360334511 -0.014269721224508048 -0.48339927995536014 -0.44770610709622954
1.471225 -0.4852808244180946 0.23415325291710348 -0.01121062238767673 0.8346415116269624 0.02067721804770309 -0.03461817073283116 -0.4839574502959896 -0.4352795243648229
1.48364375 -0.4645389374645067 0.26391160209608894 0.09236304137497406 0.8952112331513269 0.0794695838377035 -0.057391079093228936 -0.5124891796242126 -0.35346010159575164
1.4960625 -0.4447490285644092 0.27866951896002956 0.2104093824307036 0.9202523310063874 0.03280124799199406 0.005113285936137005 -0.5248779202336835 -0.34014788399839563
1.50848125 -0.4260021024895432 0.3109308863400338 0.31712497591686417 0.927153729097826 -0.05079303746169785 0.06715662748243006 -0.5607987573257247 -0.34271199021552967
1.5209 -0.3991988759692052 0.32606840396286074 0.4430100295622 0.9491931707746916 -0.008122870724988122 -0.0019946986561960177 -0.5870654537115906 -0.3308787591165384
1.53331875 -0.3838490862921904 0.3421285255638176 0.5777426276232279 0.926337195748042 -0.01718083661176808 -0.06330762468909254 -0.5429827353015659 -0.2679535635181504
