!Created with skrf (http://scikit-rf.org).
# GHz S RI R 50.0 
!freq ReS11 ImS11 ReS21 ImS21 ReS12 ImS12 ReS22 ImS22
0.13 -0.7351633453420708 0.2585313811710693 53.87371754188828 7.042171395799365 0.12351444870790658 -0.5370038752875214 -1.964278227814971 0.09327725783020986
0.14241875 -0.8374433799603448 -2.469794317029759 65.03254325618751 -0.58298035474192 0.8499402586828972 0.7079177626887355 8.67814401072113 -3.991894533269525
0.1548375 0.342129959402787 -0.8155754991788853 66.47397660269908 0.5863415729946114 0.038402906229294105 -0.03392704308384754 -1.4673295092657164 -10.318062929972033
0.16725625 2.511531080642498 -0.4183941432522037 113.78601507775637 27.134091970084533 0.02810311672786044 0.8730219098342717 11.672529084341486 -8.327134827441974
0.179675 -2.146381883148755 0.4626551775944658 29.228462413810327 21.998681671874195 -0.8748466807010211 -1.1994737504324633 -5.327796821868313 -24.07874690719295
0.19209375 -2.66503174139217 0.11708596749788486 56.88611145986813 -13.679709299199889 0.13422438914994284 -0.5366298467364541 1.7076832210116502 2.2621585401292115
0.2045125 -0.5409023300389331 -0.10368721532418938 60.060247412039836 -14.245532593447267 0.06764063761800057 2.437049774554258 -0.8046784120841295 -0.8175077766194402
0.21693125 0.5344233651261749 -0.7024047582456519 57.484778963323365 -18.173366354827124 -2.0232173504885846 0.5625735633812683 0.43537517971684275 0.38434157756882537
0.22935 0.21682291514630792 0.11175064093461298 59.069854548216554 -19.765616377473442 0.013075400795547953 -0.35434257821017573 0.04310592146810739 0.5865529661259579
0.24176875 -0.8479798019828506 -0.37685241475719444 58.11641219790543 -20.823440875219784 0.28957452612223383 0.6137689172418762 -0.3472874211749757 0.3571819540653507
0.2541875 -0.0709426129437667 1.1891699384202539 57.109157287022576 -24.161026195787883 0.7527873805628986 -1.2992591812833154 0.3258206123143231 -0.054255390110436404
0.26660625 0.1957706250973902 0.01957488078336848 56.082350098301745 -26.397589882262725 -0.28459208453404017 -1.0967336487429298 3.3159524152946402 1.2807274503804054
0.279025 -0.11365076015484447 -0.8003511319220936 54.890825414788395 -27.465749902915626 1.5929415714788615 -0.564304090373872 4.4553205121666775 0.12347751756258697
0.29144375 0.5947492259646655 -0.10104376316451776 54.17724639081647 -31.36919097009649 -0.27074196263922107 0.1606250187721142 -0.027474566298861285 0.9094056264904821
0.3038625 0.16998803506054014 -0.07942903844569252 53.69591310976136 -33.25589049827673 -0.39127109079670785 0.471497570189186 -0.39745571830803805 0.21488949768583673
0.31628125 0.1062457269032376 -0.09230078951290217 53.48581964644588 -31.74917179798892 0.25725082218160766 -0.30511921988128954 -0.01805385767814276 1.2853956806360225
0.3287 -0.21324503584506255 -0.22724428880358613 50.681520304864236 -37.67105862965681 0.19589498688155954 -0.23010907400827596 0.2695456744304458 0.012523021769371425
0.34111875 0.16001019099637317 0.54495716031523 47.533717013443336 -41.9158248384293 -0.6816763229938604 0.3367435237612738 0.2907282471351449 0.14184671586441916
0.3535375 0.32389204327685184 -0.18438057167750554 45.59447517363112 -37.09958470392405 0.5975899328123321 0.551123379691808 2.1017097007172754 -3.0631487754963787
0.36595625 0.17876678387558317 -0.349993798075504 47.421555826936434 -42.842204303922216 -0.37474838455692205 -0.043577368241225524 1.116853198877976 -1.3589047133057994
0.378375 0.3045883313376174 -0.07175938796271997 46.61401847788271 -43.533678145846 -0.14341751721502016 0.29962896707699077 2.7733660379762233 -0.4179865931537948
0.39079375 0.20922679166918845 -0.2606001756452921 43.93396540815934 -46.34733987408096 0.05891269549530022 0.09023197874233983 0.1500533036102737 -0.28738808219723283
0.4032125 0.20890231967590822 -0.051467281828851914 42.52526102335544 -47.80274632659941 -0.3891073928097326 0.104431627064046 -0.039814050517379795 0.07948787077141832
0.41563125 0.03076644968450644 -0.48044596177918586 40.47685276328949 -49.655093360389365 -0.05744810028599192 0.14348295276542647 0.16472869920872893 0.4611787085310331
0.42805 -0.2560422479167754 -0.3803249180742736 40.053344826791374 -50.32225830684852 -0.19333250077626946 -0.25670651816192075 0.2134642537046472 -0.2036097543621257
0.44046875 -0.052087999474620665 0.15803427933259456 36.93036866605521 -52.30821012758655 0.006877756658119761 -0.11346590669956721 -0.34595579083120503 -0.2690768846348079
0.4528875 0.06483149160879009 -0.147914881830888 36.37797152262026 -53.75845582137608 -0.07403246287412585 0.12742421279721527 0.18533229433985646 -0.8716276846767009
0.46530625 0.015087455880247565 -0.24585249460351535 34.44044479073225 -54.65082758394138 -0.0320331657534806 0.26296394876541074 0.4471451359545586 -0.5200119256298497
0.477725 0.16386665141529874 -0.26303888119752933 33.65303928581676 -56.82104119695608 -0.09102190966292821 -0.14007780395605998 -0.06414433442912432 0.00770730165171482
0.49014375 0.07845585682385041 -0.2409033298442828 30.9786053383795 -57.489374851024266 -0.2219140400806143 -0.13837294162458952 -0.9519652618073525 -0.09284303745191361
0.5025625 0.1861852956517611 -0.3199836668159631 29.12137914624486 -58.40845044393217 -0.11632723000520741 0.034199050599429424 0.0036121617317651966 -0.40443333235545587
0.51498125 0.11720196854885288 -0.3056952711109675 26.73178814452673 -59.40725085693131 0.4371945085503214 -0.3034692602619405 0.3251182101917069 -0.80186126214575
0.5274 0.1328977269082035 -0.40404361432956265 25.176151842918784 -60.095742714811315 0.13932967247328554 0.21332095167010945 0.03892998038988168 -0.40897897711099607
0.53981875 0.1016211428888279 -0.22567273833548246 22.639442211523967 -61.37977993498096 -0.14723750861227106 0.18314698238497695 -0.053411218166334845 -0.3460766348215051
0.5522375 -0.019010235383964052 -0.29686203368784597 19.909349257635213 -62.445965159495906 0.08132519654320586 -0.12639629555931023 -0.04936552111087621 0.1666552062970518
0.56465625 0.19468413323562625 -0.26725022630250517 18.503609124274927 -63.00305987315184 0.09965586732413262 -0.009434648572211853 0.2999992890713842 0.18170839207327255
0.577075 -0.09442563910803367 -0.3274469163115344 15.386090632693358 -63.59088824049714 -0.07077555364205937 0.025138988610495787 -0.046933080808843085 0.27015396891787
0.58949375 -0.005550134020418783 -0.23939184739632244 14.708317766335792 -64.24806678324185 -0.03170964142925423 0.03240909609875669 0.09897434256537771 -0.37437547827837997
0.6019125 -0.01453810145703648 -0.2610548517358854 11.837412455368831 -64.83050653901019 -0.07196729540841106 -0.016563287172866904 0.06343173243489253 0.22603229317167697
0.61433125 -0.06865738320943336 -0.19258793896011386 9.67821336166383 -64.69808978248189 -0.03236448666113589 0.08451898237836969 -0.12036292092787029 -0.2497121684120198
0.62675 0.15355767807685716 -0.14378315971158306 8.03085854200361 -64.56889756971515 -0.0012211315344042792 0.05251609342183745 0.021528570564119078 -0.33228060368151957
0.63916875 0.09762014938314709 -0.3156797134115211 5.956429408284875 -65.46002956613177 -0.06802892607331565 0.06725417003409706 0.04117109515313131 -0.2988589626585659
0.6515875 0.0939515352570682 -0.1737852156964649 2.9938129338257626 -66.28789721472151 -0.026218095145006306 -0.07978311848836571 0.12715576278352586 -0.24709505933467826
0.66400625 -0.1378858456237391 -0.28349232980631417 1.1358089580114497 -66.1035240789211 0.09850999047817068 -0.014314128077874124 0.0813013594694171 -0.35715042330689817
0.676425 -0.06541378651611883 -0.20726891578918893 -1.0000143362486453 -65.47673892664419 -0.05691928812604603 0.05234283330937177 0.029579050207667677 -0.1343323478370426
0.68884375 -0.08898447591898682 -0.26438816900110534 -3.117761480957299 -65.0933461603322 -0.03707002310227233 -0.16279438752702174 -0.09710989625535901 -0.2506277622176764
0.7012625 -0.010626535131199294 -0.26006741056626914 -5.087374729861475 -65.78796517980011 0.021369712019016593 0.07370881331507495 0.040066855135038576 -0.2393298482860067
0.71368125 -0.1829836045886848 -0.41106332544197816 -7.139723728446532 -65.98202726304804 0.057421193069282075 0.01399902225211716 0.41672641912754826 -0.07044089342359565
0.7261 -0.1641899057007079 -0.36830342567796703 -9.715394007544017 -65.55745295040515 0.14318840674733588 0.005332289041717776 0.04507761644630009 -0.20878164925815837
0.73851875 -0.09741310146212147 -0.08787965421729599 -12.510144954595372 -65.2132465738992 0.007114218937179265 0.06729007103681582 -0.6048048968977653 -0.2198508448064772
0.7509375 0.011477529847489882 -0.28811681594222194 -14.292110198733361 -63.86967841669953 0.059956278429691465 -0.11632462128053363 -0.13891515875053337 -0.2841787577838254
0.76335625 -0.09209588032081918 -0.10711860068162549 -16.071670599973213 -63.030130504319764 -0.06543945666557716 0.06721214266451075 -0.17247555299725673 -0.45393322252480445
0.775775 -0.3696820727696075 -0.037072277581945805 -17.22701041107595 -63.99530162725297 -0.0033022694275868054 -0.026714126211224227 0.06089458445810296 -0.12838824501384755
0.78819375 -0.0385753950528287 -0.2837361803628836 -19.926445413635093 -62.51431395743716 -0.10540354972220349 0.029447791800388375 -0.22593291136280275 -0.144412005149022
0.8006125 -0.09041025984278268 -0.13070603608800627 -22.881449874618944 -62.54764087538959 -0.00333399641719428 0.005693682105059003 -0.1040947932393493 -0.3138775916686061
0.81303125 -0.06393124982027483 -0.1270742899288573 -24.31372159108458 -61.16079033217496 0.056693658058084274 0.0400816072594835 0.006637703219954919 -0.22120628130027445
0.82545 -0.15027462574302858 -0.17580330785869336 -25.95055984830732 -59.8718692245633 0.07495136331002202 0.0536707272414307 -0.00852369612834505 -0.43862263221852105
0.83786875 -0.14840694542002836 -0.18063339551134197 -27.995206703942763 -59.43183057988518 0.022495146269754063 -0.016854127342172284 -0.06263932358639761 -0.16890420706438292
0.8502875 -0.1315541258248577 -0.09654224618086661 -29.239263125573622 -57.75469503437877 0.09040620262365345 0.0565649389604171 0.1788233563253548 -0.5480722430557623
0.86270625 -0.31856188193910584 -0.05980608148578672 -31.62125383169257 -57.637934759989655 -0.078566183831367 0.11059167867937704 -0.3485240792743179 -0.5932476952952256
0.875125 -0.1752416082424695 -0.26558657239289996 -34.13656043595946 -56.463417343195 -0.05217872288988937 0.030011670729019307 -0.09747936035745712 -0.0674664506281987
0.88754375 -0.11624043539160418 -0.09166227324784261 -35.931852876088826 -55.05861233517329 0.03731136218136438 0.04380680527007434 -0.3909486401552995 -0.18132979126683765
0.8999625 -0.12617944438077588 -0.12745908504698605 -37.40012170170761 -53.677300837626746 0.012192590126422887 -0.01341564214661972 -0.20683540858450006 -0.27686806541071757
0.91238125 -0.15580032835366314 -0.06995306407457798 -38.34292775729605 -51.80271892945511 0.05291225383107841 -0.045079152738284806 -0.4733425923539867 -0.16211908065682484
0.9248 -0.20178562936419864 -0.09661858714356301 -40.79959333501008 -51.20607288328666 -0.10876969946787267 -0.005953231905842192 0.02466650143430785 0.19843156480796895
0.93721875 -0.2522140193862923 -0.04610510507780291 -42.70355195254248 -49.46435916904887 0.0501889274938024 -0.03958795789688347 -0.4070773792473874 -0.32817687280954144
0.9496375 -0.1102777223322581 -0.2404601751465986 -43.93499459312 -48.1044193270631 -0.06109881780722887 -0.053244171180330264 0.08247742169208104 -0.1654241158515462
0.96205625 -0.1282872492790364 -0.08358454587183038 -45.53715467392879 -46.770708261243485 -0.1254893531064913 -0.03603905309186366 -0.22997280020998043 -0.14053960538579355
0.974475 -0.1927494035348565 -0.06054257354841517 -46.42938741165418 -44.73856386156058 -0.04570808384760377 0.022952861070757856 -0.17096616678762525 -0.2799759335337605
0.98689375 -0.2505087392368459 -0.10312440016238829 -48.05819096432222 -43.200648590999506 -0.016841597737419937 0.021369457448687273 -0.28767582734257013 -0.14079476775382674
0.9993125 -0.2134822263153128 -0.06785513658130633 -48.98481818848762 -41.744661184772326 -0.009052359025437839 -0.0014793389858931139 -0.2295379900051445 -0.11802189966954109
1.01173125 -0.16301830040609677 -0.1183718182905501 -50.77469793879138 -40.275102396853484 -0.017989320401624993 0.015919979682391405 -0.16203570627741767 -0.1296120626138093
1.02415 -0.19821441228249023 -0.05865499108441936 -51.61595123855203 -38.06325284181024 -0.04398869821662063 0.01585452431113345 -0.03195843857563349 -0.08152214606377169
1.03656875 -0.2316777575341162 -0.07832706099390914 -52.72083632588908 -36.29756848790247 -0.09016896611336446 0.051307701650715326 -0.2423144254393165 -0.20695607057689755
1.0489875 -0.20566158589190886 -0.08179071573685484 -53.090221443502905 -34.65242075990118 0.05438972119030138 0.09973515411355245 -0.27275551385974794 -0.1904870627964943
1.06140625 -0.2086201681674796 -0.04804392654831103 -54.844974321198066 -33.36265784795601 -0.0045508278938998364 -0.009110432250323028 -0.20064954106206256 -0.01874063855589467
1.073825 -0.21149027244765467 -0.05645234729418613 -56.06129269947965 -31.738138561971375 -0.04066140390308408 0.0035853474387989026 -0.24863482433448694 0.11992720263219164
1.08624375 -0.25754432315581566 0.09104317519044111 -56.980742252709305 -29.20951880625233 0.025563275236805953 0.09257019437998747 -0.17623620703133241 -0.10455691384809788
1.0986625 -0.23622633233648585 0.02616440090926188 -57.947859887932644 -26.829384318881697 -0.01790001664665625 -0.04805546624532331 -0.08430825930695449 -0.3535041457307537
1.11108125 -0.11533947822209771 -0.055342657212153305 -57.84990955253766 -24.630338807316715 -0.01232576208560772 -0.02672705896954453 -0.08396853937458726 -0.041323332453779
1.1235 -0.24185767352673315 -0.011881705592940665 -57.906282887180645 -23.450782902680423 -0.018554525898090042 0.012085451412174774 -0.2515754636748768 -0.1406187819746025
1.13591875 -0.21290259460748148 0.003338733769836332 -59.08780777966803 -21.97272451983359 0.022195520651152035 -0.046615639466239936 -0.23854252758854996 -0.1037212429499614
1.1483375 -0.30424538097899056 -0.026409021370529327 -59.930316844972054 -20.325376272563037 0.050717958672974156 0.00876523097971933 -0.21708174814492728 -0.12878963988795078
1.16075625 -0.06120421367236317 -0.09444345207815402 -61.2151856158883 -17.860713030008647 0.03202722425501722 0.07127940184622404 -0.13755478762185605 -0.2542530846003908
1.173175 -0.14580423461078945 0.014099549237563977 -60.96940389984944 -15.98969245043581 -0.008996617169220764 -0.04041158473297605 -0.163046624178816 -0.18561249394371637
1.18559375 -0.10651878681172221 -0.006296316448682263 -60.8834320415231 -13.541087047077417 -0.01882168050209786 -0.05029905078675361 0.0030162748721902603 -0.020051427890049944
1.1980125 -0.18563297105031457 0.0329670409503655 -60.39789788028379 -11.381597867686077 0.00513428670515046 -0.0703887101910046 -0.1472585875039451 -0.11191466549815592
1.21043125 -0.13983251466208785 -0.10429914537928277 -61.342682221366886 -10.239450631793604 0.07230675477945364 0.10435883465089309 -0.465690535618802 -0.1846884977723022
1.22285 -0.1998700587803574 -0.004497512382092693 -61.64769791797839 -7.919467244664726 0.049690298263060456 -0.07060080220448099 -0.2389393590390563 -0.1544289550570995
1.23526875 -0.1304873605417781 0.06917609033706566 -61.78698150368807 -5.923901629041895 -0.015440445928279279 0.01142532896800877 -0.3186150807196058 -0.09112636755714947
1.2476875 -0.2293008140696185 0.05366328417338871 -61.74485749116594 -4.385308760303789 -0.014918626052467075 0.004715009331339186 -0.21176746418399206 0.020536612296137614
1.26010625 -0.18838247407450812 0.04249161339933395 -61.877516510638756 -2.769260533012331 -0.029750923246944578 -0.022938449684891494 -0.26196660198203164 -0.11569467890593009
1.272525 -0.155020433926254 0.013434743147142245 -61.646839475547125 -0.8238158436739085 -0.016344048757627672 0.03435638655412424 -0.28722699029258697 -0.06404659598345298
1.28494375 -0.1525972066283219 0.10712903373472327 -61.74137083045307 1.5072418622803798 0.012938451525726967 0.006136441440912547 -0.28187177810300107 -0.03824363343676271
1.2973625 -0.14839618771831264 0.14646628975912052 -60.87420003132905 3.823213455721956 -0.021249956323400855 -0.06679238235437954 -0.30127752869676544 -0.11236220032408128
1.30978125 -0.27728277353638836 0.039123785709908716 -60.661385183564036 5.690796401368985 -0.008519690919028211 0.06582284048175485 -0.2718163255612923 -0.0667487736400042
1.3222 -0.025231250174326283 0.10898341786619556 -60.32532804388546 7.39866945492702 0.015010425768243553 -0.05605024115784013 -0.3631671071243586 -0.053668332504856774
1.33461875 -0.138654969829055 0.08996297336662375 -59.84350414235879 8.618583140075414 -0.049688613767680835 0.07241366168749086 -0.19372444831628208 0.04339130485883191
1.3470375 -0.21730486656674644 0.08890176811526315 -59.61196549181239 10.293426065224555 0.06712478328852899 0.06207922196176229 -0.21250088795388553 -0.1339970682419193
1.35945625 -0.19319621935529352 0.09208520557111703 -59.48447406650146 11.663651462636867 -0.02736697122260066 -0.018329237935740074 -0.2834388784421439 0.02133519635735305
1.371875 -0.19263760076503403 0.15101324324121498 -58.86464159007575 13.809964272315737 0.04922446040261764 0.03202880082805666 -0.3238427924449098 0.04452290424301364
1.38429375 -0.17973178486586577 0.1584461723232556 -58.814547564745446 16.42304570442454 -0.0158629030092435 -0.03412738529064557 -0.3111010517335412 -0.10527352931286812
1.3967125 -0.18039237042983675 0.09746786793686506 -57.199065896408754 17.54722510888523 -0.03274285717756231 -0.033474232266490433 -0.24204179816316357 0.002013249588401173
1.40913125 -0.19540345387144722 0.12007348444548199 -56.41136020794808 19.544522576349195 0.02035393762092635 -0.030085167713941287 -0.2503951357165548 0.08094329810557976
1.42155 -0.17221770752535392 0.11402218711625876 -55.54892079670491 20.863908122541844 0.007867393538484299 0.009554524202505424 -0.16920118903652656 -0.014245395766308063
1.43396875 -0.20283182042456757 0.1567839176401124 -54.99047555613993 22.01723824075585 -0.030998677745049774 0.05294673222779303 -0.2804555294975205 0.06887026603667445
1.4463875 -0.1868823210489765 0.13469083405349763 -54.686618949136594 23.867136457122594 -0.04440513348281615 -0.029890013756085722 -0.37870339962790034 0.07099000306505301
1.45880625 -0.16502638000932102 0.13690873910313534 -53.69174918647209 25.699575839998065 -0.007232514614622038 -0.04008997746988625 -0.23381027979861949 0.03712995871970923
1.471225 -0.10704852952910707 0.1622128226270833 -52.61293901296061 27.315659427899362 0.02552757299996642 -0.05097391320857737 -0.15141300657114742 0.07331310726170188
1.48364375 -0.17641572893707086 0.06868741631667902 -51.668407647403654 29.074679520588568 0.006871433216869941 -0.0667784416564253 -0.25266485310054737 0.018083539010356444
1.4960625 -0.09372646419586339 0.06813532207299665 -50.60452365077443 30.89671050325916 0.06138793893644981 9.71107474085565e-05 -0.25313342626693924 0.013231550463371095
1.50848125 -0.16200329748154219 0.12121462323177876 -49.49918230283046 31.156219201473355 0.051238766091735485 0.027502327012624974 -0.19705362220398187 -0.09630911717954789
1.5209 -0.11901185977834193 0.15134747317242717 -48.50268641202828 32.89862169834286 -0.02105176523553841 -0.03426415464016447 -0.11218698615920067 -0.06321008721607156
1.53331875 -0.06634755257107976 0.1535038759996427 -47.55718187685323 34.344687045544106 -0.0054884162570968086 -0.04480056328806918 -0.2836705990377409 0.1362547622412555
1.5457375 -0.13223938870343022 0.22038950184597098 -46.038233125152075 35.29646728843061 -0.07121691048870726 -0.031208775993007355 -0.11010989251845728 0.16382220188470828
1.55815625 -0.1619752411279058 0.20633122248492705 -45.049462507878296 36.30775679027682 -0.019569233180621235 0.042380532865370066 -0.13267041395555063 0.05552699652252461
