!Created with skrf (http://scikit-rf.org).
# GHz S RI R 50.0 
!freq ReS11 ImS11 ReS21 ImS21 ReS12 ImS12 ReS22 ImS22
0.13 0.743670252598124 -0.4832695486315623 0.004145672449945711 -0.004996743557453708 -1.3374689764366239 0.16736845615765655 0.7468210413043335 -0.47782005472563677
0.14241875 0.7132723764503909 -0.6274613352940765 0.0035205630693964022 -0.009150862291981317 0.8352776972415794 -1.0473004735645148 0.8909152676613764 -0.5279234444780909
0.1548375 0.7058354799406673 -0.600845854326779 0.0029089649536700054 -0.008306336871031751 -0.38772639239063705 -0.011899030248358934 0.7533399769542569 -0.673212566691438
0.16725625 0.661895958494662 -0.6418507130114179 0.002056831930911676 -0.014406987569320647 -0.4035716579298559 -0.8677780421238543 0.6938047042578562 -0.5586281192528447
0.179675 0.6157320134707889 -0.664911902366155 -0.0031241690030652802 -0.015893048938625386 1.5817840060470156 0.3735990800780626 0.784797194283356 -0.4924067414656906
0.19209375 0.6155019136132641 -0.7550687095831692 -0.005521489157132432 -0.01933529901899839 -1.4538446146428843 -0.4025464169368957 0.6211074391659764 -0.6643288010699084
0.2045125 0.5408997269602244 -0.7612737281781062 -0.011094431497796695 -0.0186915379263128 -0.13056758151157888 -1.450250014454387 0.6316966004561829 -0.6906982616073163
0.21693125 0.48743751687115855 -0.7490776736978706 -0.015409244817048312 -0.01811680954709542 -1.207170230698787 -0.28737978979292966 0.6477164434479933 -0.681014798694143
0.22935 0.47060065895935055 -0.7992328538342361 -0.022695326083890684 -0.015993112884931767 -0.45811552260735766 -0.17106881430248405 0.7277893123357522 -0.6652548182733399
0.24176875 0.38739802147788527 -0.7667618507973998 -0.026448466151989165 -0.010917306766528556 -0.42760213342659 0.21927141799475608 0.6086829944304034 -0.8538345182639243
0.2541875 0.35346485114952186 -0.8047979474462553 -0.02979794256476447 -0.006503812442922068 0.5971589135388791 -0.6659005962046352 0.5279643852098822 -0.9190859816506425
0.26660625 0.29476932028493014 -0.8646809479626392 -0.03352761052701845 -0.0007041327760095416 0.3951970691426588 0.7132984106298782 0.3552738942958864 -0.856550623928433
0.279025 0.2476647683966657 -0.8735917343728463 -0.033593502052202656 0.009060291348770873 0.9899011917667097 1.6636161796077902 0.5008962978552163 -0.8044668017175799
0.29144375 0.20622705822519583 -0.9002653923426035 -0.03239480353983272 0.014269874627441151 -0.10641649936978886 0.17713415024139298 0.4546444582767275 -0.933774504048185
0.3038625 0.17084168045114323 -0.897178470269848 -0.02878661787790698 0.021581703919431053 -0.3924294579727699 -0.4735500457693836 0.3636463335535637 -0.8698575461985719
0.31628125 0.09008729264268484 -0.9335908090107341 -0.027561768529533737 0.025262622313353522 -0.12548603134461556 0.06689779155777005 0.19593717726035684 -0.8717138267530583
0.3287 0.04737465340868207 -0.8981043981669253 -0.021967656415107877 0.028046306575000894 0.09354103122911508 0.14419116166254337 0.30194513248697685 -0.8462439096651444
0.34111875 -0.03161715970120815 -0.9161416007726535 -0.013624198465106445 0.030707440228528716 -0.12416519739914064 -0.2714251765557019 0.32609689194320696 -0.8633820011892694
0.3535375 -0.0811569886959978 -0.867642102447448 -0.011180692644725735 0.03270268644658034 -0.311158626129761 0.3585390558273043 0.15738400063770924 -1.0271975698563762
0.36595625 -0.11822210289888543 -0.9217709003277073 -0.007559587150189084 0.035805056698770064 0.2672327566942335 0.06243481506960737 0.21042092185200212 -1.1120420249352803
0.378375 -0.17528185310618663 -0.8815154706941165 -0.0016646435088067321 0.03407420005861583 -0.10186832868192307 -0.12003271782398564 0.04510281371421449 -0.9650721192230892
0.39079375 -0.21496592992096156 -0.8547299808422449 0.002681114423425453 0.03342574118575975 0.2511876422428862 -0.20511470915551613 0.03620204302294396 -0.984716840426758
0.4032125 -0.2679722289323534 -0.8545695451683507 0.004017173104146304 0.031925222176444175 -0.273964311136233 0.003511664574171121 0.03872734664715801 -0.9186176168230777
0.41563125 -0.3253776593509692 -0.8460856964768652 0.0073624613420169745 0.030248630901673745 0.05574062283980813 0.062140130974530014 -0.010320869232228257 -0.8800969565296847
0.42805 -0.35130876628493596 -0.8124952736887474 0.010794173191916041 0.03090299601555973 0.040044609393073236 0.013684718020267552 -0.11961642568384026 -0.9681943441507848
0.44046875 -0.41093945374853674 -0.7735006888716927 0.014513968822989774 0.027797732970564697 -0.003181932531792323 -0.24956772905678049 -0.04393871876144738 -0.9954602074352727
0.4528875 -0.44202298880437707 -0.7551074576098752 0.018905344644648624 0.025317326852874966 0.08721630300394419 0.006040502377026055 -0.1826273738284773 -1.0071972926238058
0.46530625 -0.5033701048614136 -0.7423402141773191 0.018699617332943272 0.023470845327563723 -0.24821484990548018 -0.03692297047004291 -0.23710394063994691 -0.9160399560411396
0.477725 -0.5266065366692282 -0.7342440169918453 0.022009049208678366 0.022705690884368968 -0.35644705233759133 0.1382231519907433 -0.18166702822452255 -0.8383614061927991
0.49014375 -0.5705158794217848 -0.6765352177094699 0.02256994155369639 0.019887417099757408 -0.09399533427205657 0.2702856426384618 -0.3187152660769756 -0.902369647664131
0.5025625 -0.5925969252912949 -0.6405418806665063 0.023915729934927646 0.017164929725453696 -0.06471515021757462 0.12233453702629511 -0.30673556521804063 -0.838477722438782
0.51498125 -0.6412514198439583 -0.589531823929254 0.025788413289988505 0.014920611334130817 -0.03746095762772191 0.08535741659592236 -0.42017496065526777 -0.8802972350112825
0.5274 -0.6552735447151794 -0.5541167556042945 0.027337805902545198 0.012312541669364003 0.02280379867211273 -0.02424115191169358 -0.463870103146527 -0.8365747797733171
0.53981875 -0.6921367534100479 -0.5140554030839986 0.02551809892437157 0.007804043787733595 0.07813620256816553 0.2809317453555844 -0.39134148425672083 -0.8930222531339678
0.5522375 -0.7285718412370265 -0.4659691265879339 0.0269578553526839 0.005111444527480695 -0.16518684758872162 -0.04171243134725862 -0.4512205070090201 -0.8511405124955695
0.56465625 -0.7556902494557697 -0.42686911069434713 0.025556873098662718 0.00392800522140436 0.15696409361131428 0.1449374309274158 -0.5153117012146919 -0.7431432456521221
0.577075 -0.7788292728988391 -0.37697254277214925 0.026241917701392458 0.0006467203555235812 0.0853670251262111 -0.11743868924336116 -0.500562903446025 -0.6686219260712585
0.58949375 -0.78099419301299 -0.32737283504171805 0.0262618542089665 -0.00047214280944936403 0.09774638587693146 -0.17616915678374934 -0.5729561049869097 -0.6678893510364352
0.6019125 -0.7860221345230904 -0.2859672911006389 0.025558389627062358 -0.0034856653606627616 0.07934845150071594 -0.015700454207732414 -0.5503792108436062 -0.6599266735377916
0.61433125 -0.8001879309698826 -0.238451341537466 0.024995736602102688 -0.005777676400826086 -0.20731855994632786 -0.06474624398282405 -0.6303827154529681 -0.6728688615841474
0.62675 -0.80052234063936 -0.18677072284316612 0.021994004920816476 -0.004905262263669666 -0.13332669403578581 -0.06446609955383824 -0.6616265663026848 -0.6282031711443491
0.63916875 -0.816476494528837 -0.15167046176687576 0.022019465292586513 -0.007986814562838097 0.17512334640370864 0.22153648882365054 -0.7296726819929495 -0.5393137478499216
0.6515875 -0.829089796964737 -0.0935468269008674 0.02124271675201355 -0.010885802947160949 -0.09377983845499847 -0.02745923738311509 -0.744526796876095 -0.540155228145304
0.66400625 -0.8197177391832741 -0.05271695340757602 0.020950270317359427 -0.01261493743839428 0.10169309429891536 0.05798220654678273 -0.7624016399749883 -0.5292048668975212
0.676425 -0.8105482217035261 0.009836884727111198 0.018011906637664107 -0.012245008402418194 -0.09866149982192715 0.0107643506924123 -0.7871174798305897 -0.47866313499722263
0.68884375 -0.8075187358035109 0.04927944243620356 0.01778763553469122 -0.013611399703420833 -0.07307278048065478 0.22262036650869987 -0.7790948791433605 -0.44331846465258457
0.7012625 -0.8072237212462733 0.09163705061743668 0.01628972866980979 -0.01679273514404761 0.01668228253456749 -0.06222518619072094 -0.7729953826643556 -0.4240797889053353
0.71368125 -0.7931923789679266 0.13073439588663527 0.01445487994605721 -0.016930332292359008 -0.10797730068060812 -0.1217113239233191 -0.8560665274507087 -0.35746964577976653
0.7261 -0.775622248299971 0.18844899404989557 0.012717941676247457 -0.018460198233534137 0.061247997694687514 -0.12064280705745876 -0.8000656089542985 -0.28922492968691815
0.73851875 -0.7635329859910771 0.2237926259714567 0.01199005088805836 -0.0166540340209741 -0.1387115800342001 0.028575909361652514 -0.8164684782240189 -0.22690638418066097
0.7509375 -0.7438423163855671 0.272115629603125 0.010266021880889839 -0.01858907773730078 -0.0477819872387173 0.04039454764181977 -0.8833181658660229 -0.23088474281478114
0.76335625 -0.7408164217828682 0.3111253180797274 0.007117243207429649 -0.019288082184272005 0.017524430905415885 -0.019704663928725122 -0.8191574714653075 -0.17820743513591464
0.775775 -0.6967809402097251 0.3514448320496137 0.007093980340656791 -0.019732987517078433 0.07996860092435372 -0.07741465902491969 -0.8288120068278144 -0.13567675464910503
0.78819375 -0.6788533201072422 0.38468793462680967 0.004309101634158072 -0.01995145668956496 0.17526139386052786 -0.06652360605462064 -0.8181855890660024 -0.11612636749205732
0.8006125 -0.6594842035139247 0.4053703908927572 0.0009735959741340391 -0.016821366226379975 -0.04316524925631325 -0.012786129343121882 -0.8317139966481754 -0.06511499259411478
0.81303125 -0.616474498923218 0.45175935409983464 0.0013864377170051576 -0.017094748834473022 -0.11279023202151811 -0.0028919573313282458 -0.8325750220028253 -0.012715767028931147
0.82545 -0.5946860443101716 0.4791553538595527 -0.0012640880605990573 -0.019572487941420285 0.026050128743805377 0.09033599779947699 -0.8787340482755 0.005871207029983473
0.83786875 -0.5517345479736637 0.5132363773570722 -0.002571715933466349 -0.018555659183000086 -0.042540658967657456 0.12081126439135288 -0.8101065963670857 0.034042050884195034
0.8502875 -0.5359203613685571 0.5409126280675678 -0.0056274570902086945 -0.015603487887729466 -0.020416373505227146 -0.05808158114107153 -0.8406203800049379 0.07504647724418208
0.86270625 -0.4970460445264765 0.5689597090882196 -0.0062319414016118865 -0.017213348000728122 -0.010713337340780118 -0.07574220376371024 -0.8048598690000479 0.1398825460022089
0.875125 -0.44313047737654343 0.5962169953943425 -0.006313808158029077 -0.013861900157934075 -0.14345695039975115 -0.006067495309479534 -0.772854746676768 0.18833469382051643
0.88754375 -0.4127295391721404 0.6161462957674056 -0.009470316786395672 -0.014789654218717944 -0.03805529369685609 0.03740703428759333 -0.8072871168234698 0.1786248159808713
0.8999625 -0.3867126460392052 0.6352302949533686 -0.008280066746829448 -0.010412384460156061 -0.019469981674653553 0.0032254166566857354 -0.7591873387908996 0.22364347257344663
0.91238125 -0.33792939453701804 0.6408130466030499 -0.01076928023542715 -0.009197834245421786 0.04566188764730251 0.062141590268331964 -0.7723381064608238 0.2723146660032527
0.9248 -0.3008874392278978 0.6637115833506614 -0.009518574082471384 -0.008662659617324377 0.026819897527097528 -0.00731513556697584 -0.7577000649002981 0.29870471116530745
0.93721875 -0.2618926150631654 0.6737276838529456 -0.011898037634511334 -0.007376197503602575 0.1012871181206254 0.03861529431792386 -0.7362461386751894 0.3196515656467233
0.9496375 -0.22587284030019164 0.68403998171396 -0.01239205602926287 -0.007017781247493492 -0.003312823327630126 -0.028237271081680077 -0.7000322126404346 0.3627169271934988
0.96205625 -0.18343665567877088 0.6919489896494746 -0.012944298430226656 -0.00416686513917508 0.04440771216848031 -0.012996241173214483 -0.6873365971021311 0.3600710970816698
0.974475 -0.13909586054615083 0.6995313593966995 -0.012516327601783275 -0.0027282856438078603 0.009396103708002371 0.0033923604900846288 -0.6688033947224102 0.4437212310038368
0.98689375 -0.11682993373407412 0.6917725580149563 -0.011362939265345168 -0.0015969569690241871 -0.0007511473420156597 -0.06597091305137341 -0.6554514610365008 0.4337053426090394
0.9993125 -0.059452268467525764 0.7010051713558738 -0.011906919123031264 -0.0006158754116539093 -0.07220135416843886 0.024355445537067248 -0.5959907158137092 0.4849155163415826
1.01173125 -0.01308794156352086 0.7135640649096743 -0.009822028857173544 8.169744111981453e-05 0.02595964611191914 -0.014844792085677511 -0.5757007491329222 0.519786434118803
1.02415 0.014785121542136525 0.6949721399612839 -0.00963856278021758 0.0017633020940788372 0.12071527122313946 0.001970551747493805 -0.5368157093338755 0.5199551898458393
1.03656875 0.05741327607611786 0.6961227379620297 -0.009036701281264223 0.004904933145285992 -0.032317339592912685 0.03222053965051396 -0.5223712278256333 0.5371075062190641
1.0489875 0.08602058615999207 0.6802516896874623 -0.009288442468430452 0.004723129874370148 0.05701987943724833 0.04277588169203624 -0.5036466546253279 0.5645982592811077
1.06140625 0.13713296176744186 0.6735599223664981 -0.00666635550589762 0.0068975644807133755 0.00997461016499921 -0.0003614070911992819 -0.4642248311527462 0.5715150678996852
1.073825 0.17291635486083046 0.6504741948893074 -0.00470610203162133 0.00734945021751224 0.014694233358407539 -0.027592705425767965 -0.4409869035202428 0.6293378587193362
1.08624375 0.2101262210318322 0.6465520213702949 -0.005135537279096517 0.007999661351941263 -0.07254461756746143 0.07063129026138625 -0.40384990917126473 0.6209471026942769
1.0986625 0.2434415969226834 0.6232400734828245 -0.0018605074631618233 0.007043293547510702 0.06298097726375342 -0.10495567113876288 -0.3520504653785155 0.6633102081308393
1.11108125 0.2767124552886361 0.6137201215214306 -0.00289232848977353 0.008344450008556634 -0.013205161872673253 -0.03011678055434222 -0.35869389355647124 0.6237287557630923
1.1235 0.30981341270730894 0.5896386745385306 -0.0015089491100515541 0.008720994292317963 0.0028476003154228615 0.03110658106699786 -0.3206750776427477 0.6654078194071913
1.13591875 0.346038903151314 0.5602591005094382 0.0009798905138898705 0.009516468297972534 -0.004320155120830777 -0.09325707372665215 -0.25736289523004374 0.6992270631590847
1.1483375 0.3737675658889538 0.5386660888646093 0.001657503742136384 0.009180412705786912 0.005848568660664956 0.0497923514102838 -0.21213602835934445 0.6641159480929202
1.16075625 0.40888571073280155 0.5126752454882972 0.002719843587591005 0.009371778661094688 -0.09565201157147862 0.01070003858381545 -0.21156019443874868 0.6774192934595832
1.173175 0.4258584467713573 0.4839653775875066 0.003652728117458476 0.008644587737489407 0.013145521386046051 0.03833010687461386 -0.16265471433560102 0.6880359580352409
1.18559375 0.45447948637089486 0.4560313836311725 0.0037030080598045695 0.0074359700268371255 0.05625907346494688 0.014027471680744698 -0.1744126818735597 0.6717580774457281
1.1980125 0.47669235148217515 0.42339584456141616 0.005753185671936711 0.005605269860611788 0.005692433536625378 -0.03995026106488075 -0.11191906065963156 0.6952733626946315
1.21043125 0.4879387427833651 0.3942170023346152 0.005999031410075654 0.006388057765878956 0.0317935201894273 0.009852547120885515 -0.06184536526024955 0.6660803119080679
1.22285 0.5045586937624762 0.36281263428544314 0.007400032836097821 0.005247624029968138 0.039512169832473146 -0.000581527895036423 -0.0627514112005575 0.6738422643112583
1.23526875 0.5269611174500979 0.32896971912666434 0.008350050610942576 0.00319973345023601 -0.02113939202906527 -0.012737162097122128 0.001461408488882155 0.6698592456937522
1.2476875 0.5496230923091537 0.29446654730246596 0.006361797768029267 0.004003391514412396 0.011512132604235841 0.03246001985066401 0.039034921816144166 0.668111136670763
1.26010625 0.5676728672013827 0.26467486786761774 0.00687583806531133 0.004083556705694527 0.019767486376434395 -0.11206230946624474 0.08336117026547654 0.6862703009364699
1.272525 0.5741647985200679 0.23835441922563058 0.007923752747245555 0.00047384444416520495 0.06754961593246936 0.027833053275284004 0.08184725796012449 0.618109262840927
1.28494375 0.5849927545795393 0.20370708675686047 0.008113366374509047 0.002788707200474921 0.048962277632895575 -0.005150994321301611 0.09300768917466212 0.692235573371581
1.2973625 0.5827271000896781 0.16527925668506488 0.006411529935945568 0.002170451115653705 0.02593863691047276 0.02123111894321193 0.1512823278130082 0.653243541223594
1.30978125 0.5938009203301763 0.13148853769974667 0.006130414733457584 0.0014507464020524312 -0.030994184081114852 -0.038413656905641504 0.1597737895846139 0.6071996218359562
1.3222 0.5897080024573645 0.09331814763906571 0.006011534981489009 0.0014496913076864364 -0.009934677304438037 0.0051286986641187965 0.1798925399279389 0.5960972059952039
1.33461875 0.5933606686681481 0.06512429240377825 0.00942018024354614 0.0005803128969314034 -0.03733367096268011 -0.026088248083596735 0.22636767787726483 0.5680701183849222
1.3470375 0.5991083099027306 0.019521414130244774 0.00718222532079454 0.0004953571627089235 0.001448439961648422 0.0543229630937598 0.22474211464260208 0.604111623898604
1.35945625 0.5901331758040577 -0.009520126325970771 0.008659034359522444 0.00019678522914204523 -0.031369199413057214 -0.013462073821742117 0.3174200213774018 0.5532228699597993
1.371875 0.5861438031270236 -0.031796766698455714 0.006490625584262406 0.001260157372412287 0.04142862476800073 0.0187753212436868 0.2836815900255288 0.534450097449496
1.38429375 0.5811150648179398 -0.07085433736481267 0.005952235104156275 0.0016774992514009687 -0.005917129384009697 0.021686299764819183 0.3179409241355127 0.5081948527595992
1.3967125 0.5692819701768317 -0.1091475141648813 0.007066599217562738 0.0007613662764743955 0.08527605081200684 0.0005069017866699854 0.33069996421581854 0.5088534524219924
1.40913125 0.5639758538510139 -0.137927605038663 0.008623539246962492 0.0016245942614358294 -0.04307340148552234 0.051991696290031586 0.36334961592761345 0.48558211362673415
1.42155 0.5560172672850544 -0.16372098749704203 0.005737153160051277 0.001731167078804889 -0.0027157934044715237 0.016639842067415637 0.3727528165746124 0.4602793109078229
1.43396875 0.5395620312690491 -0.2032342711571442 0.00683543486782996 0.0004714390694770514 -0.008800819782353288 0.027892740533005358 0.41071674784814116 0.45884517326010726
1.4463875 0.5205240878337207 -0.22890901620889842 0.008211566007612503 0.0038029075973283937 0.001699828229765582 -0.029755716999681214 0.39639576753962175 0.4560953616670572
1.45880625 0.49899797232784515 -0.26121214493946693 0.007301353470760509 0.0032774999270562782 -0.034626435248480136 0.011564846863718847 0.41164923229830863 0.35653754189724385
1.471225 0.48115829780861435 -0.2784861821113285 0.010403451778021048 0.00209113544604683 -0.029389708901848652 0.00759214526984622 0.43165795809151786 0.3574654885050121
1.48364375 0.4699665615983119 -0.3057467861111401 0.009431609706422584 0.003672379811693602 -0.03816078011341817 -0.02675925708449887 0.4637546081865037 0.33969875640674174
1.4960625 0.444107613881255 -0.3323860802117067 0.008020647304249322 0.004276409716058263 0.02983158830846062 0.031807371264032026 0.4815299286881928 0.3414451710316765
1.50848125 0.4253620508923438 -0.3530101303469423 0.01067255620093186 0.0065609367750973655 0.005083067517758137 0.010588053970254712 0.47049999687204397 0.3167732005706014
1.5209 0.4044097465995121 -0.3739603724431999 0.01090802556854736 0.00631139293864134 -0.11099258544285795 0.03109085778418754 0.479544953143465 0.25361722514421553
1.53331875 0.38027477989755154 -0.4020139955294654 0.013107833907893107 0.006747021104713767 -0.05360063316058054 -0.04492647594611482 0.498953168511655 0.25451863255615537
