!Created with skrf (http://scikit-rf.org).
# GHz S RI R 50.0 
!freq ReS11 ImS11 ReS21 ImS21 ReS12 ImS12 ReS22 ImS22
0.13 -0.7874725475885455 0.5366425636745692 -0.005304568159592876 8.752703390670488e-05 -2.046062318656985 0.991033326673858 -0.5144134368464899 -0.44852915287254375
0.14241875 -0.7237483515059501 0.5575499420981069 -0.003697548763146738 0.0025390285102757245 -0.32463773610953606 -0.38167996593770037 -0.5272553672607232 -0.6611837389398446
0.1548375 -0.6320885939697796 0.6439201649093773 -0.0031593955692466305 0.005801892210968338 0.14115375360865035 -0.25948750121758507 -0.5426910364140082 -0.4659388767304516
0.16725625 -0.6998339125722359 0.6469198145217357 -0.0014877819641241187 0.006318384096823733 -0.7799774534794659 -0.5804513323102234 -0.46261666131680884 -0.433169387114996
0.179675 -0.6511683875987844 0.7096536533743224 0.0022505171545390964 0.006489946128072076 0.7452953328183788 1.523992350233994 -0.6053399428882942 -0.2795661058822528
0.19209375 -0.5920308535148311 0.6880336506774879 0.005073403074752693 0.0042618082114280744 -0.7102141082491152 -1.4121515429943738 -0.5136054907629639 -0.2968104628786313
0.2045125 -0.5255811740259773 0.762829789291282 0.005043079261377255 0.0038932330518272945 0.29486638741311855 0.8328574404866649 -0.5313152167822802 -0.2595882990466542
0.21693125 -0.49995208940256486 0.7559049443175272 0.005131023494573901 0.0019594876353372552 -0.5489409928687017 0.8137188171289298 -0.6355601410742532 -0.2807917414013866
0.22935 -0.4551336120506571 0.8212148056224821 0.005222283114864137 0.0011788753331964483 -0.05964599260177236 0.08778186011503522 -0.5528757223612193 -0.09407033394149174
0.24176875 -0.41313457709115137 0.8782975836398869 0.007881560161007354 0.000314695994841769 -0.5555641005810553 0.023497520092247946 -0.6774209492185123 -0.13148558569445498
0.2541875 -0.3359370030531086 0.8407002065894037 0.004527216376920671 -0.002636576598573753 1.7366153839329819 -0.9852667369374931 -0.6322988962246926 -0.09150292589660128
0.26660625 -0.30859724818593737 0.8706970625254561 0.005273802008727113 -0.002964935367005314 -0.11044134615284946 0.3662324884153716 -0.7147466994830678 -0.056545981033406044
0.279025 -0.2547466780898282 0.8504207563354519 0.00393284224218748 -0.0033838510881664587 -0.6717142576071642 -0.47362284886134554 -0.61745824574958 -0.04723981966046742
0.29144375 -0.18419712078702682 0.9063065580948132 0.0027974729081447717 -0.005602729393851702 -0.2192225345916249 0.11090991321022509 -0.6507692623511365 0.11831981879847812
0.3038625 -0.12643596680789682 0.9099900348370555 0.0021779833037928824 -0.00651816570199043 0.08971029916081923 0.3079383817401779 -0.6911707817774247 0.08869428805663858
0.31628125 -0.08363988731356933 0.878044396035692 0.00043666219569538366 -0.0061600608063911814 0.6116245781366891 0.16799739347285342 -0.6611613045498014 0.21991906722544627
0.3287 -0.0744496110915714 0.9281712895147274 -0.0032418549927529525 -0.004449897443160502 0.06875155303010347 -0.2028535466884518 -0.6796251340288478 0.28870251236315064
0.34111875 -0.02191771223861799 0.9183481073470502 -0.0007604973456351842 -0.006575142198173087 -0.15444482064951176 -0.0958356654998798 -0.5493595804220879 0.3624293887398844
0.3535375 0.04097635950958778 0.9169926449710576 -0.0032380630108592356 -0.004002020988678636 0.4604655548582092 -0.032469017337228984 -0.602019258443125 0.26381773726630714
0.36595625 0.08966520792781174 0.89474938646003 -0.004968001468852172 -0.00469390095607253 0.08931734948244056 -0.0709915617114095 -0.5333880477644507 0.30427772892136495
0.378375 0.149789051122754 0.8895149405953451 -0.004514788429395699 -0.0024505330786145705 -0.3026218021750281 0.08259284083242957 -0.6328240703615989 0.4494390116241271
0.39079375 0.1971646849009125 0.8730013869526666 -0.006934595383662299 -0.0011886611922568486 -0.19499433468422286 0.019285807364515194 -0.5374493674853709 0.5093244694702973
0.4032125 0.23721067821810798 0.8610503589989262 -0.007180389733520706 -0.0013247312622756602 -0.1824690360560348 0.08758364507561205 -0.5378269053716435 0.49852378632783445
0.41563125 0.2764618963667267 0.8522459348933928 -0.008025611445261024 0.0009277077594004778 0.052021187394792376 -0.3264320099956166 -0.3966394761178225 0.6069592091457212
0.42805 0.3436931202014302 0.8233903059583472 -0.006786725398005104 0.001439661650339763 -0.02548322094086706 0.11326518427610732 -0.4321329503746651 0.6285737148295113
0.44046875 0.3755232899599453 0.8250538683535252 -0.006057127899976193 0.0033661635013497878 0.11426417147994233 0.0198658373534753 -0.3408715408673817 0.6700140830038047
0.4528875 0.43007458324882825 0.7923564750763292 -0.005270295879441721 0.005250212689506214 0.013032313759358446 0.02735640500281532 -0.34210637048165643 0.6586047508433346
0.46530625 0.47716975827179753 0.7698069563553063 -0.005095582638788701 0.006494624175926841 0.19080152889609575 -0.02965519732887005 -0.3287372680629358 0.6347703486305737
0.477725 0.510842326596799 0.7150911756463239 -0.0019307009513393784 0.0066475461661745896 -0.1365216940826009 0.1275523759951972 -0.28308943753044014 0.7498237239380782
0.49014375 0.5494313174721132 0.7146699152236676 -0.001056160755014176 0.006438029401598781 0.031653786433132075 -0.3082391922280435 -0.2552672555833249 0.6668958181142235
0.5025625 0.5925847463739969 0.6709926073758697 0.001258831264693869 0.007013298123837317 -0.0918497149500252 -0.07709240648681168 -0.225782577187528 0.6986128869652664
0.51498125 0.6010202425056013 0.6563475465718303 0.0025114602404482413 0.006639814453645056 -0.10355684163764087 -0.0832060566863891 -0.14409976508012873 0.6961182413732592
0.5274 0.642281531510535 0.6084214374683715 0.0030012252829825434 0.004518610599888345 0.13814007316119797 0.05580673480762436 -0.09373264955149684 0.7191676487677212
0.53981875 0.6715554610436436 0.5716253433173846 0.00525059475370421 0.004802400813638284 0.23958952215550727 0.42846858433491 -0.022019207022970496 0.6988414261327855
0.5522375 0.7048970493194879 0.5447142390031049 0.006188417779834838 0.0027005889359868465 -0.19277658780831614 -0.06835452916900676 0.058098917765278306 0.7533171070084562
0.56465625 0.7210845535817237 0.48974677497867336 0.006696644083248484 0.0034520316278883537 0.17007051665325904 0.03714605248616009 0.12470676342205438 0.7780947692091706
0.577075 0.7473134844541297 0.45372497629464936 0.007228663763230819 0.0012214457136156005 -0.12368217552024809 -0.026236583106697058 0.1494697368879575 0.8439833137179253
0.58949375 0.7728729811664647 0.40977867231669857 0.005360528780639829 0.0008597046706562894 0.10299352009277245 0.11740930270468806 0.14353005870020816 0.7397443563284744
0.6019125 0.8172727953927085 0.3762444493203598 0.006347031828290807 -0.0020464998046963627 0.06230898653443605 -0.15206673457180042 0.2645148151090277 0.785033697556284
0.61433125 0.8166864044631262 0.33232914460791346 0.006192286845192521 -0.003078536162098849 -0.0982033740096386 -0.018699991136359517 0.23109766109081276 0.6939784695626937
0.62675 0.8360488537401314 0.28972492589191623 0.006420234518090964 -0.0018883174313610866 0.05225967214227005 0.04490889334934431 0.30413456622419816 0.7154110129989928
0.63916875 0.8571173562520811 0.2396280258921318 0.005839277310207396 -0.0049453637284322585 0.18070656104356475 0.08179542061235785 0.28605453494411015 0.7508533394553778
0.6515875 0.8602043342527795 0.19467519327671465 0.005618836450561576 -0.0049218298492819884 0.11911348632037654 -0.10089975896671786 0.36121165707760716 0.637577068034284
0.66400625 0.8671808930644501 0.1486057152072491 0.0033600283781006755 -0.005250065016152427 0.01644487174916023 -0.03527869950155796 0.4136449488688765 0.6796790539739438
0.676425 0.8718606898953667 0.09178274108183336 0.004040141507076553 -0.005385473601723946 -0.007797588662305703 0.10690135554547578 0.46506105869967945 0.634989243595242
0.68884375 0.8772380801671555 0.05106579520120399 0.003015916250958706 -0.00858919594917353 -0.18421252843781466 -0.07935231524605445 0.5023060538193288 0.5617447927058291
0.7012625 0.8800658449115646 0.00035859485842148825 0.0008663217061685379 -0.006210274639116497 0.07179297196288478 -0.029409856017567484 0.5059214449782506 0.5442428192273222
0.71368125 0.8701153211504952 -0.03996646378207614 0.0015084739525221078 -0.00628135960081116 -0.00014323818736492372 -0.03751727417199772 0.5242841798849716 0.48318700778186774
0.7261 0.8707750827724007 -0.08525812233782545 -0.0005811796221104744 -0.009183632085098113 0.12102150095454149 -0.08211110743292457 0.600640016407765 0.5094994709491923
0.73851875 0.8407325406031347 -0.1419428096310169 -0.000614546959755216 -0.007947083935534869 -0.12057310802985882 0.03697078948184159 0.571716259324396 0.5073077375311534
0.7509375 0.851100098809033 -0.17556158520133489 -0.004014949072257117 -0.00910781659409503 0.020632349213370888 -0.043325013832986085 0.6231120787632122 0.4138354845467928
0.76335625 0.8300125759833235 -0.21868292107922882 -0.004597822954356539 -0.010030950327104016 0.014189817906519804 -0.01543257801681073 0.625236392831652 0.406154479101004
0.775775 0.8051057142428003 -0.2726080793142524 -0.0061193579063275536 -0.008161107095590186 -0.0825501257798862 0.013582833698812805 0.7238235699437581 0.35143020291492316
0.78819375 0.7972777085603768 -0.3031497633658373 -0.007078390503262372 -0.005125077021274065 0.096917304599503 -0.12119592991754663 0.7270884301655345 0.3179021388148017
0.8006125 0.7736479007172835 -0.3406808242218084 -0.007016688216919976 -0.004231693082722221 0.08601906873801338 -0.017741382853833098 0.6861012994593857 0.25123124960894
0.81303125 0.7583971513439309 -0.38425961524324675 -0.007841067323386158 -0.001972040722244972 -0.00911774160983111 0.07887769685798653 0.7291095511670441 0.24593428782639937
0.82545 0.7281470654464706 -0.4141311515484788 -0.003294909562765835 -0.001395955781636869 -0.008101148815688302 -0.0730959980176134 0.7097504953041248 0.20158802393232184
0.83786875 0.7172978805608899 -0.44787754426646603 -0.006010952713703654 0.0006326052708268701 0.016556325744249194 -0.04718255252680579 0.7280341553033012 0.14203711834190788
0.8502875 0.6974182531910047 -0.4967823943197211 -0.0036100804631822962 0.0007678607938078924 -0.07165935272594787 -0.000713308636805849 0.7979538247126333 0.09929165207395857
0.86270625 0.647684545212887 -0.5236443348605984 -0.0013137086961051564 -6.57953599591503e-05 -0.039907910170963345 0.0029930296424756603 0.7713501395292688 0.0430849441860116
0.875125 0.6290018938991419 -0.5564556431757799 0.000532085954282304 -0.001311549517917011 -0.02225301239792493 -0.03517847870502075 0.7460012319099575 0.027852461249061086
0.88754375 0.6015683822885781 -0.574620191673624 0.0030805479870463864 -0.0005873357902431524 0.017603473841394622 -0.1069401900724107 0.7161554805716233 -0.011484460750713993
0.8999625 0.570002773181833 -0.6292028133780463 0.004533763655967052 -0.004806055727917919 0.17112247331926933 0.035011215559934104 0.726269067923559 -0.07381924638742039
0.91238125 0.5203223200428324 -0.6481271140146674 0.004639707503429174 -0.005336270675017025 0.05636000581115833 0.03345268999010969 0.74152205028228 -0.08987060393788325
0.9248 0.49936913593552895 -0.6668851982989075 0.0057889686283533704 -0.007842894604833055 0.09177909158087137 0.13863227623562255 0.7489916357902167 -0.16719295596378497
0.93721875 0.47992125067161717 -0.6942263248971465 0.005422390945593123 -0.011222221020458934 -0.007723944373510262 0.012180898813099047 0.7157716271596879 -0.22007457969934974
0.9496375 0.42521708184001017 -0.7176175208088652 0.005706500670304223 -0.015284962931041259 -0.04128787483183653 -0.05876032759955075 0.7275526139220044 -0.23705441687179882
0.96205625 0.3947774812456822 -0.7383345406981161 -0.00025767297306339345 -0.015681057219919435 0.025837375475178594 -0.006254728026614759 0.6907924044563584 -0.25702938296054234
0.974475 0.3488761433213869 -0.7493674289787055 1.3957212446628356e-05 -0.018610949051088763 -0.007377938226590516 0.0640563363850124 0.6922701064729522 -0.2889481005352508
0.98689375 0.30129237083557037 -0.7813883914452239 -0.0006316883609370023 -0.02164205110554595 0.004549691006628644 -0.049182711843982596 0.6454199253975172 -0.3245186830854278
0.9993125 0.2623722634270089 -0.7711959950999692 -0.003799654627112526 -0.024653214751772356 -0.056461888188787196 0.0367763320977915 0.6519468354206877 -0.3836818616907689
1.01173125 0.22641120925096325 -0.7839385812302851 -0.0035478904429244095 -0.025871371915893903 -0.07173583162011772 0.006010035705585504 0.6122253406046522 -0.38988387326543944
1.02415 0.18770272710625316 -0.8125243522338454 -0.008295712877490506 -0.028708845836375108 -0.05053861637743312 0.02657205757142551 0.6185105311751625 -0.42425287285288765
1.03656875 0.14538988158801658 -0.8128753747550196 -0.010953646647098457 -0.03184696219244358 0.04853713479408105 0.05964263588728274 0.5792580982298179 -0.4840062425051933
1.0489875 0.09214965217692014 -0.8122332704800556 -0.013498898471939906 -0.03103955384941358 -0.034563611876112545 -0.011822186806580282 0.5161503304657774 -0.4680678403002865
1.06140625 0.05941186593033097 -0.8168118774923222 -0.01649929899744006 -0.03482952744538536 -0.023054507186024233 0.005253064525259558 0.5308392968402398 -0.5432149907332852
1.073825 0.010193825443643278 -0.830625927247971 -0.019916676204826973 -0.03641508714031221 -0.060461529092973344 0.12093652006795562 0.483319529212648 -0.5483615725189702
1.08624375 -0.022834714356071727 -0.8166974366612237 -0.023238975664196394 -0.041971448197928016 0.08526424130106823 0.05040473380655559 0.4578173224333308 -0.5800468072436642
1.0986625 -0.07513257447972976 -0.8134014464482916 -0.03099950565429833 -0.04521013197182323 0.031542527969989326 0.003704005594444815 0.4365993994315023 -0.607303983620663
1.11108125 -0.11977748150318446 -0.7977290813258922 -0.038936622233503054 -0.04566452421930928 0.015163749952771451 -0.06594803042466257 0.3564915359330582 -0.6170727643480436
1.1235 -0.17311267676049952 -0.7910638554595958 -0.045142083045483554 -0.04367654785311355 -0.04597827128015564 0.07330230559432505 0.344446497940752 -0.6446783527037907
1.13591875 -0.1821716072931918 -0.7829809306853249 -0.047920985899694346 -0.04771234600413001 -0.051199452071519456 -0.06505559648417139 0.3423917791417823 -0.6445282036154905
1.1483375 -0.23381438735375545 -0.7557334943684547 -0.054972386518757105 -0.048675562328330015 -0.014960830718796666 -0.041687236754561194 0.28925096014591734 -0.6462266975417373
1.16075625 -0.2653907514941855 -0.753519501563503 -0.06899336356520445 -0.05289564422635507 0.020498766320920077 -0.030810267847986902 0.2569669150429304 -0.6514366417335665
1.173175 -0.31093077365419935 -0.7449011045113482 -0.0794562382766977 -0.05397306676254947 0.04309815533180345 0.054299487965355074 0.24326940804448746 -0.66597455882883
1.18559375 -0.3433278949902848 -0.7162798006276193 -0.09380050524831803 -0.051827396116571584 -0.0064257564684066315 0.02250769823653 0.16822255354340063 -0.6597378559779672
1.1980125 -0.3802641302345293 -0.690448523908165 -0.1031361192766694 -0.04502892076860454 -0.08477697493196154 -0.08936069089897647 0.17974727412350722 -0.6825389699681296
1.21043125 -0.41774900118759456 -0.6802461526952019 -0.11578987241652304 -0.04415797227053544 0.07797878210021258 -0.021306583261019408 0.1418242140137142 -0.7074512335066702
1.22285 -0.45378796532752147 -0.6609411002098866 -0.13265299307851822 -0.041189849197427714 0.014909698820604037 0.01754887332449502 0.07677950392254822 -0.6846732532389952
1.23526875 -0.4814544376332462 -0.6304642303950723 -0.15014594876443477 -0.030313085356817916 -0.10240183643585778 -0.017653359672313174 0.052262468193598276 -0.688663064801257
1.2476875 -0.4968257652460848 -0.5902935531757214 -0.16394073535744846 -0.026928963853221997 0.06319562855146982 -0.12471075528926785 0.029566283448878926 -0.7001817004643167
1.26010625 -0.5287288008380957 -0.5648266426121389 -0.18148483914622876 -0.017899683038901253 -0.012235498823274332 0.00827238163930972 -0.015620071432621811 -0.6757228069096838
1.272525 -0.5750974331708404 -0.5383431893355066 -0.19904083038487094 -0.0031756474390276022 0.034567568020294495 -0.031291604889199125 -0.040725134167535884 -0.707813751944095
1.28494375 -0.5780147837997351 -0.5048176549176525 -0.2264120016807684 0.011865750211117156 -0.038823589873717965 -0.020860667323379857 -0.09582779309896318 -0.6708945911499595
1.2973625 -0.6049362777051812 -0.46654732397611415 -0.24376662073224706 0.04192098697443302 0.02966443162482524 -0.0008769470018219584 -0.1264057228335366 -0.6553087504798345
1.30978125 -0.6432492864842139 -0.44364440692937357 -0.2615725200486552 0.074156262070508 0.03006216839783191 -0.03164217152036243 -0.13470990688258372 -0.6897579651704618
1.3222 -0.6602018618686676 -0.3977928087941742 -0.27501939790623786 0.09958956473394141 0.054099871612773485 0.049930803173190534 -0.20491289978337995 -0.6736881084302767
1.33461875 -0.6633152085875308 -0.36284888374097335 -0.28548530786865545 0.1347863972623992 0.045764077183516154 -0.011488176400884061 -0.22445079876432508 -0.6682378706740566
1.3470375 -0.6841566812848794 -0.3290785631627807 -0.29546237060580044 0.1708002132070588 -0.03309105209130367 -0.03374725673620304 -0.28076880595897385 -0.5816885366800495
1.35945625 -0.701167787612052 -0.2988700254327267 -0.3101665106561587 0.21317153676988224 -0.01641679232296311 -0.03429208363959886 -0.24867581718144163 -0.5501357495167782
1.371875 -0.7012462400828574 -0.24853955446068585 -0.3099449566057328 0.2597148121258098 0.002753336382345543 0.04620557526116029 -0.30332978961782164 -0.5585731573427597
1.38429375 -0.7106971794547282 -0.21505862408119716 -0.3144443108012921 0.32252205558108654 -0.002309829995551654 0.045437314103032984 -0.3490665142745553 -0.5911218975093662
1.3967125 -0.7221854983220447 -0.1744232252222496 -0.2886268181832621 0.39016801056655936 0.03552317813348667 -0.04483416463136948 -0.36313139701107566 -0.5378106154360542
1.40913125 -0.7236849199924984 -0.13453538058379438 -0.25994312166661887 0.4517270538682744 -0.02123106299945118 -0.07313735130980178 -0.4014819776032744 -0.5158278740585809
1.42155 -0.723891646969315 -0.10334731302034013 -0.22817693671529823 0.495487033186638 -0.04724025990826297 0.011436804049264618 -0.4285439296232483 -0.4694697326356689
1.43396875 -0.728444663866471 -0.06413101524752883 -0.184356539791445 0.5457849429379595 0.024428812109205365 0.015183306712642085 -0.4320107400934768 -0.4693969176478586
1.4463875 -0.7334793345159306 -0.030922233501859884 -0.13649191366268992 0.6053160145525169 0.03899554390490138 0.05265814637219421 -0.4674127408755733 -0.4070996079491253
1.45880625 -0.7298199720193834 0.022397623925909514 -0.07658613470228104 0.6539473817364713 -0.016709928652385152 -0.0035422804645706355 -0.47566360643587435 -0.44150653605755064
1.471225 -0.714648151781549 0.05545970758110572 -0.0011398990169387384 0.6966543408595894 -0.020939894711595814 0.04096558612923061 -0.49013424598519045 -0.4121833968557278
1.48364375 -0.7103118408146217 0.08485673258154046 0.08299922905236418 0.7396816502493688 -0.10101478840045723 -0.03836561412518166 -0.5140604606643979 -0.3199550059291975
1.4960625 -0.7049873489157262 0.1278796032139125 0.1817220323019399 0.7494941829380458 -0.02768352873646581 0.006180868159662187 -0.493230562278661 -0.32136048430267733
1.50848125 -0.7035436474870509 0.15939737211786542 0.25794226295387923 0.7484556056956599 0.01833491691634503 -0.006088943036974607 -0.526854451738744 -0.3257294579074403
1.5209 -0.676270164758582 0.18784426081698305 0.3505865808079478 0.7517015436760275 -0.06177621403843526 0.022522867923781324 -0.568114521620373 -0.3003847208004845
1.53331875 -0.6650822272345587 0.2163991368971909 0.45069478002771063 0.7370452110937306 -0.02328653101441226 -0.0031917988563759385 -0.518185750310336 -0.256068184089018
