!Created with skrf (http://scikit-rf.org).
# GHz S RI R 50.0 
!freq ReS11 ImS11 ReS21 ImS21 ReS12 ImS12 ReS22 ImS22
0.13 0.8416586156046977 -0.3656736389546218 0.009380185728629994 -0.005414800106088988 1.0239624310365412 1.9666861478009965 1.9896293351316514 0.12754664250131886
0.14241875 0.8677123775463081 -0.5159543170355653 0.007666602909078494 0.006985345385600385 -0.013078759872736174 0.19646456499416665 2.2286317624632237 -1.6832091502785858
0.1548375 0.872510115516535 -0.49046711530860043 -0.002833776878035346 -0.0039494105188248255 -0.8010226612908294 0.5072420060623881 0.10990084200981656 -1.2463847932537337
0.16725625 0.831541006056582 -0.5399284463577163 0.001655348312476993 0.0021162202735036328 -0.9757049189998174 -0.01743024054962645 1.757950898789954 -0.45295913872661453
0.179675 0.826232094810128 -0.5640879366130712 -0.005962001892540341 0.0028667149757513064 5.3157274702218835 2.9108881610946042 1.7717869506289075 -0.24669918881019773
0.19209375 0.7832286974838252 -0.636548163177655 0.014447064693306286 0.004850902244947695 0.8190559781574216 0.08261209439392839 1.0660555082664647 -0.9509034757443224
0.2045125 0.727703552838806 -0.6373893914015353 -0.007555893465605157 -0.005388012116197843 1.623637077103089 -0.3020255130385831 0.5230795945334542 -0.7192867697125561
0.21693125 0.7221033763765109 -0.6647717084196308 -0.002215154243855082 -0.006857290463685987 0.08058917116006382 0.41115220014173315 0.7570358337330276 -1.1154487253497973
0.22935 0.7167437449367836 -0.6964611069528756 -0.0008064491197605713 -0.0003717781364739758 -0.39149576470053365 -0.3756974602238033 1.1988521497148965 -0.7046924249266281
0.24176875 0.6120207862808021 -0.6826605368498371 0.0009625491339795544 0.003180122432460528 -0.6843193906739188 0.06212741439223752 0.7665407807691101 -0.4410482700191378
0.2541875 0.6490495380236546 -0.7103524193735314 -0.003679545649339329 0.002510456997819385 1.0553869430638183 -0.4869108856501447 1.0188775238096357 -0.9874822448878973
0.26660625 0.5895736490981572 -0.8007521304349862 0.009383801719695288 -0.008455586529321078 -0.030190176606922737 -0.10143762710693191 0.35748861402395665 -0.8474866202757385
0.279025 0.5806677705321193 -0.7985334980149056 0.005219223732896465 -0.0033810623428136145 -1.8192395678565976 -0.35671453063189945 0.1292041648131882 -0.986078156396005
0.29144375 0.5467251960097912 -0.8299400340819149 0.003698788179677062 -0.002051837905075708 -0.369138192906952 -0.08958102753822951 -0.4241608425370442 -0.9375027982461468
0.3038625 0.5120917251211942 -0.8592149940015269 0.0021832460068630616 0.01230330850755506 -0.0818750829063049 -0.07434971653475779 0.2669078615786752 -0.5814684389701593
0.31628125 0.4675396094908157 -0.8985839133071266 0.0053496771144312845 -0.0006805417233853748 -0.09786783350097869 0.1569544310553245 0.4925574873793233 -0.9348826237574119
0.3287 0.40358592060676235 -0.8987075683543151 0.013689154352409274 -0.0007386519643653068 -0.29455550474395126 -0.09062589852258572 0.15532722278179983 -1.0170155241866987
0.34111875 0.3730615656679682 -0.9134828979060285 0.0067015809849524845 -0.007923344614561552 -0.36337211917935736 -0.5979910870933576 0.2660741507959595 -0.8444816197790226
0.3535375 0.3268211755632572 -0.9083247490631869 -0.007264136488041796 -0.003894230685003992 -0.40516406955491596 0.4677599704458167 -0.11636833572212196 -0.7746641745683369
0.36595625 0.29626720219362607 -0.9692826994672041 -0.010048380706044361 0.002563634904874432 -0.09696636189697089 0.2441112843598516 -0.1090561990980509 -0.9086707337550837
0.378375 0.2578127848326785 -0.9520376768504673 0.0026071039456503882 0.0021075149316359277 -0.009430418973220776 -0.11311771403012628 0.10170558287389829 -1.2582864664682143
0.39079375 0.204940324273415 -0.9463870345790307 0.0010467096201303226 0.006772938528543298 -0.19252572944345328 0.36048583468117046 0.03503559645873625 -0.7769203886642365
0.4032125 0.17339585800872717 -0.9641462391851936 -0.0067267099752425785 -0.002761611108127202 -0.08112122704313549 0.18415762447688516 -0.3120250441105376 -0.8415379155145556
0.41563125 0.12894702613481462 -0.9872505668383107 0.00031916265966638364 0.011700569547012213 -0.07972817482123724 -0.06923033637027119 -0.0877270754351333 -0.8606221346351419
0.42805 0.10484689177477037 -0.9776704677725604 -0.00140341851927124 -0.002734057401494961 0.23492314361546104 -0.03847137354381599 -0.49359261886345507 -0.8565450646886379
0.44046875 0.03825742787837965 -0.9686661934019556 0.0015438732609956262 0.01354219305501971 0.11136543196112898 0.24135386778959494 -0.55650091343308 -1.1830852091903798
0.4528875 0.020818425271796785 -0.9661758826912542 -0.0007603279240114313 0.006550200402313152 -0.13443861064688595 0.032799790691572815 -0.18981655519639598 -1.15361645839312
0.46530625 -0.041122976026453345 -0.9882499917491979 -0.01628442488602186 0.002490503726123505 0.14834587965064888 0.0015111910984578712 -0.6478516442559739 -0.5003498777518391
0.477725 -0.07091975374784196 -1.0132070422869004 0.007116508555134679 -0.01359027614438566 -0.20185762462044846 0.14737425766401685 -0.09594831562005457 -0.8340377319587682
0.49014375 -0.1062003291095451 -0.9795810592610292 0.004132880507168799 -0.005753332619518065 -0.1936389297617085 0.05503962696771004 -0.44640666826707115 -0.808325596335739
0.5025625 -0.14605547670216032 -0.957182612525953 0.0045343043913475 -0.003352100174955487 -0.038094039110914406 0.11762328460089452 -0.6483186664099176 -0.7370327976662567
0.51498125 -0.17840753626927242 -0.9567751191995674 -0.005745593860715722 -0.013298173244677419 0.09797947997271063 -0.029371954433815864 -0.5504155310117333 -0.8371561998292484
0.5274 -0.21925594189313719 -0.9571417943436298 -0.005074546068545442 -0.013637643443578151 -0.04248721080313304 -0.18272462902850473 -0.2506988462511148 -0.9734863571773399
0.53981875 -0.2650466940323981 -0.9373380929895849 0.0010159339728994083 0.003424590781361436 0.1391293660352707 -0.22688221869791633 -0.5565043280376674 -1.0686790635951262
0.5522375 -0.311761741688748 -0.9258800951532783 0.008164929993916603 -0.008326842796583113 -0.02770086310992489 0.15253440619257705 -0.6628393514669194 -1.2604759626986195
0.56465625 -0.36081398334207754 -0.9132397560113187 0.004138290902924863 -0.0009920238785116075 0.2237600978069944 -0.009659722888633341 -0.28433048511735215 -0.6283282570396488
0.577075 -0.40568522674549706 -0.8881082247483495 0.004012360701277757 -0.013565878074158105 -0.09165713608837282 0.018921332740829043 -0.5312796067892233 -0.9226712561032994
0.58949375 -0.43646178321692314 -0.8791562600614451 0.002911968033067189 0.01154504800551119 -0.131528455135432 -0.02346949603044084 -0.9522199657391205 -0.8380652020482504
0.6019125 -0.44812066769083925 -0.8559814631524207 0.009826236570618119 -0.0009490326157570598 -0.06248380809580064 0.050387137144297475 -0.5348366336402333 -0.2714114725777051
0.61433125 -0.5001618247661538 -0.8382234817331173 0.017264873299152994 -0.0006408754745920075 0.019039584139149628 0.024888320970790925 -0.4830352107063919 -0.36419970983058947
0.62675 -0.5135132020892147 -0.7817259086210672 0.011646471585817646 0.0007718481147695685 0.018690676100950338 0.13825341946385972 -0.8484080225442961 -0.39042032792367387
0.63916875 -0.5646963280932569 -0.7716921495905855 -0.002310902065602835 -0.0072807527213178055 0.07869299768766606 0.012191659007915322 -0.7139436354490295 -0.39421967869816177
0.6515875 -0.6021448431575179 -0.7435869546374637 0.004102983519833514 0.0015852667470896643 -0.04113521044501585 0.013570577265792633 -0.9120322637515724 -0.35796678870425025
0.66400625 -0.6077564537680803 -0.7333881049227525 0.0008913292034131822 -0.005071151360544957 0.0802043033005495 -0.037022770153207846 -0.7512050484936604 -0.16353168880681968
0.676425 -0.6548575642394521 -0.6895107878503008 0.0024075202912638 -0.002802554301676896 0.05870088798449887 0.09291591990137296 -0.7730254467064862 -0.48025973384556325
0.68884375 -0.666089004806726 -0.6518912331898745 -0.003975642763438828 0.009838129967055034 0.07966769440716173 -0.10071858401369167 -0.707277203241451 -0.47987600519044676
0.7012625 -0.7047283040589212 -0.6560926793698444 -0.00328651231170137 -0.0004760640660272729 -0.19830101712488502 0.009416677760016957 -0.616188609533987 -0.4875374766678686
0.71368125 -0.7347050818980194 -0.625075774973584 0.0017399404644277898 -0.013507823201849987 0.059482439048175524 -0.0088731271220872 -0.9882845398795647 -0.36322016589349454
0.7261 -0.7653134461059964 -0.5713241301149568 0.010631794726631309 -0.0027130598578419636 -0.012656678508437443 -0.013888189169373932 -0.7352277629729431 -0.261825422784981
0.73851875 -0.7944717697614674 -0.5574259729892571 0.0053464477243923714 -0.009357304778472728 -0.04684339754081245 -0.012442180547216533 -1.0552425868465314 -0.2259535241717329
0.7509375 -0.8068676818403098 -0.4982404500859741 0.0003263517488944959 -0.009765418535425962 0.15005818894121412 0.09387348582932022 -0.8106297163125482 0.0037581312772507606
0.76335625 -0.8263085888603465 -0.4844592318112011 0.00532816182441634 0.0028393273838157036 -0.02723423642529183 -0.06258777458689474 -0.8360157987454855 -0.2635947688281478
0.775775 -0.8267687387598477 -0.44264206796411926 -0.009403339713280733 0.008945393241698381 0.024399981568019348 0.004787129250815289 -0.762449280168971 0.05875093820542704
0.78819375 -0.857223203032578 -0.407870605781047 -0.0013566230979353386 0.02591972204613503 -0.09261951375129403 0.09698960190105956 -0.7174033293281122 0.09544328107750256
0.8006125 -0.8727613354111887 -0.3736997920507635 0.01167975107345454 -0.010363219787533785 0.042899352114691564 0.03543724206709538 -0.8274036302325571 0.27734727479675547
0.81303125 -0.8946685707087758 -0.34511175042731945 0.012142323977276616 0.00807915923651705 0.039222542868831554 -0.008833702685611587 -0.6438724943808675 0.0958683965135941
0.82545 -0.8831370414734169 -0.2932189714221465 0.005229826897992214 0.027888544567521954 0.05742681290566286 -0.06414297484768845 -0.9842997431298114 -0.05979821600053952
0.83786875 -0.9050866617003968 -0.2553940718642059 -0.012823180673863115 0.00010141453583612357 0.06213158998752732 -0.011890432729685459 -0.8095413830506958 -0.006843976162604704
0.8502875 -0.9053930763289179 -0.21579942684348868 -0.010883026124467872 0.0041520832647141855 -0.02836066527274534 -0.049207299745861376 -0.8712416366907041 0.13348892007571714
0.86270625 -0.9194207891869538 -0.17377829917640195 0.007531449635497346 -0.005099848740395273 -0.08338927434142188 -0.11957741295545149 -0.8108571403569391 0.415941582767812
0.875125 -0.9291828370780184 -0.14794746044576826 -0.004295073960750041 -0.0002527060840117628 -0.1063382017320466 0.09746768698675137 -0.8166263212981809 0.3396935936917759
0.88754375 -0.9257145203076204 -0.09436223434905452 0.004498045520693854 0.009904038042797873 -0.022542368639778716 0.042845995334099565 -0.8990636793247772 0.22220957066766073
0.8999625 -0.9377095477536729 -0.059663219392703574 0.001557203997767107 -0.003931168914381234 0.02065254103552859 0.0018662906413284424 -0.7294472910244533 0.26122482939289093
0.91238125 -0.9381978642417044 -0.017144110964566417 0.006923102645816648 0.0008249076978005515 0.01369709777754478 0.10409462654071942 -0.5829167369514356 0.6051122674681831
0.9248 -0.9421816478590639 0.02222944944653156 0.011310330280754573 0.005330763653868766 -0.05918599347359272 -0.08230917210169643 -0.8408393890940772 0.5086664703763287
0.93721875 -0.9441526262001911 0.05529204359806422 -0.009955200103541709 -0.008725674498518809 -0.03195999399310324 0.06968865144050784 -0.6511434638141224 0.5202663319835931
0.9496375 -0.929090650770037 0.09906051573413287 -0.00039969594314324 0.009749328985472148 0.09589280733774465 0.10389956171075376 -0.7037603797291674 0.5439891491525929
0.96205625 -0.9255546718458402 0.14271488530681875 -0.004812789371808397 4.0031706487831836e-05 0.04368099241658698 -0.06114145115849498 -0.6846567217199864 0.4253586429136855
0.974475 -0.9191799191855947 0.16958221207919352 0.0021199545816399015 0.006937442111389085 -0.030735812940834443 0.0673583797735446 -0.5241399604760016 0.3778695814935798
0.98689375 -0.9014082465067802 0.20629482479606875 -0.00024250488828327557 -0.0008847420136746572 -0.049827746275630094 -0.0587288827776717 -0.5287006610270963 0.642971189436293
0.9993125 -0.890936070036003 0.24420265884544148 0.008414828339018465 -0.009787458825647143 -0.05926068231770874 0.023222143181247247 -0.5432925308721044 0.44960042411831824
1.01173125 -0.8772288501037347 0.2923201153832985 -0.011937251388693422 -0.014368918490121244 -0.0250488292758853 0.010263698832288577 -0.46160692995463026 0.7312712422336982
1.02415 -0.8602940772708156 0.31139557351731545 0.00941169209911677 -0.001989705193036998 -0.014840168114110859 0.01645007385486846 -0.7093286510378887 0.5713666499082988
1.03656875 -0.861726042967669 0.3524042739262664 -0.010230602868820089 -0.0019336704009759631 -0.03991008993328182 0.019297319636163882 -0.5368295285952123 0.39373225940971607
1.0489875 -0.8273815307702871 0.3792416142174788 0.0018285486622719104 -0.01511376774024991 0.009632717186252566 0.014559917515725457 -0.48992901858935534 0.6553486427286896
1.06140625 -0.8155780124557098 0.4264022016544288 0.010667812807560767 0.007011816769001157 0.07650993880994716 0.014238961950525836 -0.40960172948602014 0.7926339147406771
1.073825 -0.7927617550978611 0.44425195488143754 0.008373526280372892 -0.008719091350571318 0.06440777905432286 -0.013046188165892992 -0.42140623265987487 0.27350104997185176
1.08624375 -0.7739791647810328 0.4849575551200561 -0.015494895025068445 -0.013226584325268003 -0.08017766166281946 0.09155093614164546 -0.28937129747740575 0.7073176666750456
1.0986625 -0.7496276395954053 0.5092073764936955 -0.010302974776540103 -0.001549844933622362 -0.04924867196857505 0.016950166613638504 -0.15625951916117622 0.7525331754391307
1.11108125 -0.7273151081975956 0.5417229752541035 -0.0034430003116825143 -0.00044850441137980664 -0.06638169953803526 0.013194731731909506 -0.12810333762847714 0.5533273015946163
1.1235 -0.697488240402832 0.5597934959663705 0.006169664454041226 0.0054356289110141145 -0.03323063275093233 -0.007148678865107678 -0.35061821825392187 0.573384672150808
1.13591875 -0.6730253500266314 0.5992158407709309 0.0034534944197048244 -0.011854419090122751 0.0188048185957193 -0.010443382639882313 -0.20339138002535412 0.46733243678478764
1.1483375 -0.6470235936765147 0.6297868430994069 0.013088619510058283 -0.0035816721943582827 0.015260010119831814 -0.012709226660063492 -0.2667581189184266 0.6288002896425139
1.16075625 -0.6178343635781556 0.6510615730542721 -0.0028633768812833184 -0.0005379680517897903 0.005005893332723652 0.024630536770529617 -0.06978957245804046 0.6254211815606833
1.173175 -0.5889725754312957 0.6762307808886181 -0.009871631468271013 0.0013215411064037958 0.02094036765982038 0.04972783208298318 -0.27207670248558197 0.7211004085257531
1.18559375 -0.5585917208287247 0.6965743881565158 0.010490037107520833 -0.0041691502932998375 0.02986733579080318 0.0706978184264884 -0.05216963314301051 0.694974574350983
1.1980125 -0.5395428073513134 0.7164038892495633 -0.005055752208260316 0.0035246873717235143 -0.024404681946572342 -0.11004690024097258 -0.15824348581542064 0.6641161217659093
1.21043125 -0.5084619711906438 0.7325182834641804 0.006915595282227979 -0.0059081073686393405 0.06486679486817862 0.03236900438560668 -0.22593250867659959 0.7409789694667129
1.22285 -0.4595418229916808 0.7537051556180766 0.0049918680802172365 0.00021597841638336615 -0.03785793956977874 0.017010309977768485 0.03533795165915059 0.7594627273857484
1.23526875 -0.4410590404835664 0.7774653548505494 0.01567381592361245 0.016358563150329544 -0.0045914007011659454 0.026482330818172806 0.26587717174865494 0.8732636919424253
1.2476875 -0.3953861151840458 0.8038350140999405 0.022248944946843027 0.006604877427901293 -0.010369878086946704 -0.012716850769063103 0.17113464227010144 0.6639690028766708
1.26010625 -0.3642848343101565 0.8085351399459739 -0.003670374354864519 -0.011517609123224746 -0.019464281309427157 -0.037640805333760234 0.12715023139562337 0.6579623122934722
1.272525 -0.34124786052575445 0.8238452130120788 0.015268342341845325 0.000450991959813133 -0.006922813333925382 0.02246262660266395 0.14309503281897584 0.5375546812400707
1.28494375 -0.3024840434237033 0.8330113127772587 -0.00046162156843171533 -0.0010033129291191615 0.013860609886609915 0.01856160770805221 0.007375262418461703 0.5723401779094441
1.2973625 -0.2731077449884238 0.8299372027377566 0.009586182774839178 -0.01078251026364035 -0.011192423660667158 -0.042103494347842524 0.09662332974374459 0.6811077947486451
1.30978125 -0.23060638622798574 0.8504221769801602 -0.0037396105582084313 0.0032169274050772674 0.02946421254588007 0.05039277058590885 0.13739901340964208 0.7724517225574554
1.3222 -0.17803047345384865 0.8472194922606268 -0.0014278782190922498 0.005180292358339905 -0.03419529563467533 0.007234328131163379 0.31392020660674674 0.45745793598353757
1.33461875 -0.15463156074583415 0.8645456376833848 -0.02398504896424873 -0.007544482848571152 0.03481037499233294 0.059990703388944404 0.2651622074783272 0.5025760023754967
1.3470375 -0.11926997069990385 0.8571285024022384 -0.01837218671619544 -0.006480570202244962 0.011533141764695255 -0.004164136908386429 0.021880591221320037 0.7161575209248152
1.35945625 -0.09003875715463164 0.8623164397983774 0.0050417774631252976 -0.013131603338789863 -0.02254895239485688 -0.04800558682882566 0.38836656681159365 0.5711038366060267
1.371875 -0.05412973585223551 0.8684930114179142 -0.001741953114213188 0.015006869574552578 0.005494797504252832 0.01798582900010979 0.4789899676362468 0.487889263921048
1.38429375 -0.014838419771935948 0.8670300187777145 -0.0024206855395150395 0.0027549539309511674 -0.08410628565078425 -0.01210117132391005 0.579641229289367 0.4629415408172621
1.3967125 0.020902130087190746 0.8634555386250907 -0.024730661981454762 0.0047197230116488775 0.11227650136822619 0.0640114611910914 0.3365667874867142 0.7817634028290974
1.40913125 0.05887952821584488 0.8675110021775644 0.014821710740332122 0.011521518251017928 -0.0738685706861391 -0.0073567877284505334 0.2707983601172048 0.5102623678900948
1.42155 0.10462960701346344 0.8516597432181163 0.004811367580637725 -0.019598762299477046 -0.03124120615979965 -0.006818824652486693 0.44149473862399746 0.5242991118133099
1.43396875 0.1303916669910873 0.8518026393160629 -0.00962457660314719 -0.005772317421002585 -0.05317830288764701 -0.006073593134079129 0.4520332960183307 0.2925689926286853
1.4463875 0.16159468507380334 0.8442317776730067 -0.0036436699920569574 0.0032979079972667185 0.02685709140631491 -0.03650304734949213 0.45448908110791586 0.4727611790131732
1.45880625 0.18817824353530704 0.8222475803916507 -0.0006102902243756086 -0.00871048857821876 0.012836120037037737 0.0035912447280761527 0.29283766797719274 0.46471613669823314
1.471225 0.2226829927524783 0.8218680121344617 0.0038125676993405575 -0.006178442314636063 0.0016920227443793427 -0.02603283175391693 0.605345749243696 0.45816982566795966
1.48364375 0.2693177280038243 0.8107799410712905 0.002236254263156098 -0.0014349608656786166 -0.07026369750197287 -0.010324739340582277 0.6229976051918331 0.5129178904250584
1.4960625 0.2899156552654538 0.7916630981700725 -0.0037757564340436048 0.00785530790519088 0.0382187274137619 -0.005539456450984848 0.5361444645929018 0.3241662999536498
1.50848125 0.320901900482914 0.7859172119772101 0.018237334379839903 -0.008709448380210651 0.004260102695563823 -0.007397337712763442 0.6163964482280957 0.401219245767454
1.5209 0.35919682596217234 0.774016761288741 -0.008905012597443461 0.008117599272618521 -0.01854798631081878 -0.0247330856173319 0.5664037414051293 0.5226837790994735
1.53331875 0.384634198280797 0.7488189984287078 -0.00019144371217795695 -0.007734075406472636 -0.010683424208691877 -0.05764259879853384 0.45507639623745677 0.22991262530533488
