!Created with skrf (http://scikit-rf.org).
# GHz S RI R 50.0 
!freq ReS11 ImS11 ReS21 ImS21 ReS12 ImS12 ReS22 ImS22
0.13 -0.835544356111665 0.33877517024314163 0.002855006384434976 0.0029007228679095685 1.3206819744630436 -0.8982981761351563 0.2169764638875111 -0.4395691480872578
0.14241875 -0.8485732028614086 0.4210623482679567 0.0018704839840765787 0.0014268827732806378 0.012117578361467572 0.5923748540940447 0.4575075202175742 -0.5533464448761806
0.1548375 -0.782577896485534 0.4927261930189726 0.002748092575502793 -0.0012812285247007288 -0.07774127021221997 0.10771042317100346 0.24198447632448444 -0.5150815338258413
0.16725625 -0.7910424972190594 0.5187844268334849 0.0013133468004062733 -0.001422909892595332 -0.7532016128327748 2.5453147678941463 0.36536987220922273 -0.5088465598667513
0.179675 -0.7834357489874132 0.5033189331226919 0.0002911318621077691 -0.0033276524108921055 1.8743974883194412 0.6601298278083622 0.3364841042769342 -0.6921688421603965
0.19209375 -0.7384798376083084 0.536537008096929 -0.0015334594677672093 0.0002837773839194398 1.1333106384500307 -0.7454639280392328 0.17511447528748855 -0.7963109911007609
0.2045125 -0.717839197824932 0.5806467467095227 0.0003791716020729167 -0.0022696422435971634 -2.0663317641572103 1.1453864001767102 0.1455274113727862 -0.5973668086474014
0.21693125 -0.7126757508534297 0.5896093922619862 -0.0008812975058582956 -0.0012659571453453881 0.826882102261646 -1.1432607159921708 0.31995387069995734 -0.8848805425295013
0.22935 -0.7006875856822534 0.6539378172367611 -0.004241375136387376 -0.003922832403872374 -0.19199392125235507 0.15669107166015495 0.3049587706581043 -0.7382277833252673
0.24176875 -0.697171732232712 0.7211549102837654 -0.0017319875662069743 -0.000342304720101052 -0.15521854029232085 0.08468830873270121 0.0482547276387723 -0.8182500007309352
0.2541875 -0.6073546444786531 0.6908431808364747 0.0007138523926679241 -0.001179381711425981 2.6391034896102097 0.735304400179333 -0.08948612798773434 -0.6446980560688539
0.26660625 -0.6000159139781558 0.7224420069349804 -0.0005919564429122288 0.0031448265854123734 0.26123324722433494 0.2513938012748928 -0.016132963435627593 -0.7169510778933932
0.279025 -0.5669105835096626 0.7079365416564268 -0.0029576907385125395 0.0013865656666102804 0.05028099754687877 1.8250521283694094 0.09464743736836409 -0.782750696566481
0.29144375 -0.5322318119264596 0.7646460308690998 -0.0008851247594117114 -0.001196006920082789 0.16654304017291002 -0.6518516007907365 -0.011912488340476446 -0.5804136547821577
0.3038625 -0.4964807764496481 0.7869932928530383 0.0013661982512364018 -4.035437593835828e-05 0.2561705972122725 0.20979572663445342 -0.06300280950511504 -0.6222765142056104
0.31628125 -0.4634182042683858 0.7600628980633096 0.004010743547432646 0.0006548051513856161 -0.13353836749472323 -0.18356283089289072 -0.21687711501121754 -0.772818741672542
0.3287 -0.4662428910488832 0.8282926685473401 0.00037839592680539714 -0.00046130119061656735 -0.28483111642228515 0.3502698741633825 -0.015703387581798955 -0.6813376138169642
0.34111875 -0.4284884690160959 0.8133457500013259 0.0023251052492619956 -0.0018311666227407704 0.10581377165398795 -0.3267220717055732 -0.048121470465973905 -0.6025125243542958
0.3535375 -0.4017280302222717 0.8586030327922254 0.0029595961166601547 -0.0017452383889818804 -0.07419079768339704 0.09636045647242615 -0.3231794229425129 -0.8142462361557946
0.36595625 -0.3439175577040395 0.8309312851947815 0.0034236484264572485 0.0007595862074816195 -0.23401604367397305 0.1712934541390427 -0.3588935151120518 -0.7452314958918516
0.378375 -0.33327736575287925 0.8518593082125783 0.0020942233638597545 -0.0011036934724989835 -0.04036017451909081 -0.05647693135127889 -0.5262858384112712 -0.7660862709734659
0.39079375 -0.28310327451115047 0.8802786368473273 -0.0015693175205471384 -0.0018958208059491506 0.15093366244158066 0.05383667730428904 -0.379518889089704 -0.688873084604311
0.4032125 -0.24544323551074446 0.8801444741152962 0.0014371564997909803 -0.0005804779610513096 0.20531876599111673 0.15680289590608915 -0.4046664439256041 -0.5212377426405186
0.41563125 -0.2194912122212324 0.8785447975995361 -0.00045857419693948415 -0.0031841297354923215 0.0521091185097628 0.27569729414516336 -0.36963484630368393 -0.4232308511593638
0.42805 -0.1803317107298517 0.887597590623979 -0.0011249577134460694 0.0010104194676616206 -0.0041394840375706815 -0.0486906275212007 -0.5244680623260327 -0.5496641565986494
0.44046875 -0.16196842616822804 0.9066359749295753 0.001508160933677902 0.00044684946699482245 0.016496107178185226 0.012310346297322024 -0.4800504773710453 -0.6024937437507482
0.4528875 -0.10880935452434153 0.9139866292266912 0.0015825715328915862 0.0012122940694972587 0.09657969734551858 -0.0778876015666398 -0.5942092708552197 -0.45646793825419724
0.46530625 -0.05210964723685999 0.9288678372581888 -0.0023486741369550903 0.0030773264944427775 0.05399012690693962 -0.11607131754584125 -0.45672627710371955 -0.39538896212276725
0.477725 -0.02699053592131577 0.883407358527284 0.0001462338348162528 -0.0008086837004898927 0.08028501706931007 -0.08533382855743525 -0.5131234560177501 -0.3362184324439826
0.49014375 -0.0022667389636621014 0.9235506850882614 0.0010712978990911424 -0.0006802864526677416 -0.028684551000681208 -0.2912391338019724 -0.5888909316139179 -0.33999633789062494
0.5025625 0.05614393880718375 0.9047844019795588 0.0005200034871963131 -0.003125743037065656 0.07096925095391676 -0.044693749696845225 -0.6628792137116865 -0.4667170097180133
0.51498125 0.056586481348443074 0.9029527703138523 0.0017469500947051829 -0.0033561392306410242 0.14500865927900147 -0.18142332376273723 -0.5715741798537014 -0.2889772786877364
0.5274 0.10625661120946372 0.8972335029720494 -0.0019806297253409234 0.00022648500778856998 0.1346544433567706 0.14540959400457354 -0.6705349104674863 -0.2338535772836542
0.53981875 0.13533193445855174 0.8984030565295043 0.003221525568015184 -0.003966627366340608 -0.1356843259332415 -0.06801971479235835 -0.6146655883836836 -0.29359207248172026
0.5522375 0.17412470727376153 0.9033543830061321 0.001783206552516587 -0.0054779774403378115 0.022135823178575615 -0.13715649580870157 -0.6607187005847309 -0.31150504558383524
0.56465625 0.20233009653453618 0.8818722759031844 0.0019590984980944696 -0.0005769714146747275 -0.10129090258947226 -0.10002815712225106 -0.5912715868890714 -0.19390004309300995
0.577075 0.23138721156129655 0.8692354745200286 -0.0026419709904462714 0.0014061474623224084 -0.02392802868200455 0.007197961163415929 -0.6437572806381396 -0.0544644603018746
0.58949375 0.26961215471607575 0.8653756047891441 0.00033282480312575753 0.0005202751456202682 -0.052746131250949534 0.05067292050763853 -0.6380863174856787 -0.09091965499345142
0.6019125 0.31177326572319763 0.8655761884385721 -0.0005238791574862764 -0.0018502903690332502 -0.06658948805191413 -0.23623180651324988 -0.6539193980934402 -0.02310319188338707
0.61433125 0.31738865053726373 0.8483654990052582 -0.0031633613568497385 0.0002676331192244373 -0.1792499851834169 -0.08388339069671698 -0.702058224305353 -0.013020546832680282
0.62675 0.38408414972671207 0.8639349502993474 -0.0038048362842012973 -0.00020148399588790054 0.04791539814098379 0.028502243492760985 -0.7181148807535609 0.008910970497618952
0.63916875 0.4111326341119593 0.8317637340881817 -0.0025105235960484525 -0.0017953915383001019 -0.12409239796497103 0.03987157589210145 -0.6970920745437529 0.05754107202483837
0.6515875 0.4207945025748228 0.8139532355702448 6.854458639243885e-05 0.0009958427865052087 0.04866058202267525 -0.039234570084793356 -0.5996830504651254 0.02388919955344606
0.66400625 0.4611739721280204 0.7806648039552677 0.0051461761299410776 0.00022364333856089803 -0.03256579834919661 0.11912985478160759 -0.715616201588107 0.06369001076558563
0.676425 0.49633232490092555 0.7759883198175176 0.0024131717949943876 -0.0018229734948941433 -0.04113887507873068 -0.04669112201724045 -0.5933256551999292 0.16637483696822564
0.68884375 0.5292196519816318 0.7499127198346544 0.0028979252718245767 -0.0003999633412324138 0.010659029014677855 -0.043495629848833185 -0.5937951897018197 0.12545364304740092
0.7012625 0.5643339414692491 0.7166075537825537 0.0028062329256875254 0.0021399543433982073 -0.020089701113805414 -0.0010253902499183377 -0.6459730845532226 0.20474024665638318
0.71368125 0.5748395626098098 0.6937631045400713 0.00062398525603094 0.0030050624030387415 0.10467066995880435 0.07837269224711303 -0.6065046743145244 0.17938503553238566
0.7261 0.6010793412303395 0.6876188717896101 0.0007711554216146217 -0.000891645547124962 0.0577869995340823 0.09461082399296519 -0.6790884915444079 0.2641896764242651
0.73851875 0.6179163718357196 0.6363888766515026 0.0004903072272708824 0.0004214284153358248 0.0014551153786216656 0.03141086334853895 -0.6080501163245978 0.2927777308027124
0.7509375 0.6484475798363183 0.6447446033827965 0.0019936979788862455 -0.004189426405470618 -0.053654743955259696 0.016804736601840082 -0.5865191953510923 0.35908948858044637
0.76335625 0.6833624133375319 0.6002412460019582 0.001333680162484616 0.0007507535835281835 -0.18413792358859293 -0.014593026952687445 -0.5036623995291672 0.36551260699022314
0.775775 0.7202632950109932 0.5666959131700322 -0.0038274095513497423 0.0044541948734152514 0.04799632717318726 0.07023442533258828 -0.5422962738617736 0.4450510503037684
0.78819375 0.7218267320252598 0.5377498699362064 0.000712775418646431 -0.00010522744805910886 0.17588874491582962 0.056964169558161706 -0.5472270396234312 0.4154149751799119
0.8006125 0.7281560525784609 0.5115638412703862 -0.0018290664841462108 -0.003828670038392949 0.04309470406397645 -0.00945104027267112 -0.4615907731825872 0.4280929026869771
0.81303125 0.764209747527933 0.4770966901222613 -0.0016700839973253878 0.0019222703564459839 -0.06430173284833798 0.0751630506301489 -0.38249260070411045 0.4311432174089477
0.82545 0.7868480941305871 0.45494882024708655 0.0012586170078562513 0.0015250230652666887 0.00972574124142559 -0.01948685268671035 -0.46780699393595987 0.4746177844780315
0.83786875 0.7894163497701492 0.4155725758658742 -0.0031378379125830166 7.189242954661928e-05 -0.027072670592455137 -0.0005205603963068775 -0.4313353086727489 0.4282877601643885
0.8502875 0.8332300262268899 0.3943665467120543 0.0016894404440323707 0.0018761850791477392 -0.09358475575012153 -0.08489003349632199 -0.36692910811323076 0.5630862694545778
0.86270625 0.8410479429671811 0.3635523562485234 -0.002191308028675866 0.001330945107494661 0.10843371019406246 0.02271046753550796 -0.35982216017573926 0.5804044158811038
0.875125 0.8383044445451726 0.3219752698214216 -0.0015344311725872292 0.0039746348437315025 -0.02689369569426476 -0.06326162237585803 -0.33872939604770635 0.5995602580398989
0.88754375 0.8563173908192215 0.3061318661099586 0.004677181295858165 -0.0012010574988878663 -0.13873474452246656 -0.041115681220228954 -0.36798184233794856 0.5560422805180729
0.8999625 0.8832168748302042 0.27089916307767203 0.005181771106503389 -0.003206699398655926 0.08523555922766579 0.023288612864899014 -0.33991485944998595 0.5349265968987943
0.91238125 0.8726685134575536 0.22281745440415784 0.0009917098451240449 -0.0012822551452634993 -0.01946899084819801 0.006697772881976215 -0.22970094481870615 0.608412731109182
0.9248 0.8836497327145784 0.2008521592566072 -0.0009940261685917643 0.00020619219138819097 0.052334921345502036 0.02553759399550054 -0.18770986428634892 0.6415604488099028
0.93721875 0.8876207940523473 0.154344109012873 -0.0033008592180983126 -0.0013815197590782825 -0.022932618176784207 0.008788659502131157 -0.13893117540136782 0.6293170793187991
0.9496375 0.8970255157487439 0.1232752014827789 0.0012900842345336312 0.0012206552870890394 0.06270413766865199 0.029698709372277733 -0.12975215799455822 0.6504538422182137
0.96205625 0.9055652498349742 0.09691126334185983 -0.0007783073808249444 -0.004696207387522204 -0.02827500926100057 -0.012349374941006441 -0.2011496675853486 0.655691884036359
0.974475 0.9013805811389783 0.047834413967375575 -0.003303509127605978 -0.0008987045412479458 -0.012097831269226362 0.09392009051543283 -0.09080778920618673 0.6098843818370178
0.98689375 0.9003670559194519 0.02849563996148633 0.00506220732668335 -0.0008000944891277305 0.030118543813825196 -0.004762678740460948 -0.07574238763007778 0.7017654159221696
0.9993125 0.9035745021113124 -0.01605021359143336 -0.0012654347762689271 0.0014259982815475617 0.012559652810850558 0.029118367466824807 -0.0972669733090746 0.7028659207664812
1.01173125 0.9024676251246291 -0.05453341964262081 0.0015394716346767952 0.0024221309657023937 0.03291763762894956 0.045870426382735946 0.02262436907726251 0.7043181159639618
1.02415 0.9056600152470966 -0.08431603260624965 0.0018524659778535236 -0.0005381294883202595 0.008937039354599462 -0.024643144295786495 0.05582701613941743 0.6930370692462717
1.03656875 0.8972771071705526 -0.11097522788285163 0.0002749083797994527 -0.004058598017363907 -0.0456516769018448 -0.059034752255800176 0.010791207249493402 0.6513083141087226
1.0489875 0.8875139446358447 -0.14676224504937163 -0.0010382252051923566 0.0006348629275794694 0.02443318585404947 -0.04552818933388565 0.07386481430126729 0.718319158001795
1.06140625 0.8812990596361481 -0.1911679051125305 -0.0027439218951045025 -0.002307529124306799 -0.02424480686185924 0.027852086487831842 0.09792564434992482 0.6276916976807044
1.073825 0.8807195057069733 -0.22875475211155413 -0.002286974875865338 0.0019355318839603562 0.007993284388196579 -0.05983219933038797 0.17764466784109326 0.6343478155131634
1.08624375 0.8598164104347696 -0.25963865415555154 -0.0017740232586792941 0.001733370474704579 0.04067527900080037 0.01664474270178069 0.20792382873522555 0.6333060102004417
1.0986625 0.8597585737988688 -0.2902807005721909 -0.0007580891080309112 0.003188295243645359 0.0064420516770981665 0.009282800414660465 0.26007691097577496 0.7490088452889536
1.11108125 0.847382784914083 -0.3279505558849058 -0.002475714891094466 -0.003676883463427157 0.05892708073115296 -0.0020799023080814096 0.16935157753335783 0.6003187343914104
1.1235 0.8319654050029586 -0.3628622343713973 -0.0007476076249379784 -0.0014450290519514785 0.00947850625563024 0.002610537504010987 0.25222998870374935 0.6032293231440748
1.13591875 0.8143387322225887 -0.3893230278692107 -0.0006278902355390477 -0.0005011260596539793 -0.04972269762019747 0.04044457741571391 0.29499815326894924 0.6473143684122382
1.1483375 0.7968051112525564 -0.415740317929645 0.001968898942937245 0.00019844414282528953 0.03022243884361309 -0.08581006280458774 0.3214886615016646 0.5775640586230567
1.16075625 0.7903861167899 -0.44224825002250556 -0.0008827085110358827 -0.0029555397072239583 0.08842350104837751 0.02566031349617012 0.323768050429284 0.5517975644997762
1.173175 0.7645751109435333 -0.4828848080654944 0.00030892812933419806 -0.0015991908024223284 0.054038528746928285 0.03954626408045611 0.4255836044223933 0.5688731739758249
1.18559375 0.7511389336785177 -0.5151132832175473 0.0016271200262759176 0.001967287136325947 0.0022940746529754334 0.02415277151193882 0.3481067764765557 0.5395741196566632
1.1980125 0.722022376460288 -0.5461308808067292 -0.002653418493678158 0.0037140606991489826 0.034271083657491506 0.03016879144557625 0.4342635806510606 0.5518660583914315
1.21043125 0.7047179910398536 -0.5676527475400683 -0.0024485277311687113 0.0006353699568271768 0.060017748644299936 -0.08533600577346938 0.4443692408176686 0.4900172811482214
1.22285 0.6838867011239476 -0.5924910211371988 -0.0006143296081048341 0.00010651001276156375 0.061031724874738354 0.02716185739917833 0.44190282190805175 0.45691752589241164
1.23526875 0.6566997308948945 -0.6291682369294179 0.0017578267455068365 0.00020432421555003572 -0.041928002317266753 -0.0479678257610562 0.48187907805500374 0.41967037845602223
1.2476875 0.625810734588863 -0.6426317906321449 -0.0030444808411608554 -0.0019972364539261457 -0.00036640773900962836 0.11942997992931446 0.5384588419610727 0.44303948578910357
1.26010625 0.6112853760732261 -0.6766713023537866 0.0056246140994726124 0.001759741855563257 0.025985774776004656 0.03966437444864503 0.57523386250026 0.40957113671519346
1.272525 0.5872308902719928 -0.7003192061679694 -0.0040285516358570155 0.00036186424630104406 0.015433718499861752 -0.004911097330103064 0.4832586221486333 0.37236397956228645
1.28494375 0.5526786265082159 -0.7213333977065534 0.00404185917646394 -0.003210093850875092 0.013454206539376843 -0.019499000616963174 0.6245606288010992 0.4122557614637764
1.2973625 0.5261270229280884 -0.7418204382888934 -0.0016362774518113112 0.0012229092155835476 0.09044409073269546 -0.006785100400020223 0.5496443562527792 0.35026744618860983
1.30978125 0.5140882270509946 -0.7683096978151199 -0.0030287919609676417 -0.00042819610938756557 0.07815485633384427 0.025019035342761935 0.5533941612813841 0.29647479902737106
1.3222 0.46556328674094033 -0.7771659092933213 -0.003185329076021477 0.001349017505289181 -0.02611559555243786 -0.03320190463786962 0.5521341943382628 0.3029601662258759
1.33461875 0.43330704561820554 -0.7908370024508575 -0.0007918042244071631 -0.001279541368485271 0.018779273391943782 0.008722651362768478 0.5967400597401027 0.22657321526528182
1.3470375 0.39446117781842827 -0.8090452367386001 0.0015265863253650963 0.000978772818774483 0.024301978577009276 0.04665259942005631 0.5462251137647854 0.22860250130853135
1.35945625 0.3616176188420761 -0.8333721450615723 0.0005645536975324752 -0.0017120629591927392 -0.003070293153455511 -0.022571604129039958 0.622869869578642 0.18676808824436694
1.371875 0.32966928569435344 -0.832749091297317 0.0005786188788228363 -0.003638803806164565 -0.008019164948910178 0.006700976322962982 0.6776601187093046 0.16508805216285447
1.38429375 0.3012824731823664 -0.8445686301623985 0.002530292722879999 0.0008841016676239209 -0.05972015562387583 0.017080424566408795 0.6569491476103914 0.11442407553120866
1.3967125 0.2754489035826116 -0.8645604802896959 -0.0008977914203993125 0.0004313844923290625 0.034598680285571115 0.0295317116764782 0.6425966094112083 0.06123670118282039
1.40913125 0.24321715813576927 -0.8786408356976088 -0.002715164577688307 -0.00023829225182335793 -0.012476457417874003 -0.05424390468764001 0.6676356449201815 0.09359219848313048
1.42155 0.21301240220153064 -0.8682020794173868 -0.0029098692209205634 0.00012426505148393688 -0.03718263942544478 -0.04309313060874631 0.6536391372129078 0.06619502214144238
1.43396875 0.1730750965945366 -0.8874864932787848 3.885507517455296e-05 -0.005815376179006771 0.004278782634580896 0.041305770481809945 0.6418931203348407 -0.01708158361989648
1.4463875 0.13801747261563993 -0.8995690508984191 -0.0019507548318367784 0.0013015298378740666 0.03474643176887604 0.07575083895460573 0.7068139267597023 0.002287074589331793
1.45880625 0.0879984124655691 -0.910644574368458 0.0021437359582620556 -0.0021338204987064184 0.01282264868278782 -0.011173445566629641 0.6745673398903651 -0.03892905013159926
1.471225 0.06448961318698267 -0.8993325901544607 0.001840757932382578 0.0011980803057751132 0.022740169470690918 0.05384785849180573 0.6219428067968525 -0.05954126216217894
1.48364375 0.04248565950843114 -0.9037871141515963 0.0025557094174295555 0.002870907687704297 -0.002585450885690112 -0.04389211905422724 0.6804014953054416 -0.09329261251458851
1.4960625 -0.012547906580436169 -0.9110769254676067 -0.0002966273818367286 -0.0023508831687788488 -0.007669310399416739 0.030017779521921008 0.670253482144707 -0.11155724599776282
1.50848125 -0.05104328026412664 -0.9032525116388909 -0.0034854942118286523 -0.0046051245344844415 -0.005697501913274296 0.0431858138506746 0.6331858099193194 -0.07922202915256178
1.5209 -0.06057768068230483 -0.8961482329550735 0.0018987706578932196 0.0054599566187647835 -0.015550736823905516 -0.01066588572989556 0.6476618490135848 -0.13186600986228317
