!Created with skrf (http://scikit-rf.org).
# GHz S RI R 50.0 
!freq ReS11 ImS11 ReS21 ImS21 ReS12 ImS12 ReS22 ImS22
0.13 -0.8658926437380177 0.4849231803430472 -0.0016065038938265015 0.0009826598808940238 0.24200965566142452 0.229768365210029 -0.5048014695667608 -0.38800435774322206
0.14241875 -0.7655153832071188 0.5267391203904404 -0.002005934909755055 0.0009786984305459614 0.606370645879231 0.1396923619594007 -0.8085462914436414 -0.38714650079691226
0.1548375 -0.7144932725242163 0.6080478408348462 -0.0011051352391490534 0.0029818195577802215 0.47177401750262266 -0.10138015371456138 -0.8680560358335812 -0.34220985251346203
0.16725625 -0.6929836862655715 0.6515378318722527 -0.00021311783264725572 0.004362387278274792 1.7844492525988451 -1.6390674452883345 -0.7663616451065751 -0.3036900013879766
0.179675 -0.6839307349525889 0.683930734952589 0.0004849285525962956 0.0022268547764838203 -1.7514644345387265 3.9130140720113475 -0.878275083300661 -0.11916209053791432
0.19209375 -0.5777867499216007 0.7011061290585526 0.001737284126230634 0.002621448066951263 -0.4369141889499536 -0.8677047887343975 -0.7502494957932546 -0.20344286599935066
0.2045125 -0.5745504736975686 0.7041939781476294 0.0016045309301830012 0.0016308909562641923 -3.055422576273683 0.7830782712618951 -0.8482386909544752 -0.07234688781682241
0.21693125 -0.5630278081969654 0.7263417613144666 0.000651897433205545 0.00017677303735969915 -0.0273381274156242 0.6212860251595362 -0.8550891028053798 -0.03102779448503198
0.22935 -0.5128392564754801 0.8073021937203388 0.0019221136707116139 0.00017559332038952474 0.05552315196377514 0.04224468779084667 -0.844373562449805 0.12184062776653323
0.24176875 -0.47707831106742443 0.8732661482991657 0.0010643185558623484 0.0006768221951040194 -0.03133999706830772 0.09620902990626029 -0.8506536415571176 0.1800847573995571
0.2541875 -0.4047191367124605 0.8201253269249195 0.00045382671131221757 0.0021465981088730356 -0.3873030031296161 -0.3788408592901108 -0.8329386386752539 0.2904929739991967
0.26660625 -0.35900430385923776 0.8754789486568987 0.0027408826155942353 -0.000935669389201393 0.23995877135477245 0.6371598340926515 -0.7747289731923829 0.32313323123205334
0.279025 -0.3071034062828449 0.8689273202343166 0.0012531190757855437 -0.001771712568557921 -0.9792792213882967 0.13776488769899267 -0.792002416624651 0.3532693902291081
0.29144375 -0.26792515398209477 0.8937494206565689 0.002067678351678253 -0.0009536828673699255 0.30163489176007735 -0.12981797198932413 -0.7302753020390086 0.43825174333962724
0.3038625 -0.19812042861542925 0.9038649512596859 0.00045893423165430396 -0.0007371294330755789 0.4458501374430551 -0.4644716152043341 -0.7396985934212598 0.5398920285436717
0.31628125 -0.16082171759299888 0.8760467957665266 0.0007619906752541087 -0.0014859612865622885 -0.5003322785955953 -0.08393732141090415 -0.7366592779607054 0.5036343043721911
0.3287 -0.13390997319438516 0.9416368454703558 0.0011372476496417372 -0.0012133976607342843 -0.12150762340077341 0.10907639825384863 -0.5964464058746501 0.5339581897543036
0.34111875 -0.10889362112475254 0.9115178739620594 0.0012205384292789737 -0.002847836758173173 0.2575071474812558 -0.16900485630699277 -0.49697759814073045 0.6421267304845606
0.3535375 -0.05569534432755416 0.9422335356212659 0.000688465762281462 -0.002494410195818249 -0.27510284051805584 -0.08789572257481175 -0.5151817553676872 0.614650219029151
0.36595625 0.010312985263032969 0.8897717781527524 0.0003837766763380994 -0.0017491551720144923 0.04299543279076916 0.24296734342565313 -0.4400272613116586 0.5819522689335797
0.378375 0.06717573918825888 0.9073066379355198 4.938000325419269e-05 -0.0024301757767533506 0.04389596890480358 -0.14385782492543633 -0.5648507049958842 0.7842887711982098
0.39079375 0.10583410098898823 0.9090516487046094 0.0005522257443194725 -0.0027881456786709104 0.1486881579140482 0.2306946788444189 -0.4447370851304632 0.6658908773844467
0.4032125 0.16565194204342157 0.9009749615723361 -0.0012445879734279282 -0.00305882691736093 0.1775750876030959 -0.002255907123687057 -0.37531826961391557 0.7823365116879178
0.41563125 0.1863823569547186 0.8824794879092315 -0.0026404314063285255 -0.0031721333992436856 0.12517641388488032 -0.08149693435445832 -0.24070435887993433 0.8349224792395075
0.42805 0.26812786973524994 0.8585499392016468 -0.0030839792280152 -0.0016842778347911987 -0.08987873167803119 0.13831851476680548 -0.31229699553457824 0.841567237038942
0.44046875 0.2841317313079742 0.8694225581668608 -0.004813253155156278 -0.0016867562412022164 0.10998234147833048 0.11962290188182059 -0.1680340867756517 0.846271973189418
0.4528875 0.3621025879570657 0.8469528581212212 -0.003204871360706962 -0.0005426028286031517 0.24199311634283036 0.1804993300965764 -0.22323247354785747 0.8602718716963033
0.46530625 0.4007339776856088 0.8186495686811247 -0.0032403379996114048 0.001941583341278312 0.1984326491308966 -0.27779151409939723 -0.17697625810414677 0.8113674871216677
0.477725 0.43517078953255034 0.7582678828080284 -0.0034140526863571316 0.0019525272386928976 -0.03345579656135843 -0.12377793281751795 -0.05138820320056828 0.889966587521084
0.49014375 0.47547538057908245 0.7660817060771746 -0.0022504486608737008 0.00038259212164222056 0.09519940943895838 0.2723705830414245 -0.11245787184467788 0.8587259702537711
0.5025625 0.5107297866615342 0.7235552030615343 -0.002463587182506325 0.001705073591038507 0.14790464310276896 -0.011727228197655475 0.0241680853373396 0.9087362956423289
0.51498125 0.5419510891637693 0.7133577523405058 0.0007715697431644632 0.003148496162739365 -0.17708622647811773 -0.056127226591266316 0.012832214495694537 0.8290938165390115
0.5274 0.5818440834215791 0.6614620167956423 0.0007565554639324871 0.0029017035628786238 0.032138112314329136 -0.0024620934018288734 0.09787488714083385 0.8094422650629615
0.53981875 0.6087047306229441 0.6440301359044597 0.00024137395807640003 0.0032391145503009736 -0.2621762987636739 0.11187837477539796 0.18486327729969587 0.7815031051766506
0.5522375 0.6401514084823821 0.6159558153787003 -0.0010705575480191305 0.001382449518182196 -0.04632998449432224 -0.11422207718090026 0.25829290823207157 0.8055825117455643
0.56465625 0.6691368625233465 0.5717336030263641 -0.00024349665725073675 0.0015133287471143894 -0.18836188980480364 0.04009124730644869 0.28886574404614485 0.870819724428878
0.577075 0.6826722542540491 0.5411248311020478 0.00037013333386793886 -9.156459584703352e-05 -0.04370868786163296 0.09665989720453248 0.3522235074269885 0.8396366789793734
0.58949375 0.7232744242318925 0.5013882001226226 -0.00012448786027901624 0.00045821613837004546 0.1516121574737017 0.09805444705051812 0.33270923248729856 0.8205835192451923
0.6019125 0.7577513543377643 0.4514094340604699 -0.0009165064922755176 0.0019563929661604736 0.11066897185864778 -0.04815837240092078 0.4351950178397142 0.7715962543436705
0.61433125 0.7713608625648537 0.42515218033280316 -0.0005814889307293808 0.00020333193615322244 -0.0375857023923178 0.058749943577439304 0.4015382551492329 0.6858401719407772
0.62675 0.8016700235328723 0.3979762991533211 0.00013650610529262428 -0.0002663800312872669 0.021856290907162863 -0.06066665235469026 0.4805347985707321 0.7494311301684864
0.63916875 0.8194938352152983 0.3344162044602881 -0.00028423190432989853 0.0011496705808725068 0.09082306454029443 0.017222448951548907 0.4729640107899302 0.7178092444559113
0.6515875 0.8344852849071694 0.30953950769034594 -0.0007353240324285712 -0.0012442554625383872 0.08630607290825563 0.05929053379691596 0.5108436807895733 0.6948136505335415
0.66400625 0.8387816795552231 0.25180552051552957 0.0016224677117565704 0.0013360663988683278 -0.02254927576184965 -0.14997135561689887 0.5681727546548818 0.6347521191117446
0.676425 0.8400672809114096 0.2275141387459058 -0.0008577925085393006 -0.0008627190879080347 -0.011663416748309126 0.015561594519267178 0.6015727834852691 0.5908012483302673
0.68884375 0.8731567068725954 0.16185312048588368 -0.0021780090357461706 -0.0008965989611533262 0.08690083585225927 0.05789404286799893 0.624685596278104 0.5628937258833685
0.7012625 0.8707729208568389 0.11838984234925573 0.0008867959788489148 0.00011144797617511771 -0.05930194673871798 -0.13896845513398098 0.6821936157258295 0.49874050060232217
0.71368125 0.8613369021542474 0.06795856218494216 0.0011106839626385842 0.00031278550235307726 0.020363516278696304 -0.12318323178789158 0.6587635748524737 0.48892053508965255
0.7261 0.8727181614431161 0.039832616512313776 -0.0013684809613483677 0.0014479978883622452 -0.03558925542448128 -0.08635268981282224 0.7116251481309088 0.4798207696840918
0.73851875 0.8481685927989645 -0.01793310211382404 0.0013434295101885751 0.0005671199035209393 0.05846149155672796 -0.2579540820873896 0.7237397631531214 0.44687491796230594
0.7509375 0.8560155402290266 -0.060115018765359636 -0.0016337673901704727 0.00027798117689031685 -0.055517871899076254 0.06065350783894523 0.7616532537913424 0.39244147039316635
0.76335625 0.8535746117467448 -0.11370385945680374 -0.0008239395639317618 0.001397028867581286 -0.17661414160555705 -0.013924065834715236 0.7390321463948719 0.34091233539370924
0.775775 0.8280610164453592 -0.152800605490489 0.001918293912835724 0.0020340597785517573 0.043048434042038626 -0.10526534286801027 0.7986932274601585 0.2901456909640455
0.78819375 0.8339506629069853 -0.2030197041497984 0.00020231928866599046 -0.0006279144432007314 -0.09498079162347903 0.125811611575014 0.7604843137559488 0.27086346987562493
0.8006125 0.8103740071548992 -0.23920260383135242 3.8084286247707838e-06 0.00079800769891487 -0.015477806751727939 0.006755051471440372 0.7823306831953343 0.24904488389459872
0.81303125 0.7997680218600934 -0.2875308350483535 -0.0004860960226235663 0.00018008369015085437 0.057138947374426124 -0.06844070407566978 0.8334098231372151 0.16050269418576313
0.82545 0.7851987300739692 -0.3200777708251579 -0.001548349237110464 0.00194218933608792 0.03699465738102854 0.03470613776542856 0.8224824997734304 0.17857111633827333
0.83786875 0.7696457308325819 -0.3658469870743005 0.0001436622613665177 -0.001543825714380894 -0.06935150323280136 0.03244280946759561 0.8103271127140406 0.10716637798739254
0.8502875 0.7490973545292829 -0.40901098032712924 0.0007408055567224821 -0.000703766526378446 -0.03509738306760003 -0.07686137346506083 0.8587448740309898 0.07123461175768785
0.86270625 0.7089930460270253 -0.43636868654618205 0.0011804324171004836 0.00012323449291436647 0.0926694015420627 -0.01336305486793313 0.8521179419289271 -0.02014176083335008
0.875125 0.6795365483577058 -0.4759201859306915 0.001411584796039468 -0.00026201997136059634 -0.06355360867646137 0.05041148841928425 0.804046508063934 -0.012142124346659674
0.88754375 0.6538414580888282 -0.5001185432057677 -0.00044834909352988627 -0.001126472675891099 -0.025703496139875548 0.11803378630720894 0.829406000022909 -0.07605489244763237
0.8999625 0.6404758435808318 -0.5450951976773296 -0.0004264185284418797 -0.0013498591771180686 -0.040755010233447485 0.00660315247112386 0.8384156569143533 -0.1074732417935132
0.91238125 0.5926538043599758 -0.5779681042645949 -0.0002717728470029249 0.00016930769390905508 0.09288524805342131 -0.04627727721240371 0.8077012201662995 -0.13722282810171205
0.9248 0.5700801342895319 -0.6041533624109999 -0.0007377150991921138 -0.0025661141164384452 -0.02310751775230551 0.039106747170142016 0.8215581948097167 -0.19792005663685375
0.93721875 0.5319834111713809 -0.6287083394383125 0.00047167905250051004 -0.0018192418429649646 -0.005660103395599456 -0.031119004575507692 0.8062855211858169 -0.249665372226972
0.9496375 0.5140422541965435 -0.6546718943852448 -0.0024028294646065407 -0.002349689264473728 0.07317051279227361 0.015502695585853586 0.7862839417967514 -0.27754821575102395
0.96205625 0.46776537790258105 -0.6872068777869252 -0.00047317991235229414 -0.0025745954942950934 0.0008658612666687366 0.04246973584797303 0.7795415220912797 -0.2924130894692693
0.974475 0.42167712903513127 -0.6971509790143302 -0.0005074632663941111 -0.001656605435107914 -0.03400626164224101 -0.006125394253303696 0.7624367679329095 -0.3434996181974639
0.98689375 0.38097919303922134 -0.7254421088339241 -0.001403693632186955 -0.0011991986738940695 0.044407118384527246 -0.0502276070250968 0.7209616295762872 -0.3642888122264054
0.9993125 0.3444929975515431 -0.7247862794680892 -0.001226285559158659 -0.002538371569299867 0.10309074730077311 0.000546079621381799 0.7035025097120376 -0.40911441751151884
1.01173125 0.3008267997160455 -0.7420949885606097 -0.0015101967227236857 -0.003028986024213397 0.00806095413082946 0.007327071799619238 0.7100357633913351 -0.4396178055944072
1.02415 0.2601602761246168 -0.7733296596251105 -0.0018405719873065471 -0.004685674758716283 -0.0559566629313165 -0.08673421254734799 0.6657782373211564 -0.4823997759279902
1.03656875 0.2251517486437693 -0.769335834472631 -0.0016068894070205093 -0.003163288721052096 -1.8624442345590936e-05 0.06829452260696998 0.6266195264905023 -0.5222751537200465
1.0489875 0.18192004587110502 -0.7773362226405184 -0.0031907383774337312 -0.0035573068373443454 -0.02132818585360669 0.04574658467499456 0.5876872098487983 -0.5511064552190786
1.06140625 0.14618480185776736 -0.7772040128910492 -0.0037872070316803904 -0.003200792166020006 -0.042176420185322604 0.06374994584947159 0.609349156575515 -0.5527360722163753
1.073825 0.09914822343855047 -0.7993862430116927 -0.006525996411892711 -0.003961289443974051 -0.039139792346108884 0.016727346743624028 0.5361069341439951 -0.5909358415873261
1.08624375 0.05908603635551484 -0.7842458485809616 -0.005207194187099371 -0.005931138160820184 -0.017742989730419653 -0.030281913770653153 0.5227929074517034 -0.6046439392060503
1.0986625 0.010929011092105102 -0.7857516346451494 -0.005440099427161564 -0.0070289551717077564 -0.03751002657185413 -0.006973235949983517 0.5023308711945922 -0.6281691108961375
1.11108125 -0.02592365085756874 -0.7821022220552053 -0.0077267939873804465 -0.005091556927256309 -0.04271321869318708 -0.03206817030654037 0.4478887784586553 -0.6625598475571353
1.1235 -0.08362901758578506 -0.7699159662132093 -0.008380262418418978 -0.005458466297406299 -0.09681456927073408 0.06099320171648833 0.427574215279939 -0.7027826320603308
1.13591875 -0.09248713224560272 -0.7675189563403237 -0.009151717668220993 -0.006009054357027121 -0.0754257784442405 -0.00975217758262957 0.40816175989028425 -0.6939485519603489
1.1483375 -0.1451667747019055 -0.7547825757375667 -0.010673556312809373 -0.004332725562920424 -0.021715418141676716 -0.056398140386809 0.3193390606520113 -0.7068464147097584
1.16075625 -0.17258215523270273 -0.7422235937763655 -0.013193139088080754 -0.0052031509018032095 -0.02742503049529644 -0.03737095474005888 0.30510646999088326 -0.7081569038924317
1.173175 -0.21684516473192625 -0.739269496086264 -0.014801568627195578 -0.006027227905789099 -0.03641637407525958 -0.05209863723728986 0.293588524943299 -0.7413132361196905
1.18559375 -0.26038837693436084 -0.7123873241218367 -0.015910654608809485 -0.0033252674459568962 0.05059777846563628 -0.004720388334673681 0.22980870808466194 -0.7579498156525465
1.1980125 -0.2960985654949211 -0.6930932227596461 -0.01722969570234541 -0.003314992769939479 0.0428673915775195 0.01928750492482676 0.22355291732401097 -0.7683400284700357
1.21043125 -0.33190153554967955 -0.6833345204015401 -0.018307767126158076 -0.005309154082706866 0.0005806252724122882 -0.07217173672357273 0.20767201985427017 -0.7822914949528054
1.22285 -0.3585929914725809 -0.6716511188155401 -0.023200958064812798 -0.0024929065855328015 -0.05633318113288418 -0.03673627476750247 0.11822026005564944 -0.7540642673891388
1.23526875 -0.3906472822604633 -0.643766797145232 -0.02375168032951763 -0.0011960650510620698 -0.031232969040943 -0.015107014412538786 0.11127134549069016 -0.7515424945550446
1.2476875 -0.414076642976233 -0.6042486702945209 -0.026180159237182418 -0.0018988647679172928 0.10286732959754091 -0.0970326474665752 0.09268819499213518 -0.7763161648562622
1.26010625 -0.4506396173668179 -0.5852169890536622 -0.026195946040289565 0.0016057980071744356 0.015515035401027864 -0.022525133324543072 0.023392583882530665 -0.7849298232148656
1.272525 -0.4714369461753027 -0.5588897310613472 -0.0288954806753625 0.001787097881373611 0.046517588055517936 -0.0704420314960054 0.01960131040372412 -0.8051813703654526
1.28494375 -0.48280736453539735 -0.529930246890898 -0.03321334914686274 0.004875833644959736 0.014389095583554118 0.022372030727388113 -0.025943850870121708 -0.7562384598644084
1.2973625 -0.5093378038392754 -0.4984812039516418 -0.03287637858358183 0.008833226848477862 0.024594505045719556 -0.056998662248315506 -0.05644870558667077 -0.7499231566941971
1.30978125 -0.5386159077598853 -0.4843074290832259 -0.03559254330160687 0.011302372319572937 -0.06401470286204022 -0.054252410694561284 -0.08505277284265281 -0.7966812913860754
1.3222 -0.5651114931496114 -0.4541837188243607 -0.03870835687029104 0.01505893326688549 0.04460456122963379 0.02076243779235999 -0.12041789067277975 -0.7888046315507139
1.33461875 -0.5815880294122909 -0.4078235180218011 -0.036512559157394764 0.016880838404070383 -0.012137925383810172 -0.08556148512906911 -0.17638220455967502 -0.7802385121096542
1.3470375 -0.5994509546473318 -0.3768554709615509 -0.03870367818941804 0.02051822588556911 -0.00914671131950837 -0.05623540861466695 -0.24167156604166085 -0.6987685348345312
1.35945625 -0.6208782585321364 -0.3482647981244111 -0.04165941383772013 0.02167929894253347 0.035892888073702695 -0.06448265395961252 -0.23381581143929833 -0.7077705630793737
1.371875 -0.6193341367778443 -0.31206420764651943 -0.04273376501719888 0.027028215577440985 0.00934370489486122 0.029740462807794476 -0.2857305428711915 -0.6959801426445417
1.38429375 -0.6285468862550615 -0.29205348215090876 -0.044191422426283065 0.029050770792207994 0.03809094866839565 -0.002135931935904185 -0.32875536890221646 -0.7096866075381737
1.3967125 -0.6530948505573526 -0.2419516417190839 -0.047291831714449235 0.03854236676161467 -0.028822283313292847 -0.03033919181378524 -0.3492523433273894 -0.6772076840747844
1.40913125 -0.6596238898424281 -0.20629881514159623 -0.047985182259861266 0.04211661311096003 -0.038808423288272095 0.03146150380787378 -0.4109583050547862 -0.6388105161031236
1.42155 -0.6612789326060136 -0.18513792006918278 -0.047555807699286544 0.04628891789215019 -0.002398015389822209 -0.029051205757123076 -0.4100513351587707 -0.6226511101709649
1.43396875 -0.6660982332919744 -0.14995902704497305 -0.04793833299795881 0.052086912796542005 -0.001158802667260947 0.01633162112301516 -0.4193320521364275 -0.5933411299221574
1.4463875 -0.682835447139997 -0.11216279488828229 -0.05080823756194641 0.0571293442493232 -0.02681672205064654 0.044043503553846265 -0.4710387640298607 -0.5607407455240749
1.45880625 -0.6787920314214179 -0.07499554885746572 -0.04899184116286615 0.06536602295715718 -0.03289633934455725 -0.025788230726796327 -0.5251695339888744 -0.6061386750457548
1.471225 -0.6758906962761914 -0.03301961772495176 -0.04866948835548462 0.07102181231797763 -0.06438161759379973 0.007905068646473423 -0.48814296834386867 -0.5772559121509396
1.48364375 -0.6777995752549307 -0.008780446226349714 -0.04905356577963311 0.08313379964431682 0.009858802478784616 -0.0008211490979763097 -0.5471407775314286 -0.49481344843664254
1.4960625 -0.6723932842647078 0.0333082834722072 -0.04630377618995146 0.09109111147041538 -0.0425629482204396 -0.0273282054667595 -0.5475409036310468 -0.4625032140076676
1.50848125 -0.6618481959613803 0.07074942303470347 -0.04492397329436774 0.10060540360701964 -0.05401164232428339 0.0019967413092735293 -0.5470540385453949 -0.4554850287875939
1.5209 -0.659249825949759 0.09889317273259726 -0.042109100998367725 0.11103081790200235 -0.047478832307400035 0.000990653710157408 -0.5834562197985316 -0.4365554711204243
1.53331875 -0.6401002164987548 0.1292303432714429 -0.035260622911869335 0.1240851384419733 -0.028894585517980177 0.020462056157886113 -0.5567676781464396 -0.3915524467429957
