!Created with skrf (http://scikit-rf.org).
# GHz S RI R 50.0 
!freq ReS11 ImS11 ReS21 ImS21 ReS12 ImS12 ReS22 ImS22
0.13 0.08205561259528237 -0.5088685715187932 0.005325201247043841 0.0035818659361350367 0.18021650134070938 1.0269709546268253 -0.1069270368122699 -0.601377287347209
0.14241875 -0.015088291955321367 -0.524288550188025 0.015694559917733646 -0.005212983438187474 -0.19439191061948674 0.10858631715242874 -0.02982587039949089 -0.6381889195759484
0.1548375 0.03070105992998514 -0.4621313558220456 -0.0029818901261594332 -0.002271334527646075 0.20623480035388814 -0.3581671870387234 -0.45923780988097646 -0.6575756010880975
0.16725625 -0.0340432406035825 -0.4208206776540592 -0.0012045460870834168 0.002217776713662451 -0.25649638908616657 -2.1140129041034865 -0.781000456995018 -0.1691258238606799
0.179675 -0.081949980581474 -0.3895913223738975 -0.0029375621021202384 -0.016276615927852078 5.271194655678533 -1.7277261537160087 -0.4564669616229724 -1.0517624686672629
0.19209375 -0.11337243024121492 -0.41329039558295105 -0.0030271738013353555 -0.0012350778497041866 0.27863235912609574 -0.44080603650241346 -0.32158194344889857 -0.6188859226708106
0.2045125 -0.09554334130395022 -0.3429740494295567 0.003619679458374277 -0.004930625378397403 0.7889288500710819 -0.5977536465460951 -0.8383315132392526 -0.39147720859791346
0.21693125 -0.11711468499931539 -0.3392239309541794 -0.014826339540394222 0.002259232428480466 0.710513709394736 -0.5285689704571795 -0.5371132983141196 -0.6697903910727753
0.22935 -0.14945666693924137 -0.3213111959812405 -0.008603876875466765 -0.009851414631732123 0.48375902822920713 -0.39302530804717545 -0.8078776467619734 -0.4295561644118221
0.24176875 -0.16143056202291572 -0.251273029773058 -0.009648616870404145 0.013159053019539476 0.10966075436723703 -0.057573660028325285 -1.9625629598852519 -0.5723252863064778
0.2541875 -0.16990884169139395 -0.24219781711331673 0.0004928544937213492 0.0004146144490591147 0.10450162186293582 -0.19097501758053642 -1.0763136653977587 0.040818696275713634
0.26660625 -0.18041531215445414 -0.2289841451395337 0.007572264421177214 0.00560238203731665 -0.30911818932053486 0.3904692526831616 -0.912455862243697 0.27597546817005225
0.279025 -0.19313549733550364 -0.2166277601080919 0.008133604897399137 0.01742086109346746 1.4433991318636408 -0.3108947117932817 -0.7594711213545092 0.0794048522157272
0.29144375 -0.17129239564975324 -0.22433897219787174 -0.0038868652840682123 0.014837277558712864 -0.17028096699962578 -0.24805006692784926 -0.9367851841265635 0.1996539210745948
0.3038625 -0.18246394409861347 -0.21416947610388648 -0.005430936666950027 0.0011195967655001035 0.17926094762299227 0.2738457118142648 -0.8282182732934729 0.3285942976829489
0.31628125 -0.20077302570936234 -0.1968690582529601 0.0014437637566884708 0.005792302442087272 0.16913722734621192 -0.2313017955415484 -0.538273994916565 0.9896068220470496
0.3287 -0.20531105608266356 -0.16560967880607488 0.004078962493207313 0.004567896815765536 -0.14084623007122374 -0.3097861515337528 0.015776934609232966 0.613688835488562
0.34111875 -0.21532002928071384 -0.15305533281010977 0.008134041542346097 -0.005433388661539959 -0.23365676161761634 0.6547150686781864 -0.015045771174797117 0.5488355544861537
0.3535375 -0.20761129689071953 -0.13575193020274162 -0.0048098838086648495 -0.016765430084128615 0.4660971646182098 0.32214427026622555 -0.08066425946041994 0.2342660197646165
0.36595625 -0.20117360334148565 -0.11316764651832253 -0.002009001809008353 -0.005868336319410707 -0.2746050899561943 0.3430123222092881 0.0468056233605617 -0.07154458618174513
0.378375 -0.19358353581828927 -0.12380927453069956 -0.013376211996092307 -0.007173201282232099 0.06144313198725074 -0.1314608999920418 -0.148112470808726 -0.04011984842035586
0.39079375 -0.19798937453364773 -0.09753688880202228 0.004844499553942599 0.011417253860717683 -0.3523414589577787 0.05876420307390549 0.15818143349955716 0.24616027291552756
0.4032125 -0.19967695664366267 -0.09517418954525153 0.006249358283012534 0.006429161896868957 -0.035395859422673245 -0.2853804344724069 -0.200215672019665 -0.019747087885864788
0.41563125 -0.2032585287262431 -0.09494976985073628 0.004702926179185533 0.005735314643477609 0.29445124320955374 -0.015244082124697562 -0.5080423671403206 -0.04075062122575828
0.42805 -0.1967801025307085 -0.057065172259793025 -0.002309413218417582 0.0009396634706607869 -0.16343146189262633 0.03239272357519606 -0.15861309685327113 -0.08394808598157324
0.44046875 -0.20578498162258752 -0.04306686705641666 -0.006020742622503324 0.0020062999272027955 -0.10944258072178882 0.013649979733215958 -0.6337665870903763 -0.06984602748243714
0.4528875 -0.18272302030761156 -0.04701622950354573 0.013455247845387304 -0.011682785874558725 -0.136083098390022 0.2866609507923394 -0.5572358054139686 0.3209102854142787
0.46530625 -0.18791578428624092 -0.042790433814042315 0.0006746233765178081 -0.004214758431016377 0.09365507401905722 0.1571638753824478 -0.6401205510544486 0.7565592137951322
0.477725 -0.1920465856491457 -0.053202835567538194 -0.00349491166453039 -0.0018012038615602803 0.2777282194317705 -0.002609509024063282 -0.6482391436964761 0.39239431067805813
0.49014375 -0.18807468756274204 -0.03081421086519975 0.004036921642302064 0.005736140843667375 0.06899797422419825 -0.11945156812954462 -0.40623805786852524 0.4317258036016337
0.5025625 -0.18322644245301628 -0.012310419585719578 0.009482520403723155 0.00445092758906702 -0.16609279786850523 0.34542868182067005 -0.5202766147494082 0.3072312921147776
0.51498125 -0.17690509608045685 -0.0060810594885332536 0.0033007781536205103 -0.00722852589613566 0.09363073497540751 -0.035265622581343144 -0.31315824185937957 0.44971153465404134
0.5274 -0.17650119771694142 -0.0031289879965465442 0.005340691782566397 -0.0037217139049098786 0.06132197341098303 0.11383705824552422 -0.46051527767289935 0.22297824151468365
0.53981875 -0.17210976208728127 0.003332848121076133 0.006008801782976957 0.010935797161423835 0.053296906610598056 -0.02661370179879212 -0.09848980818332924 0.5581184355016165
0.5522375 -0.1654360202172203 0.014041993678415498 0.005314763308739281 0.003094018039131432 0.10044778701399781 0.17827747101409652 -0.2835425715914101 0.3691028670406215
0.56465625 -0.17479092219344505 0.010307960081442174 0.0016530253380696287 -0.011201663879801182 0.23791130493642187 0.15173729616011003 -0.3026268719651468 0.402797995955099
0.577075 -0.16500830534455918 0.015888492666316416 0.0019143757207246198 -0.013764453000591564 -0.018028929748471145 0.08800065639163249 -0.09358914900965251 0.6838415655813921
0.58949375 -0.1620549777677924 0.026641902169527068 0.0002721808515530326 -0.0005993024072123056 -0.16700383891140655 -0.10800087040191403 -0.06273171867408188 0.6387114305474378
0.6019125 -0.1536790963640016 0.02839604752831891 -0.0038360715225291917 -0.016610684473864688 -0.06817701961280262 0.02718909751363075 -0.1759507814592232 0.4644141490120029
0.61433125 -0.15803091380969592 0.03596266445584519 0.0012495972673671888 0.006093046323427829 0.032962107892055025 -0.12853899924711867 0.024243508255538067 0.2636429293436979
0.62675 -0.14545809130844578 0.06020424600978307 -0.0005579119746038978 -0.0009895662775705057 0.13224771798240234 0.2137913563766104 0.11421451487608264 0.3009066444752036
0.63916875 -0.13291568262042686 0.04629426654670944 0.012179230098536074 -0.007524397521304132 0.10258402597711595 0.04362070561618057 -0.1897691888863718 0.23349792400948763
0.6515875 -0.14781357117958846 0.049794130415026984 0.012578553940591984 -0.007639308767281465 0.07155943110128357 -0.00026070678564017616 -0.018059108025639536 0.35146505686831614
0.66400625 -0.13465452317894527 0.05702748588904042 0.016612671287367813 -0.01673772688921197 -0.06636337259210814 0.16545554341269364 0.08492711893783954 0.17161010276538802
0.676425 -0.12714088116959718 0.06181772539944642 0.018365803405393795 -0.004663153609402547 0.008405389533839897 0.09683436978296042 0.2878638415053538 0.45987573562282674
0.68884375 -0.12924131995375646 0.06885451609119557 0.013171316979572835 -0.02970854769478443 0.0954836010347184 -0.01020482935517534 0.10223517210328469 0.17675632349121348
0.7012625 -0.11839595241668668 0.05985879233693535 0.019935298504445455 -0.038908571705100335 0.1012753224496274 0.017042626884192377 0.039547366383464067 0.5060253405223509
0.71368125 -0.114907150750037 0.06381702253275748 0.0069668108960504755 -0.04743422650697735 0.019146181817385255 -0.04960439242177707 -0.021864290927794284 0.3371060293856382
0.7261 -0.11681160247937898 0.07206512835623222 -0.005156159772619429 -0.04951213649927072 0.0980667457265258 -0.045664173591670035 -0.11674099404299605 0.3620615077298473
0.73851875 -0.11501887985952158 0.05826960879700811 -0.014764364717704198 -0.0647363140191932 0.010037588990633166 0.01038218057206172 -0.2809230237865063 0.5031518586379436
0.7509375 -0.1330604158249108 0.07060990267236252 -0.026867974012900947 -0.06763970016122936 -0.029685850971487484 0.015546198924711459 0.028398436635187773 0.6938465738114517
0.76335625 -0.09717119789963626 0.07468846765550399 -0.024914173793565836 -0.08261742710562968 0.10323644410582392 -0.06204268860078954 0.18557382287355975 0.6400847261853492
0.775775 -0.09773355717498197 0.07271162016363278 -0.047813785563187196 -0.1079456212088175 -0.06602534688197272 -0.0672795719539471 0.30875991537532027 0.7268416099051287
0.78819375 -0.09776932338469697 0.06682271871609204 -0.07692670841865154 -0.1373844914206086 0.031155077035006796 0.10907152127635969 0.44132715839631065 0.8044331859467142
0.8006125 -0.09682564988330081 0.07461207063414786 -0.11525344199150757 -0.16662180348120623 -0.0313487472352621 0.08898860819057092 0.30615118140159625 0.5826686947881896
0.81303125 -0.0909198671120386 0.0688830600722011 -0.18461672775878496 -0.20064834578609547 0.055508413471386304 0.037325380035947014 0.4325357853356889 0.6357296142684962
0.82545 -0.09049303970463689 0.08648647047615206 -0.2861075614255197 -0.17748063041902598 0.02501510080337597 -0.004931061698302416 0.2559613164057721 0.5907622456558461
0.83786875 -0.08222464103493599 0.08764652649986264 -0.359667183146415 -0.12615189318305525 -0.08066846728582751 0.06800815144413767 0.39906603908633853 0.4403015232211842
0.8502875 -0.07312100696140085 0.08321816372884869 -0.4152978056399253 -0.08827427363592763 -0.048518838858389514 -0.04879749821730804 0.4491614410730715 0.3368378854651652
0.86270625 -0.07461425875707617 0.08637952110451724 -0.46817521958415453 -0.0244079997460535 -0.019526616958554583 -0.016190631079178227 0.5267901118921682 0.3819129335050592
0.875125 -0.06940049376492304 0.07741604341250365 -0.5165374969282664 0.0126802838171825 -0.03814870677509932 -0.02836564152841344 0.4733852188930791 0.3662759535860537
0.88754375 -0.0658800128645681 0.07784213501803441 -0.6314441678181111 0.028345865500973934 0.07860756604521932 -0.03481388379992069 0.421679543028714 0.12053362473321276
0.8999625 -0.06317762989928241 0.0842810495235619 -0.7508315443679656 0.09801574149279008 -0.053071228534210944 0.05034896402199525 0.44958748366701795 0.20695613082504943
0.91238125 -0.07276843260425278 0.08966137279046098 -0.9099811969603779 0.21270122383309367 -0.03760141301006876 0.014841211671027553 0.24855603715670194 0.03284801757818564
0.9248 -0.06870444777664587 0.08565180735360216 -1.1017637269075373 0.40970805597588367 -0.09563165798793254 -0.029123501263687165 0.4833401808222989 0.14140831502053322
0.93721875 -0.05874062762038463 0.08002054608216268 -1.2576927655303938 0.6824274271326777 -0.020771850617190835 -0.05456794217533205 0.5076628184657633 0.12753540353034287
0.9496375 -0.06044778079664053 0.09081456764232147 -1.3998981854351755 1.0726640969239531 -0.006407489744670672 0.028397968147591775 0.3549193466886994 0.05785507045663062
0.96205625 -0.05822798465886911 0.08732465585915676 -1.450979243547636 1.5530102270715267 -0.02991718961237723 -0.1185441920469475 0.2850101421887798 0.008637344400189066
0.974475 -0.049749888527698946 0.08406490275379923 -1.3385662043308055 2.1292109332986766 -0.1052204925995846 0.03157391616019017 0.6414566033867928 0.15614094292251493
0.98689375 -0.056957293696003206 0.08339608181358318 -1.0595071321684364 2.7629251874732685 0.06185281261720152 -0.02111384005410969 0.47628078157944376 -0.07389675443911575
0.9993125 -0.0522506150274259 0.08864865165429135 -0.6181781672930144 3.311445963100503 0.03393196571632485 -0.027320872969488687 0.6351909437740109 0.2054887225863704
1.01173125 -0.037393682377654065 0.09455111227624576 0.03765263137865081 3.8351423200308994 -0.006830566732758242 -0.02690310859758131 0.5421215234987303 0.13741086896042007
1.02415 -0.0434297979865304 0.07346549610581546 0.7592419902529961 4.18237704213955 0.016372968186255422 -0.014524429280781518 0.39759638300054456 -0.020354704891753346
1.03656875 -0.04424955273243576 0.09278739599146182 1.5668216097810803 4.471989816705851 -0.0010213755159280736 0.017857930792709885 0.41182581418960595 0.22905017146479653
1.0489875 -0.038436022789214194 0.0858556994409067 2.4946644043943316 4.6363502206631875 0.018063825307063096 0.049036195575949196 0.3096576778431405 -0.041135064223147735
1.06140625 -0.04403210379800488 0.08772980232301084 3.4784261321288064 4.678105320498522 -0.014961118916921413 -0.03722721934353471 0.43425756176788927 0.07124769085157653
1.073825 -0.031025526839986658 0.09579777987750494 4.579417935301314 4.6245984077603985 -0.034381812439274684 -6.0945265303296205e-05 0.499708776098528 -0.21447999074085858
1.08624375 -0.030206346553360807 0.082240293186633 5.848669771561451 4.43831366380781 -0.00540385019637705 0.0348407575992479 0.39114620813389234 -0.2921450375735264
1.0986625 0.0050466090476881265 0.0684788454276987 7.39857396680745 3.9958971987804794 -0.041413964493224535 0.13283095614327606 0.4637277333344419 -0.20280100814089352
1.11108125 -0.014756490616383877 0.08968306492323963 9.02314114854136 2.905803838247388 0.022979191050530437 -0.039341411106488935 0.2222004378430351 -0.17742740942828436
1.1235 -0.04191853820569128 0.11149015133521256 10.391879860711015 1.3710451576565987 0.039067839320897337 0.0031435582843973298 0.19290622744338787 -0.2967172751703693
1.13591875 -0.028462197777113004 0.08191567140756695 11.380360535959602 -0.43501856051128074 -0.046166273969565706 -0.04372648759241148 0.3387236319823649 -0.2166520854337445
1.1483375 -0.020826890366732884 0.0743117953655908 12.18327220609962 -2.392764583556989 -0.06670034764003369 -0.006734746477430407 0.30849769688127765 -0.16850275372377277
1.16075625 0.0010535575039310944 0.07843835937544263 12.876876271925253 -4.74878510504174 -0.02261661982117736 0.012444035338474543 0.21837903014805518 -0.2297624352050266
1.173175 -0.034535741043917545 0.06458005180743313 13.091429398275103 -7.597364616305725 0.022886358243948496 0.007703239587650886 0.16384550072070223 -0.19909212341872204
1.18559375 0.02118263201311629 0.04297997991889998 12.598515074322941 -10.530491550880289 -0.06051033600128408 0.0033698105901362606 0.28750703549309864 -0.15478004131986303
1.1980125 -0.02763342274141099 0.0899241809684853 11.323930787558066 -13.57972778483593 -0.041417619080937586 -0.01054879900025582 0.31739353401609205 -0.2799777564958801
1.21043125 0.0026623556337888542 0.0684754844715703 9.376207140520062 -16.35445347143911 -0.08987064673818425 0.027141570918848005 0.22172262452919525 -0.21544824856437358
1.22285 -0.010673948274492995 0.08172240803272683 7.048588260817201 -18.789796473980772 -0.05940577676308748 -0.00973305953879673 0.28848393643215453 -0.3417147400946077
1.23526875 -0.006222221075374784 0.1000531387865048 4.221585643775086 -21.17806483041865 0.06618879239843477 -0.07558812992970537 0.16784716048710427 -0.14774548713651187
1.2476875 -0.011787087400785212 0.06475474687526252 0.8169258189316851 -22.513503687986084 -0.05143620695836669 -0.06007462066792196 0.1735641251917043 -0.19974518264583566
1.26010625 0.005826571166122386 0.08681029979650005 -3.1564906129596846 -23.59054376483613 0.06895870364740588 0.015269897357561903 0.15192905352965028 -0.027188540318263517
1.272525 -0.013790947006565912 0.10990165488288872 -6.818278820495113 -23.956829023104195 0.1029267569596113 -0.08836994589069205 0.0711841678148234 -0.15079877260979205
1.28494375 0.06464411967427706 0.10084019104552672 -11.013556849977379 -23.97618448791421 -0.0110766280749664 0.021521018318508257 0.2011121864301529 -0.19880823933703706
1.2973625 0.03434751563279492 0.028509132754827384 -15.285842337776513 -22.96829341013505 -0.0409949119902202 -0.006871688753530878 0.16410646002436374 -0.2740492497630739
1.30978125 -0.019688315888432832 0.07047110346200931 -19.91391946745715 -21.660966575228635 0.03014502282929325 -0.0667007661226249 0.21066039065504036 -0.07596329643004607
1.3222 0.003057810802141402 0.004196669955018683 -23.52843468703521 -18.673493726845905 0.014701672187353293 0.030898560336910602 0.17706446304425136 -0.28456973395221663
1.33461875 -0.019095293161797037 0.12013880913875372 -27.332531260785622 -15.884970452279044 -0.041238331563934236 -0.02457231093220106 0.14243840379580713 -0.321631787526522
1.3470375 -0.007444139707832117 0.05745163030279457 -30.18690169721264 -12.16758144367423 -0.00889410979912831 0.1014212188045879 0.09763023858494424 -0.12116172568909968
1.35945625 0.006705672330443525 0.08030217119769796 -33.01137608527683 -8.26891924733294 -0.0359923842000285 0.03146043716177643 0.18287030854495165 -0.16724894017164207
1.371875 0.014919971141271405 0.04390364302206505 -34.873218907698586 -3.4251100781183452 -0.04471296023838869 -0.02888980141712245 0.22684542788085094 -0.24666217129768137
1.38429375 0.005178348372730841 0.12263241592350992 -36.82733194506968 1.5827611779944013 -0.08528871908646427 -0.006805987658006614 0.10907932683118182 -0.18277822042146344
1.3967125 0.01898338410976912 0.05557447896429763 -37.39643711186027 7.099935425340291 0.019260130482136963 -0.05835467114031528 0.03075568859748843 -0.16357663939824965
1.40913125 0.055587829989692854 0.00934507317899716 -36.94511129851369 13.065944565565713 -0.0863908135942458 0.006301510632606412 0.15564948369066575 -0.3639246624219938
1.42155 0.055889561054771 0.08637790319658269 -35.724669380751656 18.690053513236276 -0.008672213281544577 0.029707775726544886 -0.0061497197524250456 -0.25841072083061534
1.43396875 0.0002604187434119451 0.055358274185684966 -33.30998002110854 23.938403768068515 0.04120116690668961 -0.005958470093804566 0.11860627094833101 -0.15319290912797856
1.4463875 -0.015799489285340033 0.08251204363622468 -30.830187346791735 29.065600522490705 0.01837657750433179 0.031674377845908236 0.12268042811588907 -0.5615227891347613
1.45880625 0.01628143434310671 0.07315750982406384 -27.426150283246884 33.80245504505023 0.02167070522547531 -0.043261400453005874 -0.12165762291595922 -0.13463377800861215
1.471225 -0.0013829478478957031 0.06164525604734209 -23.15898819295536 37.861528116132746 0.005748161003813432 -0.07028000137458719 -0.01738068314821765 -0.21743081937205833
1.48364375 0.0637411457515138 0.09338357446635083 -18.207577807724025 42.015487886548094 -0.03543019377930702 -0.03964174246031418 0.05245100288801187 -0.39652465611691773
1.4960625 0.030767860483573377 0.030386363953021134 -12.664930774856087 45.22494971727461 -0.041341510509326385 -0.0025172389690533547 0.08714999711137002 -0.15781853902695112
1.50848125 0.022446741295887317 0.06897194845524386 -6.826512836488004 46.722682650461806 -0.01957473802471944 -0.0403924484819715 0.09152371829894845 -0.058509003536605105
1.5209 0.034910515217048174 0.05869751351006305 -0.6978892510690727 48.51060522951519 -0.06780515448070545 0.0013037752580627152 0.0735727697229607 -0.026739961600937393
1.53331875 0.07184403383646341 -0.01735186890881643 5.398335207198822 49.19886109655378 -0.03867529923726841 -0.028814556258876908 0.05206174022346292 -0.1423435691717571
