!Created with skrf (http://scikit-rf.org).
# GHz S RI R 50.0 
!freq ReS11 ImS11 ReS21 ImS21 ReS12 ImS12 ReS22 ImS22
0.13 0.0018728738342235873 0.0007675547736118209 4.699928242807343 -0.1798771398633952 0.002059880177569135 -0.0003534099882355014 0.00023673354079466365 -0.0011555154560193642
0.131 0.0018656697859202518 0.0006357219933717368 4.667972255633786 -0.634796935672717 0.002059160380300288 -0.0005499827578310858 0.00019190405350232162 -0.0011301995719700867
0.132 0.0017525936390995985 0.000220765261566807 4.584688658777223 -1.0790560387928811 0.002238206195640375 -0.0008540934148096867 9.731062747558056e-05 -0.0011558172299923361
0.133 0.0014880622609488203 -0.00014389847573916852 4.453579367710993 -1.500958691996432 0.0020260299174403237 -0.0008370656554537721 -6.743744511601359e-05 -0.0011025924813242232
0.134 0.001200785474825994 -0.00018828751855989604 4.287983778009533 -1.9224598773130874 0.0019753997834089623 -0.0011088437280478139 -0.00029865252750963504 -0.0010703856557022198
0.135 0.0010238508470829355 -0.0005331826491848476 4.087732259828456 -2.3244227091393745 0.0019382797911347601 -0.0011974346170442714 -0.00028085120298269607 -0.0010859710242912537
0.136 0.0005338336867377854 -0.0007816891152922659 3.8303278540890315 -2.690205307438211 0.0018072922642470232 -0.0012619939121603651 -0.00029953738116944123 -0.0007909409054683862
0.137 0.00028412911867917526 -0.0008897077664198752 3.5665517489635508 -3.069538047588525 0.001874247988353163 -0.0015004651556742238 -0.0003377636758918944 -0.0008077903608449614
0.138 1.0146564779489946e-05 -0.0007516056898265618 3.258161162329658 -3.382913427365524 0.0017161644403921679 -0.0015566133216957795 -0.0005243377883352812 -0.0007820694094625463
0.139 -0.0004871785910164221 -0.0008411671839888416 2.923504491719671 -3.6797238573669624 0.0015140475507858207 -0.0017613839967626423 -0.0004281297745605034 -0.0005376307410423228
0.14 -0.0009047515912713926 -0.0005653515404766878 2.5510759657015334 -3.9412416650316606 0.0015056429987570787 -0.001956110247209764 -0.0003672326765334804 -0.000549440343182689
0.141 -0.0012457501459031128 -0.0004834682428767641 2.145797164437888 -4.168067736281123 0.0013711971940825345 -0.0021468535056937037 -0.0005496756139743612 -0.0004006237392763785
0.142 -0.0016658304215495458 -0.00020361605132637167 1.749264547803262 -4.341507757424562 0.001206161431842692 -0.0022133694716823123 -0.00037807203197761914 -0.00023610228903326694
0.143 -0.0018192567592590651 7.644824946228409e-05 1.3132967081019038 -4.480689891708914 0.001068810379892362 -0.0023966286872445755 -0.0002839774750065352 -0.0003027029242724106
0.144 -0.0021851463840817636 0.0005470340383307403 0.9044940526560261 -4.589702986181019 0.000904454482506242 -0.002442396753699981 -0.00020826667927460808 -0.00021286064800949268
0.145 -0.0022796674048619465 0.0010190731123471655 0.45749096389465255 -4.667819885350107 0.0006731083765581216 -0.0025203205843466413 -0.0002136377614385844 -0.00014846483218161394
0.146 -0.002469727617019006 0.0014802977661184165 0.012433718557291041 -4.676253001232925 0.0005710812224148022 -0.002637176780611847 0.0001127448641865371 -0.00010102983347523506
0.147 -0.002477245144068965 0.0021629428740329295 -0.4416256180257839 -4.673271296532281 0.0003970671440820057 -0.002695800636565545 2.069892539301802e-06 -0.00019093971105566077
0.148 -0.0023910894027293246 0.0024713206902291433 -0.8835611594775004 -4.5855741184792 0.0001911977566396106 -0.0026972561823676 0.00020085701415248713 -0.0002167071977216389
0.149 -0.002307007258125719 0.003025298061860471 -1.3098716129169659 -4.471262877318543 -4.261232585756213e-05 -0.002717280071654056 0.0001440959843253059 -0.0001879884937592108
0.15 -0.002054750456994508 0.00349699140842552 -1.7195719361096784 -4.3152690458169145 -0.0002974332310486844 -0.0027752734672930653 0.00014855429932331983 -0.00029360490271581924
0.151 -0.001839777859302681 0.003941206403445029 -2.116666035536867 -4.165417569221351 -0.000591971781649152 -0.002691917018138131 0.0002073176673348514 -0.0003843273634719289
0.152 -0.0014876080312735374 0.004438950465664795 -2.5176042934184126 -3.9111232829856992 -0.0006457217256421793 -0.002638067857456681 0.00032495330354695553 -0.0003604274760318149
0.153 -0.0010251220067966531 0.004658584694745064 -2.869418213275239 -3.684064231286144 -0.0008242362590975789 -0.002658954620677433 8.803459123206906e-05 -0.0005204054494650018
0.154 -0.0005644740367482029 0.004939354531318992 -3.2054574213825506 -3.3475506147607645 -0.0010806812463077019 -0.002728728284148519 0.00018113269753784422 -0.0007183413538458064
0.155 -0.00012290346562468329 0.0052091883808630035 -3.528775491374579 -3.0322133189247236 -0.0013357315427000869 -0.0027039467793305333 0.00024128344186954138 -0.0007828984545287323
0.156 0.0004906794390634421 0.005356055604209216 -3.788023965508735 -2.688744877814384 -0.0016031518376211096 -0.002591849048138072 0.00016652672032173765 -0.0006787343993478111
0.157 0.0011944466801004712 0.0055230762717186545 -4.021751290878624 -2.3197661831528147 -0.001750213029409219 -0.0025339723036319215 5.661493800906309e-05 -0.000905384513194514
0.158 0.001721686470792529 0.005382338211195846 -4.209792463161101 -1.946311842425415 -0.0019335238386398368 -0.002347507813282068 -8.670545171670971e-05 -0.0009283253098686167
0.159 0.0023019167791693226 0.005263596370226632 -4.3775409435686505 -1.530715080903335 -0.0019887191134011196 -0.002119855073607866 -0.00020678610981147893 -0.0010117952384633626
0.16 0.0029087774914103607 0.004982297774274035 -4.5000925454824285 -1.0927147995331923 -0.002355927353613949 -0.0020121520490767333 -0.000219232682735632 -0.0009262347730364808
0.161 0.0033720403695919835 0.004769946676998556 -4.567525699716428 -0.6393836645324019 -0.0025090266690173564 -0.0019690966609626067 -0.0003228153924620795 -0.0009552607980053701
0.162 0.0037266029288873744 0.004435355234993808 -4.630447046232557 -0.23634076122253747 -0.0026558314802150535 -0.001759419274497808 -0.000508392869743762 -0.0008597256579530569
0.163 0.004265113859823576 0.0039047810821259176 -4.609248035084369 0.22013819856017752 -0.002607751537736109 -0.0016413943574991041 -0.0006608417711109263 -0.0009028224548752998
0.164 0.004517138991070081 0.0034906514793435757 -4.560278802982319 0.6726409597151429 -0.0030092487789583886 -0.0013545806822522705 -0.0006059273677597966 -0.0008189806082740264
0.165 0.0048946001675591365 0.002958371991441235 -4.4898965335259815 1.1025647071216351 -0.0031129280632562328 -0.0011392661638421262 -0.0008426517422651105 -0.0006101182294518848
0.166 0.004811708177190842 0.0022323643587973292 -4.357603323187827 1.527078332498789 -0.0031745698448333156 -0.0008622326527667742 -0.0009193980430323103 -0.0005832567390830549
0.167 0.004808703011874108 0.0018834134275392267 -4.194108179914562 1.9418377219022382 -0.0034039048121858586 -0.0007804775902430115 -0.001028577674112958 -0.0005247933455638458
0.168 0.004949274095498494 0.0012523319503690493 -3.9930303322463714 2.322104407490288 -0.0034363784623128663 -0.0005250725665398773 -0.0010105860267061693 -0.00022418610246029743
0.169 0.004655891108613237 0.000782351673529769 -3.7467076820915293 2.700347362034857 -0.0034185879529963453 -0.0002615455854783257 -0.000997251375124414 -0.0002998420290642061
0.17 0.004559881815469516 0.0004264803016247335 -3.468951364050701 3.0430255847174896 -0.0034736892191171713 5.447431734293833e-05 -0.0010646352369076371 -5.564960372863353e-05
0.171 0.004155310639788889 -0.00028990041074694487 -3.1706781918188387 3.3640905048570553 -0.0034724397335732194 0.00029378239548976667 -0.0008971932772906031 -3.1807429710053096e-06
0.172 0.0038332448348071006 -0.000495386977689989 -2.838325091133958 3.6482463706015906 -0.0034258072170336665 0.0004230072554773299 -0.0008311544375289978 0.00019379803372965299
0.173 0.003501314847918064 -0.0008263085165417705 -2.469521818041579 3.9009778227892453 -0.003467127705743302 0.0008283847241701955 -0.0007558660682169074 0.0002128425277429628
0.174 0.0029159664804905613 -0.0010053821977573994 -2.0900985426536134 4.10689348605546 -0.003484068564992554 0.0010413364053808816 -0.0007728713552472828 0.00040447687383252687
0.175 0.0025243722644413685 -0.0010996753288884094 -1.6847684003006949 4.283884195004372 -0.0035124935447226665 0.0014124584430399855 -0.0006008912851112578 0.0004282408342548937
0.176 0.0021099242807289366 -0.0010346938375349487 -1.2645993481293274 4.439870040559406 -0.003455337687932227 0.0016123977642705676 -0.0005027202724740703 0.0004938871098461369
0.177 0.001609885090111976 -0.0010966940716316943 -0.8365927404777136 4.532819263681819 -0.0033141862798545248 0.0018459548153853722 -0.0002663876671445577 0.0005572218476685662
0.178 0.0011015139438004318 -0.0009047434482488009 -0.4134762566058696 4.599617015947056 -0.003195368315543634 0.002169277876142802 -1.692300901487477e-05 0.0007131476252408354
0.179 0.000783208098942673 -0.0005771094322872964 0.009979921952140296 4.57445200421461 -0.0030960410844099906 0.002340986627267185 8.859936748151531e-05 0.0005373222242034761
0.18 0.00040768206940212866 -0.00025302185371715895 0.44277284455696814 4.578738980894158 -0.002945002346151705 0.002682389693305228 0.00016035737914941675 0.0004185126258096339
0.181 5.24115870929232e-05 0.00012628916778335787 0.8892381287316614 4.522039580025418 -0.0026611238497344573 0.0028914173112323024 0.0003204014506625557 0.0004040139788976828
0.182 -9.61044355420794e-05 0.0004915511198127173 1.3361543873595787 4.4068737865644305 -0.0023652529821416466 0.003077241679003087 0.0004893492072802384 0.000359421639041854
0.183 -8.71504202795646e-05 0.0010008490769277106 1.7451056933648537 4.256495127104068 -0.00223822219694696 0.003310505517157956 0.0006801274621819281 0.00015587856982173328
0.184 -0.00021525057923763494 0.0015047800021747923 2.114220129186379 4.090955678434087 -0.002023489195006703 0.0036051242072522123 0.0006380091279200315 -1.7406715143196454e-05
0.185 -0.00016152385385450962 0.001960070759253846 2.5067581636022616 3.869302913841149 -0.0017854528008203249 0.003781023558660673 0.0007805322737481932 -0.0003152626612800971
0.186 9.160015373903843e-05 0.0025055359270805774 2.8645280185044117 3.5831186827463837 -0.0015611217168318477 0.0039457725217053735 0.0007259090904584654 -0.00040628486409949023
0.187 0.00040360945979632756 0.00295060984137812 3.196551381584458 3.30088094718176 -0.0011999386806599282 0.0040167108328683235 0.0007266498328155804 -0.0005632269585094666
0.188 0.0008473415037265652 0.0033099185022854734 3.4832439874273025 2.9885508023834393 -0.0009207849451331898 0.0040770310088259105 0.0007478711639269995 -0.000723098140117936
0.189 0.0011026524457444682 0.0037791925788546316 3.741529749766191 2.6225092907147083 -0.0005552679766334325 0.004149885144660906 0.0006916077042355163 -0.0009916701215766915
0.19 0.0016586960590732323 0.0039913558928063005 3.994958458378376 2.2825842552416313 -0.0002925026316952969 0.004292308396169924 0.00048215494112630866 -0.0011586590787006394
0.191 0.0020290959329738703 0.004037287762195746 4.16437463009523 1.8693434855648041 4.8631979108793854e-05 0.004322970556718093 0.00042989817314338706 -0.0012712779954496577
0.192 0.002914350975916766 0.004264654778112458 4.3214556756097515 1.4679223203992202 0.000458545575012857 0.004334341946008705 0.00025783043356731873 -0.0013595493820137293
0.193 0.0033272236559785825 0.0041674166077721175 4.458430992928732 1.0453708193851226 0.000678964468324445 0.0043736146838022315 7.32847129337147e-05 -0.0015213730488196353
0.194 0.0040828710935238745 0.004140619226948505 4.517559207622607 0.6246972104119484 0.0009997323650818887 0.004407013432185689 -9.302925697792851e-05 -0.0015885435150065302
0.195 0.004629275438050643 0.00393226377930386 4.562535573038688 0.18797655384538908 0.0013373215780613896 0.0043298000346837714 -0.00046001321929566594 -0.0015142302482426394
0.196 0.0051692176794253765 0.003621626428026653 4.549017093819007 -0.2504855992749788 0.0015682636577547104 0.004297825409034313 -0.0006342837524761359 -0.0016493400670107576
0.197 0.00571162593604389 0.0031346452457047392 4.523819848415678 -0.6738429934728517 0.001993869996453789 0.004199376013143637 -0.0008200259662835348 -0.0016783971991154003
0.198 0.0062115043515846 0.002648880566299601 4.42793722332968 -1.1129912178795645 0.0022952718570764126 0.004031828375683161 -0.0010362962619124836 -0.0014650534001542305
0.199 0.006636643066745567 0.0020941423370618457 4.299534287732536 -1.519988795274616 0.002693332577475009 0.00390682857903737 -0.0011885309616363254 -0.001460776969845226
0.2 0.006829209279691942 0.0013851156678634752 4.125268974922244 -1.923130934130336 0.0029727071710521193 0.0037319797220783523 -0.0013329207190473519 -0.0012878892404578337
0.201 0.007071385576134121 0.0005882846467953506 3.9266595121614745 -2.2987582330191882 0.0031654959622999437 0.0035072153890172413 -0.0015477302856154427 -0.0011495114396359817
0.202 0.007015574129492846 -0.00018787490048993784 3.686806424501667 -2.6690326137981675 0.0034995664417350656 0.0032487091988310478 -0.0016468716081961265 -0.0009320515857649625
0.203 0.0070168954606210495 -0.000815318680404636 3.416080624858541 -3.004072509501835 0.0037100599873816243 0.002955453734002719 -0.001871766218236342 -0.0007768064346815119
0.204 0.006882088513332681 -0.0015362477586742778 3.106997883917843 -3.307351254825494 0.004101139051130383 0.0028378195294101274 -0.0019168439995805504 -0.0005493633235755574
0.205 0.006583605489105422 -0.002230954195194174 2.7946116187594088 -3.5817189956460127 0.0041918883968063 0.0025039827433265107 -0.001840806792101852 -0.00037111951655518057
0.206 0.006155526512160768 -0.0028504679792993783 2.439242858380677 -3.840100785397993 0.004541291256738865 0.002237496609581931 -0.0018703728654394034 -0.00028187608884200593
0.207 0.005728544390948434 -0.003406275265079965 2.054402414932042 -4.0483538197894005 0.004661241380835293 0.0017634430125451038 -0.001806364986855891 0.00012903623342779545
0.208 0.005024810674224344 -0.0039280195743581145 1.6596005495095634 -4.222424915963347 0.004784923079598892 0.0013882208980479397 -0.0017114602269061284 0.00019003360269807796
0.209 0.004398988699441533 -0.0042660581192001295 1.2607190909352703 -4.360721517292014 0.005093760780829706 0.0012055625138876146 -0.001801939120831755 0.0002195046690098878
0.21 0.0037597044598595844 -0.004604210505869495 0.8373075540813075 -4.461663070585437 0.005126945221358905 0.0007745820692211155 -0.0015901097745127683 0.0005438834015565134
0.211 0.0030476284208821405 -0.004712254609217852 0.39374979861415815 -4.493523804118945 0.0052443212933754296 0.00047415694804076383 -0.0014382692033407007 0.0005602155800823837
0.212 0.0024454384191646694 -0.004687105703187444 -0.015510386597098337 -4.5500223918382305 0.00535006558462012 7.489283398144491e-05 -0.001355969901149645 0.0007011799925391298
0.213 0.0015572220905652743 -0.004641423442629885 -0.4369257636661359 -4.511852505465 0.00528555333326102 -0.0003398632362355313 -0.0012109673228709746 0.0008444879664941867
0.214 0.0009983294925737052 -0.0045133656218327755 -0.8792875911229505 -4.425207273247069 0.005348803257465751 -0.0007273830544424476 -0.0010443414831163554 0.0008090712100149797
0.215 0.00014871896991371835 -0.004153212427637022 -1.29723264970705 -4.3370044832217785 0.005249343160194832 -0.0012039457355122471 -0.0009592056987114534 0.0008636726904333276
0.216 -0.0003819186259361247 -0.0036844488872228866 -1.708579085879201 -4.1820174106254875 0.0051997607759799724 -0.0015283891860216148 -0.0007764045631236769 0.0008332750855497001
0.217 -0.0008726052860371041 -0.0033458683057312113 -2.0711249886342755 -4.0052243018760345 0.005202297926625057 -0.001931225748622009 -0.0006040339235090817 0.0007093846293138776
0.218 -0.0014484628249821212 -0.002638066174061408 -2.4715736266494392 -3.783262237997751 0.005054197211038474 -0.0022886773093517884 -0.0005375034897643689 0.0005576653832020864
0.219 -0.0018973433033395862 -0.001971201001254918 -2.814043832410824 -3.544677303127789 0.0049341461038754485 -0.0026699917189567618 -0.00033670787551063556 0.0006369172104501155
0.22 -0.001953397656599418 -0.0014483256211255953 -3.1468474361441867 -3.2497764229805797 0.004869892701177988 -0.0031656144076538085 -0.00033052346257510213 0.0005567687111156286
0.221 -0.0020364142031373666 -0.0006429948819928987 -3.4384646490729613 -2.933484351206757 0.004505419904723134 -0.003442512547199857 -0.0003585058268800721 0.00040599731549200276
0.222 -0.001998900385205415 5.7798344852465124e-05 -3.6944647437012685 -2.591399089489651 0.004311124290984859 -0.00385892900601286 -0.00042923805631300637 0.0002908038368516333
0.223 -0.001975500777731053 0.0008160710043956037 -3.9455930042262426 -2.2266309462280782 0.004038213761226877 -0.004210320802874034 -0.0005403340764749716 0.00024526633231473016
0.224 -0.001693380000851788 0.0014591095588718064 -4.120784704328042 -1.8501983885749804 0.003756971276885416 -0.004471808753164228 -0.00047691564895902195 7.887270206750476e-05
0.225 -0.0013823000573502627 0.0019223462619984836 -4.257123396132933 -1.4341021320860834 0.003381929485149972 -0.004844291832608996 -0.000509792623229861 4.523154154296066e-05
0.226 -0.0007402936062272501 0.0027388979392189983 -4.404245504909725 -1.0326263207037525 0.0031342367224606064 -0.005107962762169782 -0.0006429290322308447 -0.0001530561352787156
0.227 -0.00038155099955739316 0.003148288325000638 -4.475611161558504 -0.6016467616318673 0.002786964211912223 -0.005345252901420157 -0.0007616857658869949 -4.5752774025467674e-05
0.228 0.00014091963153360545 0.0033534972217550973 -4.513760735890081 -0.19152556725941153 0.0023938118800081276 -0.005700962798461365 -0.0007789814759049456 -0.0001124047415309753
0.229 0.0007055275024349197 0.003723045599031086 -4.502593631654517 0.24089627449980047 0.001959139098078154 -0.006005916024835499 -0.0009111523093757735 -0.00012982828709031383
0.23 0.001515622226078113 0.00379067493731016 -4.455337173074766 0.6695814861659656 0.0014968579012690545 -0.006068744961809708 -0.0009911753638612148 -1.4732497443447703e-05
0.231 0.0020214193753227685 0.003979995682105485 -4.37724079023431 1.0730019719694908 0.0011363141488378496 -0.006126340418888613 -0.0011675898149829571 -7.285116939335321e-05
0.232 0.002712454471863931 0.0039506835347848865 -4.248970814487564 1.503335574069921 0.0006421360463745826 -0.006244632556349336 -0.0013022589776307992 0.00022395183341595792
0.233 0.003523687614028944 0.0037771431887375 -4.090156269776959 1.886264146447038 0.00015354062443745007 -0.006433323894296554 -0.001282150282384211 0.00025340025650424605
0.234 0.004130744218831607 0.003552657579699885 -3.8843997626804936 2.275263119661179 -0.0003200844571825037 -0.006288016336461329 -0.0015342060185692486 0.0003756395526612533
0.235 0.004658017139828971 0.003263472158069573 -3.6596610343494786 2.6315496628607895 -0.0006319590254013 -0.006461546112834484 -0.0015649786144836327 0.0006542436031437197
0.236 0.00522391617938275 0.002774865061049157 -3.391069700227017 2.9681670963514315 -0.0013226698503910406 -0.006374236878566141 -0.00149788901208596 0.0007308221309332417
0.237 0.005590902854660798 0.0024245378697822237 -3.0805914839774617 3.2711883756146762 -0.0018141946091734227 -0.006334997998612063 -0.0016220276006727638 0.0009524705651917579
0.238 0.005892400441975795 0.0018081886870577476 -2.7616207446757723 3.543668514125825 -0.0022383182211901886 -0.006231560808002497 -0.0015186970784438199 0.0010820268245872895
0.239 0.006176227910949243 0.0013381247851283493 -2.3973183521696435 3.769838555798784 -0.002703731758860502 -0.006099521113302135 -0.001479515308147599 0.0012438691296884632
0.24 0.00611747739587766 0.0006128643264215071 -2.033794797665011 3.996934770227161 -0.0031616919486625716 -0.0058803481712050975 -0.0012584016320450855 0.0015168459463919368
