!Created with skrf (http://scikit-rf.org).
# GHz S RI R 50.0 
!freq ReS11 ImS11 ReS21 ImS21 ReS12 ImS12 ReS22 ImS22
0.13 0.004444102367507615 0.0005707308531703545 4.608000445626085 0.90634587860647 0.002065173777641474 3.886021156506259e-05 -0.00017166420701169042 -0.0012342738594709366
0.131 0.004332728559328532 6.771492159337947e-05 4.667364647782542 0.47675007339428743 0.002137810182668919 -4.919907929754742e-05 -0.0003831683650613167 -0.0012896792289154755
0.132 0.004291957043841481 -0.00036287741438002514 4.68611251040522 0.0395371741900118 0.002147471050397673 -0.00023076091133594366 -0.0005254918060181316 -0.0011857087128213332
0.133 0.0041237671987094495 -0.0009356995820334757 4.678018421867977 -0.40545753166192905 0.002205466526744862 -0.000517354923559353 -0.0007949195004232315 -0.0012650250858611538
0.134 0.004091447913243999 -0.0013958624754143627 4.609018389728981 -0.8406684899595082 0.002158805217422711 -0.0005309284290154444 -0.0009106018572306889 -0.001054186607958647
0.135 0.0037613674586830514 -0.0018536261199091919 4.51309411219325 -1.2685486429869157 0.0020954490349946175 -0.0007496830788898008 -0.0009106796855393296 -0.0009583467697784154
0.136 0.003436595715775722 -0.0023373237729323033 4.370893704584023 -1.6874092378464705 0.0021802100973863656 -0.0007756931301658134 -0.0010116043937860389 -0.0008198664764961898
0.137 0.0030284592267274825 -0.0026869094578554037 4.195682277499494 -2.0945693681157755 0.0020708600945203923 -0.0010812536000856497 -0.001070149028057386 -0.0006368693506875898
0.138 0.0025744669567915037 -0.0032072713812769066 3.979385369284175 -2.484710181342306 0.0020797460082583362 -0.0012479494874215857 -0.0011865778679735278 -0.0005186343521165665
0.139 0.002019734280242614 -0.0033738948083244253 3.7300881126204097 -2.83441865861358 0.0020506851662690055 -0.0013921731465140173 -0.0012746553077132596 -0.00040878696719093884
0.14 0.0015163694954165986 -0.0036133673862803685 3.4414780569987893 -3.1743146885252727 0.0018958387283874616 -0.0015361832150815261 -0.0011389459200694953 -0.00022816531092616303
0.141 0.0008796214376076896 -0.0036882486653631347 3.1309976393941774 -3.4799484259833804 0.0017906894947873606 -0.0016281081754883717 -0.0013085915308839653 -0.00010191123600539353
0.142 0.00033184052332013627 -0.0038229718937812696 2.79972827392762 -3.7415698634043446 0.0016949299690849394 -0.0018379593520445054 -0.0011445408718838827 0.00014227483961671598
0.143 -0.0001863537012208733 -0.0037361428591344632 2.423902531524211 -4.006159491055242 0.001681363898456253 -0.002028080591804045 -0.0011249971648535791 0.0003709684306417725
0.144 -0.0009151323717369284 -0.0035747258406805256 2.033518750592313 -4.204194584517725 0.0014758079637833003 -0.002059635914006537 -0.001062866019273012 0.00024828405588506945
0.145 -0.0014253618758982378 -0.0034200051248269372 1.6359935454666976 -4.372936707786545 0.0012976085844084984 -0.0023015632484466855 -0.0009622498057156651 0.0005680462708169326
0.146 -0.0020612686796944416 -0.003136490254678915 1.2016433236771042 -4.500545486540716 0.0011779596109620775 -0.0024248180804897408 -0.000714427702806881 0.0007086065843197787
0.147 -0.002581536233292469 -0.0026798325466661334 0.8008584597197037 -4.587604059326407 0.001026277164393483 -0.0024752653419989378 -0.0005837274480825635 0.0007289368074717869
0.148 -0.0030063430671457884 -0.0024494572076320213 0.3570776457088285 -4.642293195982926 0.0007243356830608531 -0.002520221378267755 -0.0003720607100822321 0.0008432319908663141
0.149 -0.003424204564547007 -0.0018877047006717882 -0.06803076020993742 -4.640858814191551 0.0005963213603643768 -0.0026820427454713447 -0.0002807206811845282 0.0008708327698138223
0.15 -0.003688398278492155 -0.0012369175990440513 -0.5381037783779653 -4.611042088961932 0.0006123595743853786 -0.002647479319504776 -3.148127140670783e-05 0.0007221694793860786
0.151 -0.003988258142609138 -0.0006534373603582878 -0.9671634150389714 -4.553198851297348 0.0002932965902105155 -0.0027741553309500212 4.798867176560348e-05 0.0008016481045942563
0.152 -0.00408256069003026 -0.00021395793955272433 -1.3903593104958405 -4.475533813742707 -1.0685972931942819e-05 -0.002798894510308638 0.0002366913124136666 0.0008705119407359941
0.153 -0.004110548596729628 0.0007167125201572054 -1.7865997588729543 -4.320730096029817 -1.6732761119094045e-05 -0.0028538213378133674 0.0003285608536684356 0.0007218737440694924
0.154 -0.004012503656766281 0.0011541203801742395 -2.1594177914044197 -4.11117773372317 -0.0003665654470109932 -0.0029212025272966134 0.00043125576960171647 0.0006173292126966031
0.155 -0.0040976931909253375 0.001682283772513698 -2.496832500170799 -3.8934189122770664 -0.0005568630797971166 -0.0029319914923834193 0.0005572703256060869 0.0005101551256693269
0.156 -0.003751008322875265 0.002243404182007152 -2.865878997281192 -3.635350177351026 -0.0007806056819757931 -0.0029889373894310253 0.0006980428089315305 0.00046233249625101514
0.157 -0.0034398171760918967 0.0025657122207545795 -3.2072932975495183 -3.331234056260831 -0.000976114159338133 -0.002871679759811249 0.0006945388343032172 0.0002392680780234895
0.158 -0.0032344756257599748 0.0032054976307862083 -3.519331845991774 -3.024098564279965 -0.001105691858433155 -0.002776387007937228 0.0006941012395426335 0.0002190053685364619
0.159 -0.002669892299932839 0.003577453986743636 -3.765985696115635 -2.710342205920111 -0.0014284266899654947 -0.0027591205377438914 0.0008956589479750494 3.402095728520454e-05
0.16 -0.002285600179249899 0.003906932053463831 -3.9776870876452026 -2.3401154450490775 -0.001631061527713596 -0.002616193727224735 0.000727927801616242 -9.446120265975816e-05
0.161 -0.001784174422936975 0.004200862455074091 -4.181616437367763 -1.93743913030639 -0.0017549370336234057 -0.0026600808389478227 0.0008657994725474327 -0.00021749105272140235
0.162 -0.0014063060544802861 0.0042893250419584 -4.326427521194132 -1.5141662524578259 -0.0018988346271027656 -0.002503464686739954 0.0007602829367934921 -0.0003393696639079675
0.163 -0.0009206805753074115 0.0044278566560030826 -4.492064529418116 -1.1232509645574216 -0.0022086462376577467 -0.0023357055000049736 0.0007126336519954982 -0.0004590685343789392
0.164 -0.000488837791498806 0.004327191163968375 -4.571849341127887 -0.7087810328184693 -0.0024720460123076322 -0.002252224754512284 0.0005659759413855785 -0.0004787036019813535
0.165 2.3816331570825033e-05 0.004312687916369921 -4.616590954534531 -0.25330870413323636 -0.0025181971749016286 -0.00207411206067954 0.000499889625181285 -0.0006043969795226264
0.166 0.00030612855944069697 0.004212715355249545 -4.607527598957799 0.17473834597679552 -0.0028014807326937723 -0.0018334558573507634 0.0005179104477448813 -0.0006976253240591723
0.167 0.0005916584560466689 0.004136183121689721 -4.577293844565876 0.5962638093594037 -0.0028551835822760293 -0.0015862185400690976 0.00037172222524897545 -0.0006979594592359328
0.168 0.0009377959261726936 0.00395366880675195 -4.506845564555158 1.0256105649530651 -0.0030833973045236458 -0.001467094126722923 0.00022121774457547065 -0.0007801020597380543
0.169 0.0012927668404178047 0.0037436854837348296 -4.36233701435137 1.4450809839911682 -0.003130745958984175 -0.001223873733868426 0.00020783867041773452 -0.0006235651695927563
0.17 0.0013273312536041118 0.0033541930436728653 -4.224447994944626 1.8519302983227102 -0.003410841954819758 -0.0011072214601916975 0.0002490105620656943 -0.0006786749899685877
0.171 0.001387376776242968 0.0032407751197124487 -4.026766903637675 2.248610858243189 -0.003451860842112266 -0.0006880858233297998 7.000158922533418e-05 -0.0006181426381647046
0.172 0.0013737343342216783 0.002894809389714207 -3.805054579268258 2.6006530785669586 -0.003530223552174212 -0.0005295640496027273 8.189832836378138e-05 -0.0006287027795675154
0.173 0.0012612818863622338 0.0026555058535706207 -3.540663131954109 2.9455552646131453 -0.0036513326787427484 -0.00029588395331732513 3.745702801276927e-05 -0.00048827715529094266
0.174 0.0013494399939328874 0.0024225603311486287 -3.2409350148573077 3.2648866561562233 -0.003583867268204302 -1.7103723072054325e-05 -9.91318221582937e-05 -0.0005811855852188995
0.175 0.0011486462857858413 0.0022511193334318774 -2.929200635405139 3.549458413722559 -0.003577113078119794 0.00015178221698604384 5.143039065686948e-05 -0.0004417563052291988
0.176 0.0008882024303078092 0.002284469821007067 -2.5799854647610836 3.807602337534598 -0.0036895782696955864 0.0005005924318926377 3.4712957488213243e-05 -0.00048041264794739284
0.177 0.0007909560518917133 0.002167614482705408 -2.215098343534476 4.0154902667516295 -0.0036230550750831524 0.0007835390810034194 0.00018751977915258734 -0.0003631185195983971
0.178 0.0004752931457226378 0.0023039618748530452 -1.832198972635441 4.207492092280012 -0.0036418987429723475 0.0010383886018905245 0.00020196843835724074 -0.000450895663763481
0.179 0.0002523780180558947 0.0023264290314360552 -1.442336383385558 4.364016636087518 -0.003667034757170379 0.0013081391629162803 0.00027974813887699277 -0.00042393950179205357
0.18 4.807365315581327e-05 0.0024825448705541025 -1.017849427324415 4.475561215390694 -0.0035870008257023033 0.0016417839235937821 0.00032370003728346837 -0.0003704061985544572
0.181 -4.527669766984459e-05 0.0026455819847558165 -0.5874942114486759 4.558489442172774 -0.0034613841487429347 0.0017589099152331654 0.00030138132234195264 -0.0004988055453624839
0.182 -0.0002648607266270168 0.0031382331904061304 -0.15729342175935634 4.603270462746301 -0.0033392877540488583 0.002291678459521352 0.0005268757506378044 -0.0005831129389130567
0.183 -0.0003882500299637014 0.003496615729764878 0.2707577596298046 4.56473093650928 -0.0032800192911314643 0.002329507832203424 0.0005234806154015334 -0.0006527901789237698
0.184 -0.000499513359390244 0.0040183735747960445 0.6779853042943816 4.55775953021139 -0.0030461213491730275 0.002707594248039024 0.0004918394836797961 -0.0008094683246094819
0.185 -0.0002962751249251747 0.004441403948629495 1.111814614783496 4.4657294651106625 -0.00289796451283073 0.0028673056696803365 0.0006422032807864011 -0.000815202397086406
0.186 -0.00024229064059142088 0.0049319392903960525 1.5187078923245203 4.343202770334023 -0.002716929404637756 0.0031280531157970863 0.0005247967817997194 -0.0011049083801746944
0.187 2.657233727826866e-05 0.005413228620042221 1.9204810239169192 4.166592495521719 -0.002559457239173442 0.0034554578700454314 0.0006194780617155642 -0.0011745176513086597
0.188 0.00034166259531538917 0.005854659414835905 2.287482785331565 3.9842750773151567 -0.0022369718501457025 0.00359406403547147 0.0004011657882813605 -0.0012726378611960327
0.189 0.0008482965168300604 0.006443451756522345 2.646096843254172 3.717995405135289 -0.002082931532241342 0.003686845551409347 0.0004471154544802728 -0.001404700190939886
0.19 0.001302532486573285 0.006893973650847891 2.9757520861303823 3.4887310099269135 -0.0016275039883054654 0.003940535385375331 0.00038052969931241337 -0.0016416158048840473
0.191 0.0018396020665569965 0.007206371359219915 3.291417609618189 3.189126953968958 -0.001461824999359859 0.004058465077738634 0.00014826337493384684 -0.0018547617961747836
0.192 0.0026744902956249714 0.0073465432427489465 3.5487426727480123 2.8297168660515952 -0.0011850868492082397 0.004336361523621373 -3.588270380170369e-05 -0.001893001485351595
0.193 0.0033484269252289076 0.007722441739867471 3.836559828099041 2.5127416751871796 -0.0008315383203762064 0.004357139831107632 -0.0001723615312909545 -0.0019951655737913267
0.194 0.004264695656701633 0.007755323321375976 4.025506659524848 2.1495614600675905 -0.000592568095923437 0.004449421298499109 -0.00043270962148290375 -0.0020647934502823024
0.195 0.005080151050399803 0.007652012956825054 4.2121459825896785 1.7354830081875299 -0.0002440284525206969 0.004537939938165002 -0.0007141967728331801 -0.002262453267212511
0.196 0.005922522938324271 0.007678200570363837 4.355949875245238 1.3382449146311786 0.00010346548622298719 0.004612000662196943 -0.0008433058135304091 -0.0021995756768298453
0.197 0.006926094605924245 0.007473673864258036 4.4560524669914745 0.9415682265105539 0.00044464206264470754 0.004530358035063297 -0.0011856430342950036 -0.0022932270790568883
0.198 0.00785932785781829 0.0070330302581322526 4.534242258415896 0.5070043313380276 0.0008007979777286495 0.004611379526514695 -0.001363238595238516 -0.0021710835574867632
0.199 0.008441241300719788 0.006641483718987763 4.539961519684671 0.09783816370204065 0.0010015182590160804 0.004520473816948245 -0.0017295688195881934 -0.00211747572073752
0.2 0.00944132346019006 0.006052408641000485 4.534655839983651 -0.3461939448284117 0.0012823140772668588 0.004593458378326782 -0.0019562694264101134 -0.0019885435723536594
0.201 0.010061016754396534 0.0054055373316425175 4.481750770901339 -0.7551323575233432 0.0017826412175080586 0.004501182496987801 -0.0022907153748334026 -0.0018462093014018537
0.202 0.010696200761473446 0.004534459756729816 4.387128367777589 -1.1683575538622673 0.002180130818364943 0.004456043305406173 -0.0025056366542599655 -0.0016707557702862743
0.203 0.011113639888028378 0.0036026654939773414 4.250762390204198 -1.576507808141336 0.0024426217721606478 0.004236746487807971 -0.0027769796512277633 -0.0014039892823507528
0.204 0.011756977810229033 0.002687203448259239 4.090201874927866 -1.9669531162279257 0.0027476752522994858 0.004137480587348944 -0.0029907897306094768 -0.0011532064444153875
0.205 0.011890518669746011 0.0016459489233252088 3.88955199189023 -2.3259944055321236 0.0030690818737999395 0.0039150246430765855 -0.0030644309381726957 -0.0008005451283303221
0.206 0.01196291906153891 0.0006224775731526577 3.6473635655773426 -2.678374455812771 0.003370021285037285 0.0037292164332091296 -0.0030919142391801872 -0.0006088864489153232
0.207 0.012181419458011216 -0.0003527980392977724 3.3895460585591333 -3.019685217444648 0.003666357686431658 0.0035052259990125487 -0.003244657217681738 -0.00024556878291545875
0.208 0.01201742387343357 -0.0016506793923512203 3.0874561871722466 -3.296893901558039 0.003976569243264897 0.0031173281644592435 -0.0030725088765942428 8.087571364435974e-05
0.209 0.011762857457606904 -0.002526268081994935 2.7574250987944304 -3.5965916499823156 0.004247104196910594 0.0029798997012322383 -0.003272170717660922 0.0003164251866245946
0.21 0.011449993505511536 -0.003609096326411118 2.412726645316604 -3.817017065144494 0.00451138367421705 0.00256176496782886 -0.0031513649363227973 0.0006054313209530578
0.211 0.010922819968399259 -0.004433692518480561 2.0505001701243004 -4.035549425819214 0.004618633898203547 0.0023650242139568946 -0.0029699372927832635 0.0009261876297636824
0.212 0.010299723166761894 -0.005411551912340026 1.6658648797939806 -4.187130688342418 0.0048766945629839815 0.0020400827232334774 -0.002895992237847229 0.0012437487155271174
0.213 0.009691115145164502 -0.006255508005605192 1.2630995396682585 -4.317059791407469 0.00497419225865576 0.0016814225264982934 -0.0027544091152029225 0.0015228684944851888
0.214 0.00901655511860131 -0.006847620337451076 0.8578690219799386 -4.444080397177825 0.005235630558504779 0.0013052945264952357 -0.002314039803716643 0.001790711881136343
0.215 0.007896165384261855 -0.00745999927589054 0.44619570288382526 -4.495734358089345 0.005378329924456315 0.0008167812010257781 -0.002266374974463712 0.0019207510213312636
0.216 0.0070930796892241885 -0.007883605911841717 0.02279889248020601 -4.518985457368776 0.005544227159456927 0.0006612815771586637 -0.0020704565130443826 0.0020614420943603374
0.217 0.006131736473685746 -0.008249455627204708 -0.37822589808293705 -4.499757139073658 0.0055432440687147155 5.0090701982533466e-05 -0.001803285930823943 0.002304860034129144
0.218 0.005281917907469727 -0.008456683943651414 -0.8229085547610748 -4.424863144077774 0.00557219245421861 -0.00026558118898281006 -0.0015428006651609571 0.0022960648560209555
0.219 0.0042241457765184 -0.008518817538234563 -1.2276101699772932 -4.336928046843597 0.005479899670058306 -0.000611444407898181 -0.0013205655250951639 0.002313072088867124
0.22 0.0033461709896694617 -0.008564881335981905 -1.6146327493323864 -4.210551638778824 0.005488825167125922 -0.0010003204711467424 -0.0009200301970815336 0.0025423135115313846
0.221 0.002524149645146481 -0.008376483104682858 -1.9835781692322796 -4.017464108896516 0.005621707104461568 -0.0016003909507206174 -0.0007160713803678206 0.002390460866649033
0.222 0.0016268390789002532 -0.008072199169779545 -2.3770641641949655 -3.825537539756884 0.005493244837369629 -0.0018545825945256768 -0.0004308221068461095 0.0023477256445789425
0.223 0.0008255698649659365 -0.007639274142733098 -2.744160714314763 -3.618985672160691 0.005241660479151169 -0.002239095197186853 -0.0002561952615574561 0.0023275708427297807
0.224 0.00020842548296961464 -0.007208195654357434 -3.0457637680849383 -3.327509687672105 0.005408770579390004 -0.002757416016093315 -4.933153112871319e-05 0.002192299917990022
0.225 -0.00041158533498343954 -0.006691923576192157 -3.3400554721916142 -3.0123510552447366 0.005031677703980785 -0.003075282233123301 0.00016868921824159612 0.002112100185840397
0.226 -0.0008131321184913879 -0.006169850581687654 -3.6181699240723164 -2.6727267839775775 0.005037040368797035 -0.003513173333049908 0.0004456111064023056 0.0018183772381061938
0.227 -0.0011855945926607062 -0.005600309388870778 -3.841512338673067 -2.338977609135466 0.004632466797414486 -0.0038413087455632846 0.00040466366907675037 0.0018413539118294687
0.228 -0.001465387565341734 -0.004882214267692494 -4.053061813993381 -1.9624638743830802 0.004433575497966022 -0.004275908147048333 0.0005127216608068291 0.0016584171703164792
0.229 -0.001615706476122125 -0.004400802937116492 -4.213557777156754 -1.5819365321904155 0.004204555935735012 -0.004527363837325006 0.0005955101948226507 0.0014584572771763377
0.23 -0.0018127417433106666 -0.003699372493101187 -4.348387166558382 -1.1835956545085011 0.0038454885163180003 -0.00490199274658413 0.0005074213864697806 0.0014251892845706063
0.231 -0.001692910614869109 -0.0031542693642112917 -4.427191833033681 -0.7657035313364647 0.0034844278844902896 -0.005186444997487706 0.0006091539791158746 0.0010621814140844889
0.232 -0.001551885288937972 -0.002651084185014485 -4.483937509610698 -0.3528935353012914 0.0031227725005515783 -0.00541988850872615 0.0005993017859298844 0.0010893868819152493
0.233 -0.0015007013695461228 -0.0022659695747800413 -4.50431931081069 0.07125096922728526 0.0028451397012554747 -0.005809757943956315 0.0006638703072473655 0.0009096897497471079
0.234 -0.001328934238691031 -0.001835165694183699 -4.474362944337539 0.4727419823814177 0.002202161018820191 -0.006054240224970739 0.000585134896381486 0.0007030118749832924
0.235 -0.0011399492933688497 -0.001478502008562649 -4.407775785327304 0.888012980171093 0.001888396338041041 -0.006119914288729751 0.0005048444792022425 0.0006191469858915839
0.236 -0.0008620162533543702 -0.0012368210381919634 -4.285474869702967 1.305729735253743 0.0015966614411572432 -0.00638346123148352 0.0004804102901683117 0.0006345955494127322
0.237 -0.0005612643157718639 -0.0010928718670596706 -4.150764746357354 1.6888800914247415 0.001072667352478576 -0.006359391200415884 0.00042065517200092357 0.00043915232893992125
0.238 -0.0003337393356782765 -0.000999252617255888 -3.974325304448911 2.0813165111493945 0.0005663162909379012 -0.006597337477305803 0.0003353505709722831 0.0005453211420057552
0.239 -3.847511866519087e-05 -0.0010108780936999033 -3.7592871670468915 2.422405072730417 0.00021690842352691724 -0.006612081864298427 0.00027502473837630716 0.0005364169909294072
0.24 0.0002075113833278689 -0.0009135954057061472 -3.521023385198411 2.7679745950906463 -0.0004353686198959422 -0.006560199958592839 0.0003043230837335129 0.0005469449280637393
0.241 0.0003189726513841155 -0.0010706656514125098 -3.2531823725990816 3.0829422942045808 -0.0008834765220983522 -0.006753360377717821 0.00016536755672121514 0.0005175801876458311
