!Created with skrf (http://scikit-rf.org).
# GHz S RI R 50.0 
!freq ReS11 ImS11 ReS21 ImS21 ReS12 ImS12 ReS22 ImS22
0.13 0.0007836133169449044 0.0017691054010633592 4.683616659055762 0.2826664237581698 0.0020801354334702648 -0.00023770185628529066 0.0005273424086788838 -0.0008128244551295715
0.131 0.0007226579808501817 0.0015431477739824004 4.66835916556627 -0.1464044473036965 0.002138782408319846 -0.00027676556455221807 0.000413687392014255 -0.0007370998345613261
0.132 0.000709912183006286 0.0013908188810597812 4.643217103634151 -0.5966640364877855 0.002170410462553801 -0.0004701577849018953 0.00034242656164387735 -0.0009360409292792847
0.133 0.0006802790965329685 0.0012140461174573844 4.5575140013538284 -1.0395106703945425 0.0020643262395272583 -0.0006901662062390424 0.00033563627779848495 -0.0008770421695649991
0.134 0.0005646558446099802 0.0010629245190982056 4.443924109433316 -1.4642947560887576 0.0019897252774141692 -0.0007764960481764648 0.0003261911412628103 -0.0007681669365279131
0.135 0.000366392982526173 0.0009479129340646629 4.290087987494505 -1.8821879607956904 0.001974832159660347 -0.00089182489705622 0.00016309266314673456 -0.0008027465290026028
0.136 0.00020311706805941374 0.000781438105390026 4.086843000068632 -2.2782306546751907 0.0020395807785764603 -0.001217332947740432 0.00011281170872326275 -0.0007260343471175428
0.137 2.3408535982659097e-05 0.0006390994831976659 3.846572944016011 -2.6527602050176595 0.0017995248401691962 -0.0013703277651281537 0.0001496120586415853 -0.0006181639625524513
0.138 -0.00023207012571469928 0.000596767338262228 3.5811843323388364 -2.9987348984614806 0.001888498031483266 -0.001332632354559286 -6.061957434057793e-05 -0.0005987373850402676
0.139 -0.0005997912607437157 0.00068600374906686 3.2852470168741363 -3.3271733252073226 0.0017920829360918316 -0.0016474312702618088 -1.0038872528465699e-05 -0.000523947872991549
0.14 -0.0007725724891602691 0.000735751014420087 2.960675305743813 -3.6196544673291497 0.0016482924256945814 -0.001684650636695794 9.357246143871066e-05 -0.0003967817232154288
0.141 -0.00099596358856433 0.0010443810113182853 2.5867738149591433 -3.886562988362432 0.001576243532883486 -0.0020514480887697736 -4.638635672552143e-05 -0.0005010696934974634
0.142 -0.0011543185128574513 0.0011162343123959494 2.207526597002884 -4.117154503997836 0.0013910847239156662 -0.002012996115896975 0.00010078444352194461 -0.00047767538302467507
0.143 -0.0014260903707033702 0.0015052501165214764 1.8097296076600857 -4.312417232126115 0.0014109263083875688 -0.00226035376302677 0.00011324065991419304 -0.0004962065790395008
0.144 -0.0018189618830737784 0.0018570574395967295 1.395086727106745 -4.44259729274729 0.0013269151435934957 -0.0023926640382172792 0.00014106138534810135 -0.0002974094308259115
0.145 -0.0017005001272582911 0.002209889242501473 0.9696300278526496 -4.557167208858927 0.0009304314732167211 -0.002445760919080548 0.0003414480739009734 -0.00031014959351640325
0.146 -0.0017268509929407871 0.002569219944910343 0.5296882873154384 -4.632166946790846 0.0009346138403300986 -0.0025602244102660675 0.00033298926500879606 -0.00033305737852603473
0.147 -0.0018443633750328437 0.002988192328850321 0.09099880889692007 -4.666349125317251 0.0005898800306211604 -0.0026369447564856736 0.0004576537583914672 -0.0006439721001046757
0.148 -0.0017926337017351488 0.0035218024365614134 -0.3433592061495631 -4.624722459464692 0.0004575940274353969 -0.002622317784090334 0.0004963704811909485 -0.00046110458621037104
0.149 -0.001667303892324353 0.00390053601377884 -0.7797841616405105 -4.586775636680411 0.00034135255748629086 -0.002712792293416285 0.0006132830791114516 -0.0004390928579881636
0.15 -0.0013413331972287497 0.004337543857145865 -1.2154598544404516 -4.492028435087224 0.00011357827242720647 -0.002846240723989702 0.0005525601952111885 -0.0006570586702599782
0.151 -0.0009995178676476485 0.00487534602088671 -1.6305743637910806 -4.364797550201652 -0.00013726518484787422 -0.002722142566112408 0.000638895270877953 -0.0008018540169441018
0.152 -0.0005852539870147313 0.005111918105433147 -2.0218998993879342 -4.157732628730941 -0.00039125225713817254 -0.0027378407757199124 0.00047037982056715024 -0.0008317242525641292
0.153 -0.00033579455110203254 0.005533529551084321 -2.3988798422163837 -3.9356654813958496 -0.0005067070918125827 -0.0028599943452379344 0.0003855477652877592 -0.0009447927840227404
0.154 0.0003092827950262333 0.005751406171039825 -2.7675977030860195 -3.70310212690931 -0.000715384390060079 -0.0027897121712139408 0.0005079375823076921 -0.0011348028929841646
0.155 0.0009980096971565124 0.0060167767842597515 -3.103706481629931 -3.4141072391091902 -0.0009919032601704274 -0.00269602755550618 0.0004027999395692692 -0.0012994171861583962
0.156 0.0014146644332412443 0.006137128776775001 -3.4031009421391167 -3.1363413669522173 -0.0012304901346528476 -0.0026898519798149983 0.0003239958003533986 -0.001322499316793714
0.157 0.002079550841482485 0.00628481861648004 -3.692526783776404 -2.7699089192510162 -0.0014604007832119453 -0.00268710179436177 0.00016613232174117186 -0.001430373118320215
0.158 0.0026705818735831425 0.0062042816084684925 -3.944206593156549 -2.4162732027818143 -0.0015921174374864534 -0.0025070374161948665 -7.407396133453495e-05 -0.0015312408421637763
0.159 0.0032931901395282593 0.0061444892821390954 -4.132152716346556 -2.0468661424738546 -0.0017808047603288415 -0.0025289146984188203 -0.00017288220223605398 -0.001563796915664328
0.16 0.003984192979838949 0.0059865927792143074 -4.306644362282195 -1.6222471235994587 -0.002084100134812435 -0.0024274052212351384 -0.0003228795361036654 -0.0016163130191395396
0.161 0.0046011387475711 0.005730098508728042 -4.427786385111774 -1.23639033509641 -0.0022068120215912594 -0.002266592236346786 -0.0004974771592718718 -0.001660316050165252
0.162 0.0052649661735827075 0.005142562586706161 -4.524603974211762 -0.7711190089481585 -0.0022929859958047308 -0.002174180505437673 -0.0007026050624038959 -0.0016050963149538981
0.163 0.005810302917924959 0.0046779332464205355 -4.591068102081993 -0.366994431721443 -0.002636049046623519 -0.00204737874533766 -0.0008024376726234297 -0.001659575541270393
0.164 0.006062071956639721 0.004240706195425103 -4.600936216436036 0.07591688674794801 -0.0027531294111048927 -0.0017219125283916429 -0.0009359012007176297 -0.0015335814327507194
0.165 0.006606981683062013 0.0034883320668815184 -4.56952728661314 0.5187384763850058 -0.002836005322044568 -0.0016358220002916002 -0.0012023494112035928 -0.001417918530383791
0.166 0.0068100272980686615 0.002805994526790116 -4.499261190213298 0.946092878846721 -0.0030600248783077435 -0.0013122198457425354 -0.0013935357921052893 -0.001209715171380117
0.167 0.007110877663897961 0.0023395762015895336 -4.386836569852081 1.3582149556393928 -0.003026275588402284 -0.0011892225423220113 -0.001504392302237919 -0.0010521644858217758
0.168 0.007097723747642387 0.0015648990571061022 -4.247167756247902 1.7809852491008253 -0.0033240649828827416 -0.0008814568835035329 -0.0015823012329474473 -0.0010263319002603176
0.169 0.007016370890770016 0.0008520653543062906 -4.064163623038699 2.1730532570730072 -0.003360748155567768 -0.0007431370676909154 -0.0016808260304617341 -0.0008005878699821563
0.17 0.007051308470020183 0.00016058624073593932 -3.831940346534524 2.5445796402959258 -0.0034105051633701853 -0.0004907018181064761 -0.0017937073724831807 -0.0006151618283355921
0.171 0.0068496563583172404 -0.0005287141160757684 -3.565531653800996 2.8937561602397355 -0.003638496508624282 -0.00011811874216067329 -0.0017844148622589808 -0.0005014188790062201
0.172 0.006624123211891032 -0.0010719121953738718 -3.2741243108805764 3.221863758294762 -0.0035342513229573436 0.00011811158898060388 -0.0017808460489910473 -0.0003305626640804498
0.173 0.006212790210999011 -0.0016614212017771058 -2.9620632023774585 3.5125053408165035 -0.0035489347672680105 0.00027979413705677314 -0.0016537650214732181 -2.1874506291684454e-05
0.174 0.005711213897936564 -0.002281364714714389 -2.6115865758263603 3.775018372681555 -0.0035733187006602224 0.0004724191970329122 -0.0016880510560729083 0.00029741162311410353
0.175 0.005221599178713294 -0.002744035284758343 -2.2500224194928475 3.9965861130087297 -0.0036707264881941292 0.0009003432899985563 -0.0016544149798838933 0.0003767279846478831
0.176 0.004571257416717886 -0.0030751967959802584 -1.8526830260784275 4.194242626904668 -0.0035806463689821615 0.0011300470998195475 -0.0014788437685005684 0.0005723069746677804
0.177 0.00413392608928938 -0.003307644293572214 -1.4542974819512478 4.359273117282647 -0.0035067044151205783 0.001391279462944112 -0.0013048813500142337 0.0008089621878951015
0.178 0.0034585443604787623 -0.0033836711386420974 -1.0488438452708762 4.458367663096094 -0.003328590026041917 0.0017057316885771235 -0.001240763578067619 0.0008420848654369431
0.179 0.0028119818902398713 -0.0033944348073799654 -0.6129689499506005 4.536411246265568 -0.0032123638923321663 0.00192958684831809 -0.0009916075082209346 0.000809501138672428
0.18 0.002191192287083249 -0.003314702365469862 -0.16629287833021417 4.5914720301375045 -0.0031659132218090106 0.0021663513515479526 -0.0007750746992630131 0.0009856630882990663
0.181 0.0015720482677443056 -0.003275156358258687 0.24086016347714836 4.5720291304274365 -0.002900635617876405 0.0024589660918206053 -0.0006532018861699472 0.0009592148845311085
0.182 0.0010487403789549439 -0.0029998454624300666 0.6868069062887723 4.5300186963310605 -0.002897787029901414 0.0026970636896704566 -0.00044615349562471463 0.0011281132687392312
0.183 0.0006415952874336859 -0.002653303406210241 1.1239861945012912 4.4485813493618895 -0.0027635835331121378 0.0029716940245084595 -0.0001533809411957279 0.0008664119856367475
0.184 0.00023468851450513412 -0.0023148605640387794 1.4936128606625392 4.301532342399222 -0.002446110782816073 0.0030708829743885777 -0.0001522924429015297 0.0009705277688157847
0.185 -0.00015857317262117402 -0.0018927305872822977 1.9256175743777657 4.182235889377803 -0.0024984251472549277 0.0034560998683712337 6.785926357789364e-05 0.000828292468350969
0.186 -0.00029155807132857394 -0.0014600380672014916 2.3036938741227124 3.9582665219469084 -0.002008844050577938 0.0036699414869318134 0.0002821536043292133 0.0006740193625742642
0.187 -0.0005743370318864201 -0.0009067037353321577 2.6547814331633766 3.715700651603473 -0.00174053480208123 0.0037499290226308047 0.00041636880996529576 0.0006704925929866115
0.188 -0.0006406216946699953 -0.0004524847414742094 3.009648979734755 3.447225267997809 -0.0015626836168639619 0.003984619575810512 0.0003543968286846602 0.0004389882938427895
0.189 -0.0005540544936578749 0.00013886371623020446 3.2925921077027347 3.1371628977194272 -0.001275518578544767 0.004078368195030606 0.00042655821580219226 0.0003566629695159332
0.19 -0.00048213326615934623 0.00046242490330449584 3.589833013275096 2.820682039561813 -0.0009031085160172848 0.004231764738109901 0.0004463778755842637 9.846082902630496e-05
0.191 -0.00013817949803742732 0.0009439420073140672 3.8362459025837996 2.4421201113789617 -0.0005246188413070666 0.004336207990124007 0.0005383254186966111 -9.303975135900991e-05
0.192 -7.741173591250045e-06 0.0013202797922703404 4.023586707651766 2.100913702395762 -0.0004109496651249287 0.004380542575939477 0.00024085851780884177 -0.00027097275515304987
0.193 0.0004092940285091612 0.001692626584476143 4.236364803467461 1.683445938983834 -6.263583887817095e-05 0.0043955155056073884 0.0003889066765996023 -0.0003601660080471667
0.194 0.0007220495329101185 0.001910139687563069 4.366995745086503 1.2862797116009101 0.00018258273813431122 0.004416746615897936 0.00033302636737396636 -0.00040295670825419514
0.195 0.00125909644256379 0.0020289537084128466 4.483404177145099 0.8524280852304316 0.0006352701364918953 0.004560785707529616 0.00022336266201727448 -0.0006099290390724237
0.196 0.001605623282507774 0.0020414426660338597 4.501257526199468 0.44986249961554114 0.0008931313079116478 0.004414523823847567 8.758264797090842e-05 -0.0006253482321412424
0.197 0.0020756698343736995 0.0019650358237355307 4.5341537942576515 0.015323464247243974 0.0011920757553574393 0.004331725424894243 6.802873424473295e-05 -0.0007745309729261824
0.198 0.0024663369828871115 0.0019313855290383182 4.530872748826675 -0.41995027728946827 0.0015733107225898374 0.004403733412609437 -0.00015886734559914965 -0.0006699747776008284
0.199 0.0029222468425822708 0.0017536944898103536 4.462296858404019 -0.8339232836568984 0.0019823372252172635 0.0042564381604051635 -0.00029633181970653767 -0.0007744949229177376
0.2 0.003292260018985558 0.0014551977800249104 4.356597629440823 -1.2396769366975238 0.0023312656860716907 0.004174114944082924 -0.0004021281922456071 -0.0006716370413021033
0.201 0.0035745997925087382 0.0011548603236250891 4.232534784327318 -1.6498473190209304 0.002748607438599334 0.004047538903620056 -0.000540905265422449 -0.0005604295719477591
0.202 0.0036867956658611705 0.0007738390936288099 4.047185148398303 -2.0421123737674107 0.0028806964478627355 0.0038312301650387124 -0.000750995176981663 -0.0007070449981173455
0.203 0.00390874470626554 0.0004044614104713638 3.8365121719248205 -2.406967599578848 0.0032108837456106794 0.0035952703869946315 -0.0006822348979518808 -0.00047039524040201185
0.204 0.003895031517357707 9.989313716441685e-06 3.582880614539024 -2.7560388540863 0.003549561981468431 0.003456651263558491 -0.0007211758119210229 -0.0003352129634218227
0.205 0.0039185799707134724 -0.00042477836097912274 3.315756748615421 -3.079759323851327 0.0036850650710774737 0.003313955467938973 -0.0007541174879663742 -0.0003908712867464344
0.206 0.0037650477880555827 -0.001009460557123752 3.0116067506025606 -3.379086369982535 0.0040505322116058395 0.002895679586679813 -0.00083805093557403 -0.00017574591751245866
0.207 0.003599124564624077 -0.0012972754193438306 2.666311445718427 -3.6486343510743473 0.004229572156367536 0.002607777559343693 -0.0008127595500176527 -9.204098964637919e-05
0.208 0.003257415442705428 -0.001760589204231531 2.3023074283356237 -3.880359471982939 0.004579288903508128 0.0023938552517235603 -0.0008710985231222293 1.4016970576087195e-05
0.209 0.002838691921382684 -0.0020630218484754804 1.9343259691756893 -4.076836840435068 0.004736825216638266 0.0019833734161014667 -0.000712071145022802 2.2436051114064377e-05
0.21 0.0023840103235586263 -0.0023390890779340042 1.5421927720837652 -4.240737793390279 0.004935596746436465 0.0016838572647660686 -0.0007832031066340357 0.00021237879607603443
0.211 0.0019920130653511415 -0.00259475973266819 1.137948940656441 -4.362069105773319 0.005096445556625704 0.0012781164638691197 -0.0005866651561985517 0.00026388857160172384
0.212 0.0013206657146261392 -0.002701919456245337 0.7302675958080214 -4.445793284770542 0.005247804452187517 0.0008353429143591931 -0.0005346071022958342 0.00045899824397654796
0.213 0.0008417240644336211 -0.002686843439085984 0.32164255321967267 -4.481147369077325 0.005365530965196387 0.00046216706278924926 -0.0004285430098202022 0.00022197252823260896
0.214 0.00035946358089793557 -0.002482752914637407 -0.12610408124187367 -4.49920968358538 0.005342537519371394 0.00020049311079532232 -0.0002328254126422956 0.0003312578504374325
0.215 -0.00036809917126858817 -0.00226313114997511 -0.5449905450019775 -4.45113518627366 0.005332454800945068 -0.00017516358657678908 -0.0002323731434793748 0.0002509676239189825
0.216 -0.000815355131614273 -0.0019410607388142497 -0.9910817947749736 -4.395261711923159 0.005448674281051939 -0.0005922396260059919 -5.2970717421403225e-05 0.0002672539024261018
0.217 -0.0013532287703972867 -0.0015910051529464835 -1.3622402750632234 -4.287833173546983 0.005456541372389848 -0.0011715905841300754 4.762800621996503e-05 0.00010670005098733164
0.218 -0.001748973799857405 -0.0010008868055641283 -1.800366038052537 -4.145194579991397 0.0053432448435053815 -0.0014638315853045104 4.90644432492244e-05 6.453671518689952e-05
0.219 -0.002105516516549556 -0.00044064440071547075 -2.1707835397120174 -3.95042672861477 0.0052892068128506916 -0.0018748327607587894 5.013738005388049e-05 -5.605334742067274e-06
0.22 -0.002233053883979493 0.00027233027090542254 -2.5215098332448322 -3.7071349732950187 0.005134179172581865 -0.0022467786228709 9.302974765537262e-05 -0.00024409009194308612
0.221 -0.002517553051954104 0.0009569572439942886 -2.8703700236576783 -3.4694886795976534 0.00503389982992536 -0.0026203733385908225 0.00013225418925458878 -0.00041856100154732376
0.222 -0.002435167546027657 0.001679517543868447 -3.2036156132849185 -3.191407793778441 0.004881912023245155 -0.0030635308855623943 0.00015788430829882918 -0.0005295596334184795
0.223 -0.0022784351241790183 0.002550669852362517 -3.4692853494671856 -2.870998726973301 0.004648829025314294 -0.0035004116693709147 2.026788680784383e-05 -0.000653161137789081
0.224 -0.00205968154668585 0.0032584874990807104 -3.7071049944134016 -2.5211197928666516 0.004451768732105452 -0.003690190969139286 -9.847484853516316e-05 -0.0007740755557258122
0.225 -0.001665093910012629 0.004085920173143447 -3.9449504333796868 -2.155883718764147 0.004281323848334943 -0.004152798601842283 -0.00031268470795436714 -0.0009610067996125062
0.226 -0.0012092236779504672 0.004680986813218189 -4.12623109183042 -1.7821071745857504 0.003980327540055307 -0.0044715323381737 -0.00037885327470418893 -0.00105996295225585
0.227 -0.0005715703568013942 0.005488516797940633 -4.281646190594101 -1.3647752601981804 0.0035644305422101057 -0.004885675058774835 -0.0005479125847943101 -0.0011562195885679138
0.228 8.246598969098686e-05 0.00590004512135948 -4.376566943900427 -0.974018764672159 0.0034192620762192377 -0.005195134472475814 -0.0007232531886898668 -0.0011636163929139786
0.229 0.0007720361934184456 0.0063269531063545326 -4.455829942369199 -0.5606802077118411 0.003018347957825253 -0.005352352391584082 -0.001050672461201483 -0.0012359693600074843
0.23 0.001786544936881694 0.00679329681295698 -4.485361320048384 -0.14010108286474593 0.002625305949173861 -0.005460888843977245 -0.0011977776878862483 -0.0012457626570942654
0.231 0.002576598619059265 0.006872850194880094 -4.470883619721434 0.26549707547894763 0.002196556941214039 -0.005897009484857656 -0.0013546769962222466 -0.0012450758646981226
0.232 0.003508010332212355 0.006861134951475451 -4.42916490235632 0.7015108041647858 0.0018462826539423622 -0.006071473908917885 -0.0017228095153649873 -0.001005657456420017
0.233 0.004388602406181258 0.0069934894252080635 -4.339075653077959 1.119636735588803 0.0013649445954216576 -0.006208931389841851 -0.001950744145175726 -0.0010036898219567972
0.234 0.005422814673667638 0.006788390234670574 -4.214929118218575 1.5094224810451249 0.0008294878829210339 -0.006260999873776972 -0.002040631434612531 -0.0008727719278120227
0.235 0.006387537448858433 0.006386666542923574 -4.051459973908153 1.9114679305034155 0.00047360042500233976 -0.006396666631824876 -0.002262936107213633 -0.0005977614716367081
0.236 0.007300885204045271 0.005924512808646122 -3.847767812195442 2.279247508311943 -2.1886066774240616e-06 -0.006420373543594796 -0.0024128968891724196 -0.0004071634465033887
0.237 0.00815014807405431 0.005433305810672155 -3.621666583354298 2.6282779809822676 -0.0005693579640157927 -0.006585349657994461 -0.002530921191529105 -0.00021447370751877208
0.238 0.008841660000626535 0.004631253767890019 -3.355759797846198 2.96322018700996 -0.0009965278193356149 -0.006536777121621786 -0.0025871625715817295 0.00012497750600845234
0.239 0.009445856369011919 0.003934310785254896 -3.0569424803486425 3.247850367669657 -0.0015552988350971439 -0.0064204072326039235 -0.002628370778148097 0.0003314578899266573
0.24 0.009991754403015245 0.003150200831017803 -2.7551417672410548 3.521469357204133 -0.0020247010582771304 -0.006377536845803636 -0.0026191065559979573 0.0006636478996271528
0.241 0.01033931278802902 0.0022754439058381803 -2.385252194238552 3.762750731809601 -0.0023936373808504975 -0.006190184490086132 -0.0026164882796074315 0.000992930984752122
