!Created with skrf (http://scikit-rf.org).
# GHz S RI R 50.0 
!freq ReS11 ImS11 ReS21 ImS21 ReS12 ImS12 ReS22 ImS22
0.13 0.0011894163483066158 0.0013418077545111916 4.686046866884262 -0.06683331206070656 0.00213271553108248 -0.0003426907058596654 0.00040944343460391655 -0.0007477669080975213
0.131 0.0012191021459337645 0.0011117613649060931 4.650415560071056 -0.5182088839450907 0.002072290355851032 -0.00047047110716130606 0.0003563262805702382 -0.0006924299891142283
0.132 0.001098947486773667 0.0008167783343775316 4.582185755993548 -0.9598607394930948 0.00218191763183754 -0.00052161029815807 0.00026436309475523956 -0.0008303522191085166
0.133 0.0010039549746787319 0.0006529982409193558 4.4752344469463425 -1.3830766863569044 0.002105032553824341 -0.0007873256933748056 5.4421006019059816e-05 -0.0007158125924776967
0.134 0.0009122019342697561 0.0003488242629108618 4.318006296433064 -1.8184838016067848 0.002003103938351319 -0.0010592517045903116 2.654042672819982e-05 -0.0006814200791763
0.135 0.0006146671302598299 0.0003403184922842031 4.121886036708154 -2.2219269171286333 0.001974584421115827 -0.0012703808747694455 -0.00010510191848257755 -0.0005803173884526348
0.136 0.0003829663288213034 5.724804771179233e-05 3.8903809507176526 -2.591611924014379 0.001974060621188173 -0.0013235073097474838 -0.00012886020587680953 -0.00045942055750184746
0.137 -2.088171886578786e-06 0.00010560251221511946 3.631011452614573 -2.954091643308434 0.0018922765842099539 -0.0015420790201737587 -8.916001900610056e-05 -0.0005115639818890156
0.138 -0.0003405340156406754 6.807438360682487e-05 3.3231602933100075 -3.2906943494872825 0.0017627574365235586 -0.0016659554621907436 -0.00017166662008262818 -0.0005030080515664263
0.139 -0.0006526502154480309 0.0001795592024051575 3.005841723840834 -3.5889258246913065 0.0016457389140221888 -0.0018773800204422988 3.035965887299936e-05 -0.0003086782706660609
0.14 -0.0007693822625945416 0.0002528902696755347 2.6431365822433057 -3.8632538893645205 0.0014827521850706343 -0.0019554462991703907 2.7942000686331652e-05 -0.00019354884328307177
0.141 -0.0012520937100301145 0.0005190342813675428 2.2712964028626423 -4.08930452930567 0.0013871887870615955 -0.0020132222727715296 5.4663881266489174e-05 -0.0003378260425303018
0.142 -0.0014224301006434596 0.000826680116216364 1.8720575124792669 -4.282264345994586 0.0012694935886575413 -0.002054764535244601 -0.0001259864225677415 -0.00017726476149449583
0.143 -0.0016495010006456691 0.0010875809721292594 1.4306945246294664 -4.4361325806336565 0.0011266731964893655 -0.002188304162154827 0.0001749583933600124 -1.7447960104767415e-05
0.144 -0.0019551982274883233 0.0014935105671658468 1.013265913371173 -4.552916496771993 0.0009980449961611159 -0.0024878105498742703 0.00019911091989467582 -0.00024128938042068793
0.145 -0.0019336298524427896 0.0018140139359863147 0.5663306484377174 -4.620205022234993 0.0006288803984598417 -0.0024776384729607195 0.00016821969701556513 -0.0003173663164600191
0.146 -0.002058669158920264 0.002224620332914334 0.10446475245594301 -4.656543211566216 0.0006191526163442342 -0.0024897927577190995 0.0004065305116636545 -0.00023669175603582558
0.147 -0.002018541186938309 0.0027553056803005286 -0.338661323056021 -4.638532430507212 0.0004997628013291739 -0.0026323265003297992 0.00043259027944257656 -0.0002546761272617873
0.148 -0.0018681585190449886 0.003225073244016623 -0.7372144310376209 -4.597766040627212 0.00020976275494634361 -0.0027270825316578168 0.0005756311070482642 -0.00038021229064981536
0.149 -0.0017383347977731926 0.003700171876890157 -1.1946184949725418 -4.477909784777156 9.815484332525244e-05 -0.0026848261310676576 0.0006966539381295663 -0.00039609383433198916
0.15 -0.0014327652312543493 0.004226469488874778 -1.6171727580113007 -4.3716028372337625 -8.196656670173278e-05 -0.0027822105571286312 0.000544954932088993 -0.0005065834163543279
0.151 -0.0011533916501761954 0.00462063278717353 -1.9978773590417438 -4.169599908781189 -0.0003024729577927523 -0.002791756107027476 0.00061945564023271 -0.0006341999609866077
0.152 -0.0006343277795568488 0.0049835097680667 -2.390317824633153 -3.962841643276309 -0.0005946829357832684 -0.002911780906004836 0.0006481125682422389 -0.0008101306232910313
0.153 -0.0001798271239455232 0.005380964359157412 -2.7536802162426106 -3.709206990467723 -0.0008449524757260663 -0.0028046979197536535 0.0006965059475851722 -0.0009304831225456869
0.154 0.00033137784118030667 0.005645332795309961 -3.0914836385480697 -3.434382044131182 -0.000997634093227049 -0.002674963050600456 0.00049808494422867 -0.001015946356889699
0.155 0.0008539097762465101 0.005681841638644188 -3.3758430208495933 -3.1291443919850157 -0.0012357300516125525 -0.0025266232167175163 0.0003766914837918181 -0.0011598752878923158
0.156 0.0014713605842782559 0.005752383008584677 -3.691829105932024 -2.7891025570137105 -0.0014036505125209844 -0.0026852033196442244 0.00048075800391661624 -0.0012397689599442673
0.157 0.002157850514410304 0.005675685334810209 -3.9372859388604247 -2.418683639526484 -0.0015751578521104378 -0.00248857202087076 0.0002800718583794982 -0.001353438112820771
0.158 0.0026751118155295224 0.005788228700521558 -4.1162167938130105 -2.048767265562701 -0.0017984309838856639 -0.002376133237967348 0.00013176308301505982 -0.001341563550699601
0.159 0.0034223366558839455 0.0055173959487231925 -4.314698313325241 -1.6313299597376845 -0.002036477376084072 -0.002383750405276485 1.9419195280716803e-05 -0.0014834325083087107
0.16 0.003848123525853699 0.0050784812387926264 -4.446891215894669 -1.2195302476603265 -0.002188770992256883 -0.0021774592733036554 -0.00026061954447663643 -0.0014120864723510575
0.161 0.004567340264670808 0.004894861142868856 -4.529700981513299 -0.7847052637636975 -0.0025496091461774907 -0.0019613596683462266 -0.0004217902484161388 -0.0014705790016232413
0.162 0.005056127914099759 0.004376498255485727 -4.590949675274966 -0.3399076179079046 -0.0025558282548842613 -0.0018847494766935798 -0.0005328204874822093 -0.0015671809595384657
0.163 0.005509496932890197 0.003815956917851377 -4.5935967916581975 0.09020665488685752 -0.0027006964657702187 -0.001671241683236732 -0.0007547608012308118 -0.001552859398567886
0.164 0.005721269576991134 0.0032802030201123985 -4.565453032284318 0.532783583251219 -0.0028899017626844914 -0.001540633994644176 -0.0009162375220456648 -0.0014360433597155188
0.165 0.005959161573119876 0.0025196904972320184 -4.497857918055176 0.9515630575091957 -0.00299312369922213 -0.0012207094755649947 -0.0009957698304131153 -0.0013905961437175954
0.166 0.0061663363533463016 0.0019611217974736437 -4.3791471702323275 1.3892787504130177 -0.0031445141837848642 -0.0011173926387356595 -0.0012185064183310671 -0.0012791386298298402
0.167 0.006286518613940015 0.001293575005369531 -4.231500441477747 1.7879997416872373 -0.003277562901120256 -0.0008157642871051309 -0.0012643604727592807 -0.001004873562339889
0.168 0.006121430672267813 0.0007633492256280026 -4.049045114954793 2.184175960261325 -0.0033526944873153676 -0.0006635663441130427 -0.001547771360096303 -0.0009592499023061431
0.169 0.006040507817479993 2.808783447301705e-05 -3.8083904561306023 2.5604891945834383 -0.003356708307197911 -0.0004135458268726658 -0.0014349973611956783 -0.0007410538811228039
0.17 0.005715279347629193 -0.0006765713596685562 -3.549029103000235 2.9166644456566044 -0.0034787419436542503 -4.269272963171633e-05 -0.0015728612400511927 -0.0005780672442862067
0.171 0.0053469615922761326 -0.001215547435383395 -3.2516803246255592 3.2410565991958507 -0.003429362539157098 0.00021866799620064617 -0.0015826237871807709 -0.00031929259222224156
0.172 0.00497004789684286 -0.0017309627604577206 -2.9279359315708207 3.540052731911397 -0.00350107717369282 0.0003901952895958584 -0.00146443541493178 -0.00024259983696391937
0.173 0.004548125941767055 -0.002085446078531357 -2.569546316550316 3.7960959520732405 -0.003618080289382105 0.0006997003733880429 -0.0014670179629728895 2.1004957351008395e-05
0.174 0.003947172238655762 -0.0024848402829715168 -2.2183929112911387 4.017575949459918 -0.0034395362852179287 0.0009685308389836897 -0.0014253695995228906 0.00018943326552321472
0.175 0.003446671930453172 -0.0026565040175208824 -1.824583709221684 4.21904710065175 -0.00355744243772681 0.001207048045881239 -0.0013000508996225805 0.0003388650575774956
0.176 0.002906837920531934 -0.002680628764342128 -1.422013701750456 4.37042427007263 -0.0033056271056831404 0.001557382292805648 -0.0012401720048706114 0.0004294859369522659
0.177 0.0020762663365419226 -0.0028479243466674633 -0.9854086094615819 4.488314754183281 -0.003318691755219821 0.0017669021788827032 -0.0009086311055733337 0.0006248497615530329
0.178 0.001642597537769185 -0.0027654616377434387 -0.5579981822443567 4.536859013283443 -0.003242025617650936 0.001990974823205089 -0.0008200271012236531 0.0006690584896681996
0.179 0.001032416644547051 -0.002567913538869426 -0.14870535697750933 4.571068136699833 -0.0030743325943758137 0.0023610170464204417 -0.0006679356906155249 0.0006979252111297158
0.18 0.0005586803960590625 -0.0022381443069986223 0.289599908306351 4.56137258928387 -0.0029456600815306487 0.0025151368237238633 -0.0004865592636562743 0.000641490268390684
0.181 -0.00010976430290530333 -0.0019930200334253015 0.7643339021074025 4.508917585365589 -0.0026868722955333477 0.0027259904033329033 -0.00034199566804248396 0.0006477744524518946
0.182 -0.0003137648114394306 -0.0015853087833027826 1.20276080717007 4.422366679750972 -0.0025306640169891355 0.002981912865254211 -0.000256577826804559 0.0005856067338227488
0.183 -0.0006056386481630569 -0.0009781049454779067 1.5947672148293488 4.284086976642464 -0.0022573113158510442 0.0030882872995133836 -0.00016491806795040784 0.0005431287652467154
0.184 -0.0008212526094255392 -0.0005474485830597425 1.9967232057764837 4.123817352302185 -0.002189947161902257 0.0033432062526358385 6.578627706003572e-05 0.0005478243152666034
0.185 -0.001109612487002807 1.9217012334930443e-05 2.345647539127008 3.9162006670602487 -0.0019172808315864674 0.0035828661804593407 0.00015576865341141854 0.00043199860605199635
0.186 -0.0009104868754983413 0.0003851607792721223 2.7014095060127685 3.6546521572028894 -0.0015961053857161435 0.0038578019931206253 0.00016681001034726171 0.00034783066415385
0.187 -0.0009389256484293682 0.0011026854571262257 3.075064750189143 3.383064418980222 -0.0013562233636980206 0.0038440097130033567 0.0002862444350310911 5.8900429525694745e-05
0.188 -0.0007181814010400975 0.0014372575890905916 3.361287989672703 3.086593816323887 -0.00099171599601786 0.004018379995465396 0.00018816903590481284 0.00010191427983114064
0.189 -0.0005561488943135129 0.0018998612703365894 3.6647088595062978 2.765867599524361 -0.0008278680614065195 0.004209954588945533 0.0002877847671601797 -0.00017219166376684382
0.19 -0.0001487885377447122 0.002400440594463579 3.8841024309050303 2.4053869520762645 -0.0005001016113636418 0.004183788184447107 0.000279709670882484 -0.00011730881700066769
0.191 0.00022870562390105273 0.0027915885873017812 4.085065254590411 2.0384773967950993 -0.00013716642632314495 0.004362811628389081 0.0002967241023489306 -0.0004162319028207431
0.192 0.0008332079298635062 0.0029489447461153425 4.237595152536179 1.6252517535151436 0.00020841953848107762 0.00445307587820578 0.000177875508525353 -0.0005331838445440876
0.193 0.0011305322561380212 0.00303889494949083 4.38654699823355 1.227938040120418 0.0005845679965196075 0.00433960037011172 9.754849430395861e-05 -0.0006369594723392997
0.194 0.0017371590089509284 0.0032054395748147956 4.460450686923452 0.7782304110850516 0.0008256913527186034 0.004463522869258006 -5.27346738817559e-05 -0.0005399524117001585
0.195 0.0021998571321672567 0.0032590253693868952 4.54832715681331 0.3434951217921983 0.0010732876870372934 0.004334926477882046 -0.0002601877769504549 -0.0006564531143339972
0.196 0.0027589981942690352 0.003061868258368676 4.5319766900566645 -0.06691752737118954 0.0015577685276628647 0.004280841922375241 -0.0003326528662192456 -0.0005744519001987229
0.197 0.0031811122747437536 0.0028837847142954777 4.512338890391726 -0.5117010818268704 0.0018538840974974115 0.004319903509158302 -0.0003664885286649798 -0.0007090855907645626
0.198 0.0037564581519927897 0.002494825140599514 4.441363857886928 -0.9354994287840656 0.0022187079014952234 0.0040513725026835945 -0.0005342796697196226 -0.0005502518695539629
0.199 0.0039425796332262 0.0022172287234279975 4.331302470840571 -1.3583532985613826 0.002553907571183331 0.003963957060028126 -0.000671125142383848 -0.0006328857042651563
0.2 0.004101935420641885 0.0017218109076275994 4.1736044345058945 -1.749970301492679 0.002755900628935598 0.0038845995150816014 -0.0007004974036558528 -0.0006163503549633355
0.201 0.004466778543740206 0.0013793791954657302 3.989880249065354 -2.134384412094604 0.0029393988942165604 0.00350425199220802 -0.000868257105169561 -0.0004592335294197647
0.202 0.004586848160721437 0.000783094877241182 3.7648220883975156 -2.5057469093919975 0.0033487431861743923 0.003479811563404967 -0.0009092741013894384 -0.0003391160275768551
0.203 0.004445554891539972 0.0005030341563316454 3.521736777049967 -2.858610871877749 0.0037456222662853606 0.003262077117749143 -0.0009586171901778213 -0.00016970403146930157
0.204 0.004461656457366962 -0.00018715307347316144 3.2284385581849655 -3.1743088355354967 0.004026516642280809 0.002907856363753904 -0.0009943300449936122 -0.00022314186517109172
0.205 0.004450870771014911 -0.0006344279639639756 2.922676923513159 -3.4646014858155394 0.00416678673325537 0.0026669332299147823 -0.000885392562743206 7.904351880177561e-05
0.206 0.004022235487177966 -0.0010799593929150717 2.5675554650649004 -3.7113719082554275 0.004384718287313629 0.0023491604938479815 -0.0008587407281806584 0.00018363271040890643
0.207 0.0037451722311537573 -0.001618210676221254 2.19819337562485 -3.9522903251877137 0.004615177286327298 0.0019771550766854566 -0.0009087371299845476 0.000288704869757394
0.208 0.003314633328512441 -0.0018153109060144996 1.8166699219040252 -4.117269449535562 0.0047624332855770125 0.0016117414152368485 -0.0006902365983883998 0.00022375131826728065
0.209 0.002761757499908407 -0.0020447588193320235 1.3929754789365068 -4.278203835098138 0.004965319042675521 0.0014509320488102885 -0.0008714605583138896 0.0004013166588546547
0.21 0.0023543084023972126 -0.0021608722419591575 1.001241278502187 -4.391456096056369 0.00512248935609537 0.0010641586358289053 -0.000598626704694145 0.0005663715126912285
0.211 0.0018153854808500305 -0.002275398303212062 0.5878234795406384 -4.4720304323387525 0.005246902689685098 0.0005438325806353513 -0.0003988149172984145 0.0005929227203932785
0.212 0.0013054520023504314 -0.0022563107511450443 0.15903851918188894 -4.492791479700714 0.005344916287975768 0.0003600121248376049 -0.00035352453253705994 0.0005417079451776396
0.213 0.0007576284392766681 -0.002091321567139945 -0.26817110392521964 -4.484909551306557 0.005320860961502204 -0.0001864101153251366 -0.00023726348910360455 0.0005123655863357492
0.214 0.00030623009016049534 -0.001751376169004516 -0.6916866782690355 -4.441581707957544 0.005460992179386208 -0.0005183194094086152 2.963145791530982e-05 0.00037948014312493575
0.215 -0.00030833652994866084 -0.0013926133539588666 -1.132173625135473 -4.371642366181934 0.0052227200419490425 -0.0008706895744997619 4.9473145143129177e-05 0.00043343203060810224
0.216 -0.0005651569401362251 -0.0009791888526776771 -1.5286558103509915 -4.227727515360358 0.005273177020900168 -0.001300487795490351 0.00011025359170155179 0.00028141306960593576
0.217 -0.0008641531279476934 -0.0003722469476494792 -1.9134429370254407 -4.0534975011989305 0.005245914471577568 -0.0016794276122100904 0.00014681285393223817 8.016381618226992e-05
0.218 -0.0012231519918156717 4.5051355546760774e-05 -2.276812299017962 -3.8670686882762513 0.00520154993213492 -0.0022042658129749057 0.00021653731266009727 -8.329031271069867e-05
0.219 -0.0012864669593212327 0.0007931818026332551 -2.650178551636684 -3.6377391299764326 0.005144817453659646 -0.002502893863434747 0.0002661832931905058 -0.0003092405360943608
0.22 -0.0012881147465427078 0.001393474682146545 -2.972023175763142 -3.3685051251086167 0.004854488692191756 -0.0029270156366171226 0.0002645053864544171 -0.0002614573778489117
0.221 -0.0012979325258946177 0.0021190060970222497 -3.29932630100891 -3.056546951002936 0.004644618626302711 -0.0033725781135738485 0.00029275986218678867 -0.0004825645862878383
0.222 -0.0009655013087719445 0.0028609261047694355 -3.5668729001312194 -2.7307812525842774 0.0044801572154334 -0.003588931719824917 0.00014678392168068196 -0.00067760519889489
0.223 -0.0007554541981732281 0.0034465328829678924 -3.8182747813159312 -2.3960699550562015 0.004173925057957901 -0.0040323627158328915 2.8883441809640807e-05 -0.0008352770911342469
0.224 -0.00033655658237088134 0.004063760133462308 -4.041141931411455 -2.010025324122446 0.003910885787451184 -0.004498959454133503 -8.321077106620728e-07 -0.0010170933180639822
0.225 0.00025782162402225724 0.004507804080725365 -4.1844301611438 -1.6219833405038429 0.0036386897997407203 -0.004744376513113746 -0.00027406248316981833 -0.0010372275994739207
0.226 0.0007707461485093536 0.005161997619429141 -4.323018745206676 -1.216672387796072 0.0032974022973933977 -0.005063183492823281 -0.00035920329180487496 -0.001223979497866768
0.227 0.0015749632600952164 0.005482673019973356 -4.426999790921796 -0.794922819228131 0.0029783660124122592 -0.00530044036675758 -0.0006613846764273659 -0.001238582133577299
0.228 0.0023286910026333934 0.005726584497708986 -4.4711389480874795 -0.3776623600749262 0.0025824378286500296 -0.00543038191262777 -0.0008417855050602744 -0.0012321699159042556
0.229 0.0031307762446748555 0.005789211782434615 -4.492016451264832 0.03920123368410177 0.0021970088522684957 -0.005696687909601595 -0.0010712820194105543 -0.0012745850324443542
0.23 0.0039005759635241865 0.005901865898739025 -4.462841080322716 0.486297438689803 0.0017068140678598302 -0.005810077302511557 -0.0014101295374272834 -0.0012801698246582415
0.231 0.00498155723298957 0.005924473855245509 -4.38872980675883 0.8922739975118323 0.0014065349222123552 -0.006147802185924224 -0.001541924461469489 -0.0012036679918955714
0.232 0.005745458148277433 0.005626828732459966 -4.288136523269672 1.296961895424134 0.0009132330966646078 -0.006142091270008944 -0.0017454907670993087 -0.0011261050932004739
0.233 0.006542920056503792 0.005220515731890437 -4.147193613810956 1.7085560478915551 0.0004063751968523205 -0.006245758264175201 -0.001887836661655602 -0.0009159844957778348
0.234 0.007400309620332927 0.004838160572206794 -3.962850951216772 2.084266872224789 1.651541637995235e-05 -0.006374814574570182 -0.0021773469342953153 -0.0006852094580365143
0.235 0.008085433798709624 0.00416095965245753 -3.7526781424584317 2.4523234346480756 -0.0004111001297947057 -0.006406004368511967 -0.002297917203878483 -0.0004447191545501138
0.236 0.008729154346597632 0.003720767878482882 -3.497471267378769 2.7820142635868232 -0.0008850802692748172 -0.006269756909385086 -0.002507438301596555 -0.0001567935633287555
0.237 0.009189128059090067 0.002944226042841827 -3.208866764482295 3.109777918609243 -0.0013270678993253797 -0.006304631054748792 -0.00253048660506552 0.00016065968619162404
0.238 0.009537938360723532 0.002198496610454933 -2.9018657821122615 3.394835295279095 -0.001976447083389208 -0.006196235709946468 -0.0026440174872157207 0.0003114778968255851
0.239 0.009801515894929705 0.0012917112206038764 -2.5588445364846786 3.652288462039101 -0.002342728165938904 -0.006140525179038018 -0.0025906848428135136 0.0005134833710221781
0.24 0.010056120051112106 0.00037665352261200674 -2.2110708181190506 3.8747009520622258 -0.0028251520580504803 -0.00600184181026856 -0.0026070606935192767 0.0008941058320939768
0.241 0.01014870129646938 -0.0004247328025043154 -1.839158044777132 4.074616695753199 -0.0032532337850392644 -0.005894552535834623 -0.002708850421512789 0.0011677539355875734
