!Created with skrf (http://scikit-rf.org).
# GHz S RI R 50.0 
!freq ReS11 ImS11 ReS21 ImS21 ReS12 ImS12 ReS22 ImS22
0.13 -0.0006001696945019486 0.002778829715067661 4.565308825486075 1.1342516644263292 0.0020367847341809077 0.00032505092264155697 0.0009149739096731594 -0.00024979401224569677
0.131 -0.0004186575641624066 0.002718829016009032 4.637940886782482 0.696458702845726 0.002131645039484516 1.5379027192310042e-05 0.000719116498382385 -0.0003415577534405979
0.132 -0.000265954920558125 0.002628615506422544 4.690710997754009 0.2826432307718422 0.0022060904094576787 -0.00012349330641759642 0.0009216933323194324 -0.0003609612267683189
0.133 -0.00010377528918969518 0.002414620143468038 4.682673279790032 -0.17090464257131488 0.002070257069928753 -0.00026568306542786626 0.000790051746577209 -0.00043361243499359046
0.134 -3.192878699442644e-05 0.002318281611543603 4.6505824161698355 -0.5948913073190363 0.0022208064344180632 -0.0003654318976797585 0.0009018604943266578 -0.0005895727835147033
0.135 -7.686177822488484e-05 0.0022053441524416324 4.569165536424529 -1.0356159170373351 0.002216342288679329 -0.0006116367606804107 0.000666354383388118 -0.0004587758001169443
0.136 -0.00018006203051932276 0.0020436748467449807 4.454590454804249 -1.4678093691218952 0.0021615430560906162 -0.0008322758688905999 0.0005801971583027569 -0.000570624877779114
0.137 -0.00019661960288270647 0.0019420048418064362 4.292298570975993 -1.877141294044308 0.002231533138264128 -0.000949340064702219 0.0005437622752268436 -0.0005068586366515272
0.138 -0.0003574269383445855 0.0020214272173583003 4.097712865891452 -2.266197915756272 0.0021503184917630114 -0.001051140616480196 0.00045375371224566657 -0.0004012268264216975
0.139 -0.0005184444922794627 0.00196701127313487 3.8608400232664186 -2.6397465000032154 0.00202345735217161 -0.0012364210824242624 0.0005367939528184161 -0.00039531254399082335
0.14 -0.0005293343562178324 0.0020022340905909816 3.5949705364930686 -2.984105243777643 0.0018795999626732903 -0.0013014588009310597 0.0004855600118125375 -0.00021170835573905295
0.141 -0.0007379592424870678 0.0019358500728009727 3.300585291307158 -3.3064411004026435 0.001855712366543462 -0.0014860413591333097 0.0005063268492954675 -0.0003522238274228249
0.142 -0.0009421289242332038 0.002111405650317634 2.994231664491026 -3.5919456382657566 0.0017817819371584945 -0.0016573419278077708 0.0005140431160084515 -0.00036867643284163836
0.143 -0.0011758006079701196 0.0021950863187947425 2.6179921727528512 -3.8676669984640553 0.0017072866355825934 -0.0019063027589664523 0.0005672032329621568 -0.00046938766798746865
0.144 -0.0011407757019467068 0.002472759932568044 2.276632544645631 -4.085777193895917 0.001577655225852072 -0.0020770722168261388 0.0006490975694327143 -0.00037704658411444065
0.145 -0.0014166136112269887 0.0027064054386696885 1.8695183355317562 -4.278045327644106 0.0014738202148419299 -0.00204153590163133 0.0007306146693257282 -0.0006085733097257763
0.146 -0.0015066539853625055 0.002984083253420977 1.459230847812829 -4.423228786585715 0.0012980216207635659 -0.0023150069724063712 0.0006049840983429322 -0.0005325301307458655
0.147 -0.001549965951609555 0.0034146530146498284 1.0500805743408659 -4.534292688835461 0.0011512948931868315 -0.002369517992083237 0.0007916400578652071 -0.0005680985029425241
0.148 -0.001482879681820423 0.0037398129819197923 0.584611571495732 -4.630723835064666 0.0011044068486971035 -0.0025827049333432025 0.0007116828710290654 -0.0004892689775809624
0.149 -0.0014737820679852581 0.0042754388353902295 0.1837647602907096 -4.652866664170622 0.0008658442095299244 -0.0026592413677206457 0.0008339819768695998 -0.0006541917063550013
0.15 -0.0012740411203128405 0.00471490403796052 -0.21704490985770258 -4.650944212699094 0.0006326635464740328 -0.0027075024208049587 0.0010364322719111322 -0.0007372561948600995
0.151 -0.00090116077912218 0.005191416324663159 -0.6859938665631334 -4.602971523081488 0.0004072034372470919 -0.0027698581952931367 0.0008427105091765904 -0.0008734861243250847
0.152 -0.0006589071907390791 0.0054996092949971525 -1.129644880896465 -4.524187540716528 0.0002603130362975128 -0.002811925370272173 0.0008941586660805893 -0.0011280526731528128
0.153 -0.000310878323903857 0.005955216678887557 -1.5277973969074619 -4.374939867205918 0.00020604143910852362 -0.00290665829571898 0.0008587436760519081 -0.001137814969239172
0.154 0.00022589942821112807 0.006179019468705562 -1.915635577152076 -4.228664701537862 -9.44321969638686e-05 -0.0029027602999223993 0.0007954473969687437 -0.0013632285810454697
0.155 0.0006987677348360663 0.006482480423735697 -2.2653978505750936 -4.044512109955542 -0.000487708914046549 -0.0028854223659733 0.0008173293926767149 -0.0013554455917287665
0.156 0.0012734755992452945 0.006842417624516442 -2.653859279292089 -3.7818664376136004 -0.0006225003575839738 -0.0028576652286983173 0.0007768061135883433 -0.0015315307783068887
0.157 0.0018789572671656873 0.007113138677436923 -2.986523808539904 -3.5132280102469764 -0.0008133661679912022 -0.0029714148363543633 0.0007828725564445161 -0.001696964518598723
0.158 0.002555623943008675 0.007116476678951743 -3.346006810550399 -3.226795564512354 -0.0010342099984159362 -0.0029408935920184516 0.0006225140976480971 -0.0018417017369584637
0.159 0.0032343804228216937 0.007069082988676928 -3.599312312906298 -2.9195445301098886 -0.0011762060670961608 -0.0027852113388965455 0.000497080480076498 -0.0019433695166530347
0.16 0.004020671848344035 0.0069557916866792415 -3.847541993028761 -2.5594780831586217 -0.0014544021677520024 -0.00278229195523273 0.0002965351653493347 -0.002136371848416286
0.161 0.004783619203962633 0.006787301548376143 -4.056022731108877 -2.1815182813707175 -0.0016647942922357198 -0.002654150679515015 -5.418302072183565e-05 -0.0021188484995427878
0.162 0.005401122219537665 0.0065616497882146525 -4.249093358367109 -1.8152687210776626 -0.0018437455566903433 -0.0026446375767928817 -0.0003241610183247553 -0.0021341635646000075
0.163 0.006063584270078324 0.006137200523330548 -4.382318642517336 -1.3889696355018042 -0.002009445587500746 -0.0025262193287908636 -0.0004641633436511595 -0.0021569480149458546
0.164 0.006775462710937132 0.005524625043165807 -4.493813919137136 -0.9635184111241737 -0.002184566098286932 -0.002286392306402503 -0.000610208195113173 -0.0023674886713877866
0.165 0.007433894036833358 0.005125981481750295 -4.571721058043683 -0.5442596220602839 -0.0023954691451623933 -0.002298175739579439 -0.0008381637337326486 -0.002186609681053035
0.166 0.00782798952391831 0.004344184931113275 -4.595949465277245 -0.1159595448666763 -0.0026559324590750963 -0.0019125476628736606 -0.0011014489071208796 -0.0022696833069804044
0.167 0.008212590164484748 0.0036164668496334682 -4.583952505042842 0.2922886389267614 -0.0028574261101723514 -0.0019205631364418842 -0.0014516105304416154 -0.0020776335683505873
0.168 0.008558997250940732 0.002880843066042418 -4.542969317439241 0.7411413550165842 -0.0029247628628058233 -0.0015807949620686122 -0.0015339855814819566 -0.0019683862879074695
0.169 0.00883706699658728 0.002098427312486974 -4.455530722954302 1.166549273575532 -0.003087625742003529 -0.0014562188392350742 -0.0018284757258269183 -0.00184399925722431
0.17 0.008952623775557608 0.001196686121209205 -4.319924816747718 1.572324047564049 -0.0031939121942229074 -0.0011877061515953818 -0.001878821388292316 -0.0016113225878025775
0.171 0.009027936783991565 0.00026319948077325507 -4.159399402748817 1.9693318668057245 -0.003267721890596445 -0.0010386425091363299 -0.0020535746941857595 -0.0013810832829725757
0.172 0.008743228750960438 -0.0005096151341097752 -3.9594629808216757 2.3527099554284256 -0.0033335971958985576 -0.0007916774926427669 -0.002367030445955486 -0.0013070079142682644
0.173 0.008602593164613039 -0.0013165618056102915 -3.7194746993868355 2.6992582636265046 -0.0036670861719772813 -0.0004761696470701078 -0.00242640634925254 -0.0009734112252427933
0.174 0.008352193316181046 -0.0022384974837605406 -3.45265862421204 3.034569586305333 -0.003673526902781617 -0.00016540849409400714 -0.0024164948320961727 -0.0006907797000288163
0.175 0.007822259351251228 -0.0029765553335991636 -3.1583978646495803 3.3400945510809086 -0.0035916185967553443 -4.4567809708666526e-05 -0.0023717254888668267 -0.00032640163567730114
0.176 0.007254526585041954 -0.0035350552984384337 -2.817653572865654 3.6247346325028222 -0.0036884246828304146 0.00019733687682147276 -0.0024281016197107417 -8.87692246818703e-05
0.177 0.006585659770621202 -0.004149908077266171 -2.4839119088968276 3.861094979612451 -0.003776019290632936 0.0005359363568132521 -0.0023491959048160538 5.0298222286848154e-05
0.178 0.006051494614233268 -0.004633650475943038 -2.1022340777435353 4.063347155660494 -0.0037416356626492255 0.0008171981585632739 -0.0022424460133904692 0.00024063801823799217
0.179 0.005190154480362428 -0.005083683986152817 -1.7214809738997974 4.235022914197198 -0.003623157753570325 0.0009952205821399955 -0.0022392980319652037 0.0005579953990993328
0.18 0.004440966566682848 -0.005262593119805628 -1.3223870286622899 4.382980842081188 -0.003641121795082211 0.0013613596553194494 -0.002132563958804279 0.000812281906783244
0.181 0.003549753194179878 -0.005519536484340529 -0.9000073409333088 4.491028706571167 -0.0035204342490740416 0.0016885985666432297 -0.0018905188380193767 0.0008488273857162048
0.182 0.002900315449550261 -0.005535927933000834 -0.4790153513199799 4.548577216446027 -0.003525275954397348 0.0019115798438632719 -0.0017463467214509742 0.0009755002579545112
0.183 0.0022272388009924745 -0.005357390970905752 -0.045539396124006995 4.606464357935897 -0.0032490791574039963 0.0021966920314884244 -0.0015663921953292111 0.0011357678407784356
0.184 0.0013374474380297818 -0.005322451286386703 0.3654379048958767 4.56376151058451 -0.0033002393829543227 0.002478452809581132 -0.0012877629603845894 0.0012741391487600805
0.185 0.0007580763889379466 -0.0050985606933228395 0.7882953375920786 4.532051291387525 -0.002950270079056388 0.0026783686388775 -0.0011345840254551108 0.001280653558507108
0.186 6.338807069917817e-05 -0.0046954644887238 1.179838807054465 4.417672005265249 -0.0029192591442505824 0.003050330418360916 -0.0009274128522944239 0.0014643240536532619
0.187 -0.0004607414402086729 -0.004209652059493134 1.613788498134515 4.263908494674267 -0.0027105193398667725 0.0031206730848529225 -0.0007095938730038978 0.0014433766563572766
0.188 -0.0008170206584895092 -0.003766684362965254 2.010043649994838 4.10946090708789 -0.0024973690145037074 0.0033697124451425044 -0.00046941984273776277 0.0013276139666242648
0.189 -0.0013051814948519822 -0.0031238451057293594 2.387445307603783 3.904316643315406 -0.0023315310377741002 0.003624227877210965 -0.00044239477085412736 0.001281684421911725
0.19 -0.0016162103216169749 -0.002672873483990514 2.7049589233376725 3.6529372717850697 -0.002108743277664589 0.0035883219717749437 -0.00020169596809025867 0.0012164935446275502
0.191 -0.0017213760549750308 -0.0020132478830307363 3.062822064941654 3.410248603069096 -0.001826483059315035 0.003845481734021897 -0.00011664930272365432 0.0010325793971068251
0.192 -0.0018023289307531342 -0.0015474276543113261 3.3450653389679323 3.0847534714286393 -0.001611284515343176 0.004099497247275255 -0.00012079952323041957 0.001033302321607395
0.193 -0.0018358107538810704 -0.0008885776023327422 3.6343754818075724 2.777551445083878 -0.0012771721061684556 0.0041876507877639385 5.544738990406493e-05 0.0008557972827324674
0.194 -0.0017511452460689883 -0.00036448784787259216 3.8649101209101864 2.414056445999393 -0.0009209486540250925 0.00432547191427759 9.543338640185503e-05 0.0006344168707510835
0.195 -0.0014774850670044458 0.0001280452639449184 4.082395690893823 2.0443636975345507 -0.0006012235496005467 0.00451441258001434 0.0002625921980289511 0.0007018970613429776
0.196 -0.0011747576080302102 0.00047780347616272704 4.216956508959856 1.6514796639271563 -0.00024458854692161874 0.0047038427321437724 0.00011896718181453317 0.0004138228497444265
0.197 -0.0009533176426692836 0.0008397235711115874 4.368770399169765 1.2574806320492853 0.00014844328661478621 0.004572605246184514 0.00021424763464326506 0.00033869148671314165
0.198 -0.0006083525043496247 0.0010766291064714408 4.467748993706724 0.8246225189586549 0.0003830379369324002 0.004494587406221634 0.00011120912940083235 0.00037115734667970767
0.199 -0.0002547313944082385 0.001355827698799149 4.520543757425725 0.4358232069123 0.0007355403098125523 0.004816000056830423 0.0001006711333277201 0.00023006788772946774
0.2 7.885899016681818e-05 0.0013544868635773756 4.525146327097025 0.0011930681965432721 0.0011016838043103262 0.00465308154440187 8.387413770101601e-05 0.00018437801128952066
0.201 0.0004465494697684342 0.00138817196516305 4.510867024093531 -0.4054594451917954 0.001499984670235089 0.004606857956815963 -0.00016069855640717134 0.00014311431365304458
0.202 0.0009335213232438016 0.001462912754676903 4.460595643664736 -0.8337233816949736 0.0018066556827939242 0.004518569534861746 -8.7906496738926e-05 8.556466195391232e-05
0.203 0.0011043582546764517 0.0014705329836761697 4.3546167625211405 -1.2341404648673244 0.002169090529867873 0.004356471300224293 -0.00010919759796897152 0.00014008124940493384
0.204 0.0013634826840022646 0.0011608315345498367 4.2162010924491105 -1.632562894642113 0.0025323210060869093 0.004134902998007872 -0.00017160951875763256 0.00021762459593156972
0.205 0.00170312650467656 0.0008254661506290055 4.043342637207061 -2.025841368260809 0.002805807171304193 0.004137229841212156 -0.00024741523976857957 0.00023059233102010638
0.206 0.001810395018156583 0.0005748889133129733 3.8476101338154827 -2.378525399184683 0.0029782228052732613 0.0038304883805235965 -0.0002634330088579826 0.00026617718012608834
0.207 0.0018503628974946263 0.00030395746616327263 3.610328653691992 -2.7329472791535374 0.0032236055724061147 0.003731650263726986 -0.00031019342809791297 0.000319205241549698
0.208 0.0018682007508249905 0.00013505374592675745 3.332559457445588 -3.0489248217082596 0.0037862947706846966 0.0034899751244340423 -0.00029463062580579975 0.00034420712701843084
0.209 0.0017890323338987425 -0.00023599590856079888 3.020431798239152 -3.3531499011762023 0.0040358772703516805 0.0033041084710552413 -0.0002923441177638401 0.0005555628493125164
0.21 0.0016460285336677702 -0.000432463269600572 2.7050887313760756 -3.61997849562549 0.004202893098722727 0.0029082291448496466 -9.035479095313113e-05 0.0005241209999754261
0.211 0.0013372074334929065 -0.0006350477389004452 2.355838894904776 -3.85410479330327 0.0043991713668872475 0.002709758932167643 -9.639837737554246e-05 0.000545180798734976
0.212 0.0011369570470817023 -0.0007215457558483872 1.988283143340833 -4.0439954674673615 0.004644218191244067 0.00236525068260763 9.515971789231676e-05 0.0005863180469248653
0.213 0.000831103388807548 -0.0009645429629938412 1.6148820763641658 -4.2146394617883045 0.004919357734973701 0.0021129269635160115 0.0001460445610978191 0.0006608964425940042
0.214 0.0004221605587348213 -0.0010363304752954068 1.2198859630599443 -4.337838993168983 0.0050967043983598265 0.0017623241874518355 0.00019363511071930335 0.0005856056239642701
0.215 7.280354430895785e-05 -0.0008797972730082129 0.7974680938777161 -4.429022687284034 0.005202664078223237 0.0012837091325098536 0.000363114690907668 0.000539966013605424
0.216 -0.00042019829155111625 -0.0007686520521389871 0.38454736823603936 -4.4690817998193095 0.0053792888440301004 0.0010322179067688993 0.0004890065908769501 0.0004960245527195299
0.217 -0.0008626808346812566 -0.0006458448437260318 -0.07254610498530441 -4.508449566040986 0.005482160629201666 0.0006798836101092738 0.0005941759573778214 0.0004423685981538446
0.218 -0.001212210501149405 -0.0003603320128119872 -0.4685902952184356 -4.493700834113447 0.005455825189588888 0.0002581942040694491 0.0006700160431079064 0.00036571359391059495
0.219 -0.0014875146621920084 0.00013238915586137842 -0.8724495181979308 -4.422330194889887 0.005675473978050487 -0.00022280832373424152 0.0007658189759249521 0.00028479660935374935
0.22 -0.0017978420219661357 0.00048567363143830767 -1.2542634118478848 -4.302091030709784 0.005659669334457756 -0.0005111750904776215 0.0008917352236978679 6.895776804114972e-05
0.221 -0.001991915271052158 0.0010265911766906236 -1.658465520719867 -4.162747654193344 0.00545687519581301 -0.0009773537591854808 0.0008308677339296936 -0.00015849356157704173
0.222 -0.002270860353413217 0.0017224082669170652 -2.0373127574006933 -3.9696390049559467 0.005521767247682042 -0.0013569048283286543 0.0011531843794559756 -0.0003199333366293927
0.223 -0.0023934233061997335 0.0022398483472182216 -2.4407975727221976 -3.8284042071824707 0.005587516509940841 -0.001839425005458141 0.0008857297841252157 -0.0004875987618359369
0.224 -0.002324929857690581 0.0030009975211911515 -2.779106624192179 -3.5681126096395577 0.0053337010524358444 -0.0022449488918943987 0.0010042721332385706 -0.0006830833183729616
0.225 -0.002043034290919999 0.0036116253811578213 -3.071707578435821 -3.256412806906734 0.005333961871333887 -0.0026702077281652243 0.0008436854009489306 -0.0009109478491878211
0.226 -0.0018241772919589199 0.0044329899098067855 -3.37985091950626 -2.9894180127199728 0.005162733121230586 -0.002957286073825132 0.0008675376209797812 -0.001225586204225796
0.227 -0.0015231948714712967 0.0050398487945718 -3.621221213824456 -2.667356411273568 0.005019199390553256 -0.0033947113375145618 0.0006219583025026172 -0.0013087816780326706
0.228 -0.0011455070159357705 0.00567190069852588 -3.8615660807312526 -2.3095265989623184 0.00479342530133217 -0.003659726478205289 0.0006714229383957617 -0.0016169035638824631
0.229 -0.0003781564375886013 0.006309870309748498 -4.063440504570696 -1.937481624639789 0.004445495857124562 -0.004143792374052015 0.0003030915105804843 -0.0018451896402697755
0.23 0.00029677928652946487 0.0068080142023707775 -4.220991999019637 -1.5421842161331398 0.004286295095874638 -0.00444707512170018 0.00015859864953569184 -0.0019423692607007266
0.231 0.001021319132230467 0.007398780604889963 -4.3481738025924885 -1.156197786719547 0.0038632656392325777 -0.004971597540837278 -0.0001901668608752276 -0.0019735480369908872
0.232 0.0017815753128376825 0.007547625601165498 -4.427200034690638 -0.7526551854549787 0.0035659587503736 -0.005140308297062486 -0.0005388863237049547 -0.0020457006696572707
0.233 0.0028455443001417923 0.007824707439182677 -4.482630379302979 -0.3214418140588185 0.0031086433430374105 -0.005620334350192372 -0.00082411635360479 -0.0020652548444295726
0.234 0.003655277067257437 0.008028024500673272 -4.491925874274969 0.08208297904773025 0.002794377685976493 -0.005612797701650975 -0.0009979598517562407 -0.0021831142695660655
0.235 0.004778419911200002 0.007981564371530473 -4.456080956328923 0.49417007195919527 0.0024711838678492743 -0.005912309923948591 -0.0012905874913367633 -0.001950153864472315
0.236 0.00570125217555513 0.007894539445915774 -4.383443025557785 0.8974249229169309 0.0020451553535949913 -0.00609850445274498 -0.0016041836883238987 -0.0019449495231272408
0.237 0.006618838555545485 0.007533858644653422 -4.285241328838133 1.3056585783199417 0.0015392604368460682 -0.006191616358397847 -0.0019631953900652995 -0.0018337144173700658
0.238 0.007711175150543877 0.007198654247843376 -4.1397956247256875 1.7002283330066017 0.0011178246761630144 -0.006444790799387084 -0.0022059024853524596 -0.0016845389307711138
0.239 0.008539199960534448 0.006673429472942419 -3.9547569027895135 2.06763427238553 0.0006789972098852581 -0.006598678053637916 -0.002517757995254013 -0.0014743001067939224
0.24 0.009273412618889972 0.00610344703354568 -3.7440249087372783 2.434302476335349 0.00013600118252284367 -0.00662640257405887 -0.0026446020837123745 -0.0011221414335876852
0.241 0.010111924375398153 0.005382133712561772 -3.501551284871989 2.763498479424866 -0.00022774892837285597 -0.0067324274160503106 -0.00291545224965993 -0.0009367509818363509
