!Created with skrf (http://scikit-rf.org).
# GHz S RI R 50.0 
!freq ReS11 ImS11 ReS21 ImS21 ReS12 ImS12 ReS22 ImS22
0.13 0.000707432882352532 0.002043214575719877 4.680537348369287 0.49408182238396847 0.0020924553472262933 -6.40150748031965e-05 0.0006577917923030033 -0.0006835374819482098
0.131 0.000866355882313064 0.0019762489837013013 4.697336822855515 0.07881891325667757 0.0022559554942158428 -7.92513047136712e-05 0.0005458532570593551 -0.0006540464698258447
0.132 0.0008577770010879858 0.0016796585896197678 4.665046452810409 -0.3698874028366907 0.0021823642393049157 -0.00038521241855082845 0.00044157215758310563 -0.0008434028013302114
0.133 0.0007919813662808697 0.0014804787708559107 4.618970087328911 -0.8156261311054845 0.002124534995613323 -0.0005885033250992106 0.0004802901664994218 -0.0006883197858817598
0.134 0.0007549965797187581 0.00131233738155838 4.520205628262921 -1.241127442376572 0.0021275224890161255 -0.0006942017352886985 0.00036373454617742213 -0.0007440918070099842
0.135 0.0006526741519313936 0.0011148754706828438 4.38588283989729 -1.6673922846167226 0.0021330569067926444 -0.0007933760774469981 0.0002410406504709256 -0.0007811644681073679
0.136 0.000528972518610474 0.0008223798875618492 4.202000179734058 -2.0713958940105686 0.002089300067168177 -0.001059487838487445 9.785625551181408e-05 -0.0006821057207042973
0.137 0.0002649065873000842 0.000750837599378529 3.9848052607464868 -2.4607093687715516 0.0019113116853440894 -0.0012492018011829985 0.0001663472138595519 -0.0005279624652962534
0.138 0.0001566205356603571 0.0007973231975091947 3.733147635707255 -2.8239175512213963 0.001964963110895116 -0.0013869918786830976 3.967704785237496e-05 -0.000510822929888746
0.139 -7.994452959841492e-05 0.0007676690863743062 3.4461651279607306 -3.1634520548724114 0.0018561239966270729 -0.0014921953361173089 -4.132427375974994e-05 -0.0006015727000688375
0.14 -0.0003540206466725109 0.0008338623113737048 3.1267644789309306 -3.473576133079897 0.0016958249796236752 -0.0016542543908019828 7.593699726286509e-05 -0.0004470386154838799
0.141 -0.0006056158793722637 0.00094748742428251 2.798310236361558 -3.750857891033779 0.0017022018719212116 -0.0018374065557257191 1.9664593276650795e-05 -0.00039103386896055493
0.142 -0.000970802372576944 0.0010853067490243103 2.4211635419671182 -3.9964017843568445 0.0015802800305568486 -0.0019428015109903376 0.00017111655145561738 -0.0004298433522644252
0.143 -0.0011855123196221004 0.0012647213061341724 2.047750771328577 -4.206514988441744 0.00142511230152246 -0.0021078524478915163 8.214337485585239e-05 -0.00032059871969112815
0.144 -0.0013773877026156266 0.0016292872546246717 1.6330957039201501 -4.372456100179883 0.0011061704851676654 -0.0022269934062603735 0.00022050141329626267 -0.00028123956859666955
0.145 -0.0015122984091975667 0.0019129705554217647 1.2233232555678324 -4.516204250861407 0.0010540810729004206 -0.0023184129160806395 0.00022238237954331954 -0.00037321187766537075
0.146 -0.0016149225653423094 0.0023157446087894774 0.7781663381961496 -4.5905171508919045 0.0009891424066965913 -0.0024822547518305125 0.00032859832462075014 -0.000386603428745827
0.147 -0.0015372158408640331 0.002727422931224297 0.3359039688757621 -4.6487688408121794 0.0006979664623648813 -0.002551882524322075 0.00035731735538418417 -0.0002461696904983367
0.148 -0.0015946745483901969 0.0033503559922178814 -0.09630117810869676 -4.661114663635488 0.0006647954591322768 -0.002685057765009209 0.0005014655328630316 -0.0005040706043984779
0.149 -0.001550312221767883 0.00363369503814134 -0.529383183311644 -4.6294987875818245 0.0004983373362824688 -0.0026267728486931447 0.0005764425252745563 -0.00048631041800848736
0.15 -0.0013075961410541623 0.004008552851236586 -0.9906765900362464 -4.538895361640198 0.00022211744365366296 -0.0028296689159747457 0.0006095078159484111 -0.000533972905760455
0.151 -0.0010448252230669552 0.00453268407158087 -1.3969698246365152 -4.434838972831216 8.457859403750074e-05 -0.002780701204395523 0.0006880026780082093 -0.0006863629268930319
0.152 -0.0006320846916984503 0.00490447622719792 -1.7561798116813967 -4.291005624841542 -0.00012469353299624883 -0.0028250129662677954 0.0005746114717665464 -0.0008090707772023192
0.153 -0.00041893624499957235 0.005169849816208818 -2.1797759137913575 -4.084099740655517 -0.00039826572982726906 -0.00287072148179822 0.0005440461448916806 -0.0008942904459265637
0.154 0.0001528325489152192 0.005631042130241637 -2.5861292185609717 -3.8408686687702285 -0.0006452883192865706 -0.0028195967249998602 0.0006014425218106231 -0.0009709584305363136
0.155 0.0007486038967733844 0.0057498119229549135 -2.92900275514398 -3.5979181605785846 -0.0009112453579262495 -0.002771695875310987 0.000637605583673514 -0.0011760436736790987
0.156 0.0012552592974903285 0.0059313753664967115 -3.2289844667576193 -3.314645272380589 -0.0010742077648273978 -0.00264887338493468 0.0004428855923077201 -0.0014447374701166645
0.157 0.0019458576304458815 0.0061451662066131976 -3.524766882534342 -2.9831104646881474 -0.0012296396539421713 -0.0028248170721022203 0.0004326018601492773 -0.0014395121041899908
0.158 0.0024657109736623906 0.0061389693954882986 -3.8018004586622003 -2.654331184897138 -0.001397661326755337 -0.002716911707151907 0.0003174432338625017 -0.001410489790318512
0.159 0.0032171491385774224 0.005941179854100172 -4.035835630877541 -2.286272645061931 -0.0017695072159651993 -0.002689739262226177 0.00013068129310878825 -0.0015598129025488113
0.16 0.00383260359023997 0.005775876401926508 -4.191008194722844 -1.8892865438220237 -0.0018525509403744074 -0.0024068081749365126 -0.00011105776416006218 -0.0017123007570692826
0.161 0.0044361416913143974 0.00551767860274556 -4.349704454025925 -1.4811572925263836 -0.0020496003443362895 -0.00236364751984003 -0.0002350086361033374 -0.0017464104954733192
0.162 0.005101656695273004 0.0051604268701585 -4.486300769465809 -1.044123863185355 -0.002177781498373395 -0.002275561305379528 -0.0004373117591483946 -0.0017845106133277118
0.163 0.005694184043411871 0.004581885928685628 -4.5773290466392025 -0.6127790033605549 -0.002490609425708572 -0.0021307078488539484 -0.0005700843271312251 -0.0016984133756032507
0.164 0.006060438650502168 0.004267933410641742 -4.59232083618636 -0.18858626783243024 -0.002660540106880973 -0.001974315886349466 -0.000705495914664443 -0.001661099532658587
0.165 0.006486840552682036 0.003609891973902906 -4.599693263764966 0.23539989410467563 -0.00271035146979624 -0.001613991168811577 -0.001037579181673988 -0.0015842195981350794
0.166 0.006792097244414103 0.0030104526226113785 -4.549442643248384 0.6691412507247466 -0.003086995012461552 -0.0015968367506406487 -0.0011510493502819264 -0.0013809196240782758
0.167 0.007128967969415918 0.002184195368340637 -4.47594723330647 1.080390979879363 -0.003063125876289913 -0.0013428252933083982 -0.0013255404011705326 -0.001337523408961189
0.168 0.007176241087245231 0.0014576664378448078 -4.351129512681685 1.5241435279253188 -0.0032462716908578217 -0.0010852030090829864 -0.0014914055501265488 -0.00120099699338993
0.169 0.007140863028230564 0.0007084754151509622 -4.180230481509982 1.9229674375236485 -0.003367438924678041 -0.0008782309217155479 -0.0015310946891547452 -0.0011194381646739097
0.17 0.00696444405587648 -3.839319728621735e-06 -3.982243538701098 2.305669932986855 -0.0033566380016248373 -0.0007211329010835439 -0.0017105943358808277 -0.0008845583686285872
0.171 0.006810639646420176 -0.0007037700801421626 -3.742394166257146 2.673275283120068 -0.0034300593514775333 -0.00045728681392972093 -0.0018696111245612578 -0.0006787511131994333
0.172 0.006557957378562759 -0.0014462435365880234 -3.480382075586168 3.0038539763720875 -0.0036916135196246183 -0.00011681981467650447 -0.0018134025458915357 -0.0004874901999367479
0.173 0.006104028203763765 -0.002072038369989772 -3.1782023476005032 3.323620553238337 -0.003715857690788853 6.73946971385636e-05 -0.0018496168326940438 -0.0002988996690345821
0.174 0.005486117162830562 -0.0025206362084500278 -2.8469508698460855 3.604258761194576 -0.0036309362330614317 0.0005264606984880599 -0.0017679271728106524 6.004792959653923e-05
0.175 0.005056371809160215 -0.0028626919113736208 -2.4903800337195365 3.8665129150989883 -0.003644830391846319 0.000684786664941914 -0.0017212024517021707 0.00010032712333337928
0.176 0.004421063702752843 -0.0033442876102343978 -2.131874012652227 4.076274235280894 -0.0035913533016741564 0.0009131301778156789 -0.0015667760622712949 0.0003397330419566965
0.177 0.0037083298300471484 -0.0035506803614740795 -1.7468586955561587 4.254984265581687 -0.0036416897615857893 0.0011253326854845109 -0.0015001061187602943 0.00036729043203795217
0.178 0.003177584649699256 -0.0037403091554952263 -1.3071543363877027 4.394170806507954 -0.0034390173271218794 0.0015440904520538164 -0.001351792204435307 0.0006113786106170226
0.179 0.0024222278039129487 -0.0037154684620074262 -0.9006197016095512 4.490905945358114 -0.0035002545485363556 0.00167305228402548 -0.0011260309703164076 0.0005308830042600567
0.18 0.0016819761954021458 -0.003625707998031803 -0.4825303431527621 4.546241584953739 -0.0034592555527910153 0.0019733745961752376 -0.0011032995399611945 0.0008649030154777687
0.181 0.0011249234283944455 -0.0036219735442560557 -0.052290104832142796 4.5924757585797025 -0.0032071263279824604 0.002281029398385977 -0.000872152146057788 0.0008598712017592522
0.182 0.0004849652638324476 -0.0031085694844487735 0.413719806793228 4.5743465538186125 -0.003034965754634621 0.0024886550760793414 -0.0007058291573101181 0.0009190757803588058
0.183 2.5039207434395194e-05 -0.00298584929764013 0.8102404982611874 4.512305383158524 -0.0028984288346952914 0.002712449994994792 -0.0007104955835377817 0.00090556902337485
0.184 -0.0004988532425126341 -0.002425689339651195 1.2438351063401212 4.391962585796948 -0.00284470754647887 0.0030824426950472705 -0.00023815200498314486 0.0008585210937278054
0.185 -0.0007661199300261984 -0.0018810577370926927 1.6594501743690102 4.279356349756435 -0.0026616071339502704 0.003143148145598366 -0.0002989074908939465 0.0008740872839864719
0.186 -0.00111886742748117 -0.0012867553417749704 2.052960252468374 4.113035726001951 -0.0022920558892889726 0.003494926834052326 -0.0001404765175662217 0.0006261693979449198
0.187 -0.001399144969180428 -0.0008513730150598209 2.4218803144436385 3.8994414856015127 -0.002088638676328699 0.003774069781629631 6.686140006992896e-05 0.0005756661215045096
0.188 -0.0012781328374582013 -0.00018122961820471513 2.813482611755982 3.623955846903992 -0.0017377778588287247 0.003756724660981303 6.852602686430782e-05 0.0004623993405256345
0.189 -0.001284250062556083 0.00044318235918078524 3.0742996114346095 3.352025840201233 -0.0014933525914460693 0.003915829852354941 9.398390695948563e-05 0.00028306718741884256
0.19 -0.0011664122465086654 0.0008493936355762509 3.3720067299535623 3.079950693226929 -0.0013661059666437454 0.004097709702822378 0.00032714117104644885 0.00019105966659608805
0.191 -0.0010001334350093478 0.0014153608014983265 3.6772454474291436 2.7221825924951495 -0.0010389570491076752 0.004164609893115921 0.00028888951019210175 5.3443197777514726e-05
0.192 -0.0007280370504560025 0.0018500789352605912 3.890928238863799 2.3535484383528247 -0.0007541304604285061 0.004294003302797484 0.00030046017229807485 -0.00018793354291592382
0.193 -0.0003071750481344812 0.0021943474700623507 4.10147063394597 1.9801244790754633 -0.00017633922543229113 0.004527473886781367 0.00027506000935381865 -0.0002694909438757667
0.194 0.00011669264227153163 0.0026114153615866133 4.26559878292153 1.5919423315186976 7.235784647069012e-06 0.004422181885411989 0.00016104210617523803 -0.0002457030913227295
0.195 0.0005094344831738495 0.0027549513427663924 4.418168371569419 1.1808185067966261 0.00040715572045940673 0.004522390494221397 7.633333629101857e-06 -0.0003955819906998992
0.196 0.0010734110946744402 0.0029909797978293832 4.473013646543094 0.7772410223766738 0.0007386825591295935 0.004430892845387334 -6.840359428880416e-05 -0.00037798248841017544
0.197 0.001744108300907969 0.0030142363347302383 4.532865684427204 0.3439786199856527 0.0009605533755346523 0.004447432596641331 -0.00017600021606101505 -0.0005197601989170467
0.198 0.0021445972440649564 0.003059027772364442 4.547981624439818 -0.07402301446513833 0.0012201674980945757 0.004510646390594779 -0.0003228771802513115 -0.0004732370739258278
0.199 0.0026534058162077196 0.002878105079809671 4.512645510647997 -0.508989935178393 0.0016822371183418197 0.004322375676261063 -0.0005149998410527729 -0.0006563980324524604
0.2 0.0030755730536507243 0.00253724430480901 4.446768848725084 -0.9191585713691295 0.0019842175910813995 0.004314153397743407 -0.0004227644612609989 -0.00043504671521554095
0.201 0.0034589952734482778 0.0023066245926806283 4.3364657171376875 -1.3434295726875907 0.002430008481803 0.004209892352431047 -0.0006993248920540038 -0.0004687926891767695
0.202 0.0037765111861727593 0.001959958967930502 4.191712832977376 -1.7516017210911117 0.002649443412649003 0.004085880885520218 -0.0007407366331614206 -0.0003875307330474763
0.203 0.00400348849355173 0.001589562546520341 4.001661803941077 -2.1231740949401336 0.002965701242121063 0.0038407936631248783 -0.0008248220003329959 -0.0003450833770122063
0.204 0.004392668995880255 0.0011126075890660592 3.7792642724426817 -2.4848000310748386 0.0033691420765816194 0.003711677585993194 -0.0008973021922867265 -0.00014776815995629842
0.205 0.004259318215069673 0.0005029641516671929 3.530297995498601 -2.8375211443905273 0.00358016152190226 0.003419082505295152 -0.0008789853739141168 -2.756628909274701e-06
0.206 0.004366346752387502 0.00019478654995096786 3.2399709328647988 -3.153442818749455 0.003808506204568493 0.0031705771906867953 -0.0009783597886410002 -1.4675443906624735e-05
0.207 0.00422995776497366 -0.00028868829046384866 2.9408754358954146 -3.438572890844879 0.0040678685386607285 0.0028865449183734376 -0.000994966575663698 0.00024088008371527076
0.208 0.004072133141035148 -0.0007135550109893324 2.59771431733315 -3.687936818609158 0.0044268704318924535 0.002541488726779301 -0.0009109145674352019 0.000222899376566043
0.209 0.003827149552365183 -0.0011033498345604234 2.2465315477763195 -3.921921160164379 0.004592042714756922 0.0022806220270787814 -0.0008938078430946237 0.0003656664430108141
0.21 0.0034979746901402727 -0.0014993185548540773 1.8492584611280025 -4.105949058409816 0.0047060867753881035 0.0019814477190488802 -0.0008438554667015862 0.0005031323928467841
0.211 0.0031574975725735133 -0.001880117057392175 1.4655716224690507 -4.283824450972235 0.005052230208124361 0.0016728526427058194 -0.0007814578055109838 0.0006306977160130644
0.212 0.002552219529931132 -0.00211472294889831 1.0591956107088767 -4.388137027775007 0.005072299090852573 0.001357960254828367 -0.0005597513007459561 0.0006330315271114756
0.213 0.0021628036853857616 -0.002044312311763651 0.6366549885358022 -4.45942148599168 0.005215746978657962 0.0009401773223288244 -0.0004310895493291954 0.0006116571242182172
0.214 0.0016250053613957802 -0.0021767651452430175 0.20209893797222492 -4.508900745491737 0.005327779091862297 0.000563575984496252 -0.0002164488131083138 0.0007152912915239449
0.215 0.0011754501539742337 -0.001909820779568995 -0.22106374911635251 -4.512410535689725 0.0054272697759465156 9.353911204032175e-05 -9.067178964732871e-05 0.0007290101634314778
0.216 0.0006621180177802247 -0.0019293376067604868 -0.616223570440838 -4.452925103977711 0.005490983905330306 -0.0002617106365662301 -8.44053763143317e-05 0.0006157995856789414
0.217 0.00024066921366369968 -0.0016456430173503148 -1.0320677349397185 -4.3910854321669355 0.0053888766040808694 -0.000579723178246309 0.0001751499273727984 0.0005299437812629102
0.218 -5.287044142179683e-05 -0.001256128606403376 -1.4449695313115773 -4.262470573141591 0.005505377122170191 -0.0010468812889167774 0.00015303403444449353 0.0006555187643465401
0.219 -0.0005526760674243572 -0.0007973755178622077 -1.8453335542646354 -4.136335848959779 0.005464660147136642 -0.0014889368180716935 0.00047569038092326046 0.0003676449460190926
0.22 -0.0007826119192806603 -0.0001983037899944801 -2.2055758446153972 -3.923267455446529 0.005461419902693943 -0.0017530388500125805 0.0005533673748992702 0.00025517447455268875
0.221 -0.0009467758243212342 0.00025285780786437126 -2.5751397710739163 -3.69481089568241 0.005230510770919633 -0.0020791188895659613 0.00038179468996119535 0.00013016815406605134
0.222 -0.001125316374448648 0.0008784524368910606 -2.916857611267411 -3.443626603330208 0.005033986159728782 -0.0026222723992116274 0.0004662576040123672 -0.00022311577324848433
0.223 -0.0009400438421471595 0.0015661882620596882 -3.2305633276621943 -3.163428763119744 0.005038740683004725 -0.0030406872999161052 0.0003678531000630315 -0.0003769942106624309
0.224 -0.0007652419735969383 0.002063010215157366 -3.5014558442082744 -2.8172871575924083 0.004757860215341952 -0.003450349096165605 0.0004544102284047342 -0.0003850324726429341
0.225 -0.0006456494057680822 0.002734453294723157 -3.727273063595911 -2.480205476827189 0.004563875897030252 -0.0038497392169526924 0.00031936527588514785 -0.0005870041510224449
0.226 -0.00028264306330261636 0.0031490097423109266 -3.9859774036295135 -2.0985122591747443 0.0043450899338352954 -0.004112090843396477 0.00029837811916187 -0.0006553229227281437
0.227 0.00027485997714377596 0.003688479728123768 -4.150245865478451 -1.7336922141574769 0.004088322831820178 -0.0045383642213597175 2.5952979136790207e-07 -0.0009516775254183885
0.228 0.0006284121095965047 0.004158249241097576 -4.304095532658156 -1.3332405458234073 0.0037608926453045663 -0.004808652912347386 -5.175053905770742e-05 -0.0010125534123209211
0.229 0.0014556366512852238 0.004536752610359381 -4.3966806766685345 -0.9320372572443689 0.0033802021863353713 -0.0051266499061940205 -0.00023108175750505695 -0.001050815148445383
0.23 0.00198701405629239 0.004942268534730647 -4.466911625895005 -0.5027713752810022 0.003054866661223603 -0.005393879942309689 -0.0004605364338829231 -0.000994163351617576
0.231 0.002746578884047745 0.0050116175366288545 -4.500189325211692 -0.09635276587548904 0.0026983575403056303 -0.005704191462650405 -0.0007097250873874314 -0.0011604735158531401
0.232 0.003611198640798567 0.00518813164769649 -4.481674958078663 0.3312026304373316 0.0021568392655963117 -0.005798839948799866 -0.0008460095016092564 -0.001159437863824571
0.233 0.0042607843430028484 0.005197558890314104 -4.429401375355103 0.7542723304906684 0.0018577610334921041 -0.006077944558747888 -0.0010425985400769327 -0.0011713440788872925
0.234 0.0049316017198712805 0.004852554142568735 -4.340544599974435 1.151634729847023 0.0013421919462730412 -0.006222670299079102 -0.0013042781963697174 -0.001114881854110457
0.235 0.005799832448338804 0.004718913687339999 -4.202602754401037 1.5680238839361726 0.000915208156077634 -0.006367093389104316 -0.0015626745057555423 -0.0009360518981404039
0.236 0.006499596721618597 0.004269563907245151 -4.036571172258289 1.9415860106435785 0.000512994226674787 -0.0064285483151549664 -0.0016579376966654117 -0.0007736595600307177
0.237 0.007147243580207483 0.003934594029364089 -3.8406001850764624 2.3155126980543113 -1.3941225059751364e-05 -0.006596312095714925 -0.001856596739441342 -0.0006268436496350148
0.238 0.0076784212671582655 0.0033060439040765253 -3.6021631783236634 2.668502183948622 -0.0005771291161746768 -0.006707202915139681 -0.001964570145051985 -0.00044256611764292516
0.239 0.008211033692107031 0.0026276011735972614 -3.3277845242708723 2.9766894147588436 -0.0009023475362772144 -0.006517228057832086 -0.0022079944684126147 -0.00020926370678876996
0.24 0.00865455805568623 0.0019129440007978696 -3.0307818716939616 3.288563149298603 -0.0015372161724279362 -0.006572494941899534 -0.0022510130300367683 -5.249527679951933e-05
0.241 0.009012597246737131 0.0012440493832574712 -2.6969886154621614 3.554258136353009 -0.0019057028698453548 -0.0065748622940473645 -0.0022012596128926252 0.000298049879568728
