!Created with skrf (http://scikit-rf.org).
# GHz S RI R 50.0 
!freq ReS11 ImS11 ReS21 ImS21 ReS12 ImS12 ReS22 ImS22
0.13 0.0021306504147273206 0.0014985098011200107 4.704990847633847 -0.18787154788222238 0.0020882462494930675 -0.00031924425067021033 0.00029685641895941227 -0.0008914497980503564
0.131 0.0021618348537456727 0.0010914571877457628 4.665897412295063 -0.6445410894060749 0.002001016625461884 -0.0005932846449814007 0.00010080944050418219 -0.0009245614405936424
0.132 0.001974400152313044 0.0008187302642369302 4.5752046199451275 -1.0809808897125668 0.002042395622301365 -0.0007028638497199982 7.049040111166405e-05 -0.0008894629014056891
0.133 0.0019426963731749975 0.0006206575773078986 4.445765851735246 -1.51564402688267 0.0021130538624102666 -0.0008152189451139209 -7.505174855816013e-05 -0.0008538225819694141
0.134 0.0016770031403889254 0.0003193367252111122 4.278695587151932 -1.9341706847649505 0.0020553319579174074 -0.0009844313523071602 -0.00014779237292524052 -0.0008106724371657862
0.135 0.001477149755030473 0.0001074993414011384 4.078289577522936 -2.3370248553153736 0.002044265378469493 -0.001220648837746733 -0.00013584018504521377 -0.0006756891378358996
0.136 0.0012351708682186622 -9.26940663587452e-05 3.833316600565499 -2.707161417866191 0.0018204025818661157 -0.0013530867262574076 -0.00031949257893045007 -0.0006278858609643255
0.137 0.0008230660746874179 -0.0003629115011737203 3.549649028898796 -3.061104255474339 0.0018161915772434533 -0.0015662257650248086 -0.00028413308651760666 -0.0006215630764512442
0.138 0.0006542048175135748 -0.00030746688301046835 3.2377187846253848 -3.3893280400293495 0.0017116317388833633 -0.0016752623280486994 -0.00030964506299246177 -0.0004535107829574172
0.139 0.00038615863368469044 -0.00024331680918745046 2.9047267094716775 -3.687730011454993 0.0016145971457911317 -0.0018025612822843845 -0.00021749841547620007 -0.0004685100416622748
0.14 -7.470330815207578e-05 -0.00019524509027157126 2.541158198361596 -3.943578021725792 0.00148533144148931 -0.0020582203562473688 -0.00026779395604086497 -0.00011212362252688751
0.141 -0.0005376384333215145 1.2464774351827822e-05 2.150431589511434 -4.159633121262226 0.0012647330441651898 -0.002062593956927095 -0.00018887037653563676 -1.1164111928462879e-05
0.142 -0.0007239769761128563 0.00019346011957290614 1.73271911038582 -4.340515147250413 0.001201928851949832 -0.002273008114981552 -0.00017995330769610406 -7.399348688161372e-05
0.143 -0.0010543432588192147 0.00037757442010619667 1.3187740179118057 -4.492567883117913 0.0010995951679821827 -0.0023167202908526714 -3.509456455301544e-05 -6.44997559810669e-05
0.144 -0.001036938111181165 0.0007553256018562055 0.8752545384567936 -4.615249450577187 0.0008121065888726484 -0.0024465161482923664 1.810720786860191e-05 -0.00019273226715730315
0.145 -0.0015227090565129156 0.0011293180035761797 0.4437343580066146 -4.654923551820604 0.0006700324346097684 -0.0025088033308423383 7.652318998605312e-05 5.135675371308857e-07
0.146 -0.0013443285518675051 0.00152157606420861 -0.03154418788188473 -4.673477529978867 0.000531312891317124 -0.002600594093760301 0.000117044794338799 -6.178671479641875e-05
0.147 -0.0013479637338010353 0.0018862370186700963 -0.4197273927139878 -4.647834576318003 0.00045232952965623723 -0.0025399652783588585 0.00031909311204348934 -0.00018420673999024073
0.148 -0.0013344706753128197 0.0022864632644457343 -0.9043431398052433 -4.597197537438331 0.00017755978172182273 -0.002584803254741485 0.00037639324941042145 -0.0002593496516353457
0.149 -0.0012426291697047564 0.0027022519005357186 -1.2893471024341603 -4.4884022065817755 3.723126500200161e-07 -0.002730488751777513 0.0004798129569625021 -0.00026226703093428107
0.15 -0.0010784912771059686 0.003099181976351665 -1.7504599327200765 -4.313900085093823 -0.0004019831473095502 -0.002729176766592146 0.0004985852534985743 -0.00019288222546849052
0.151 -0.0008400823371547461 0.0034782941349501975 -2.1308283542414803 -4.128266189906521 -0.0004748297803855597 -0.0027454000664395538 0.0005861797936028967 -0.0005134299268416375
0.152 -0.00026114584199881156 0.0039027679430379335 -2.5341881373648567 -3.925703835416087 -0.0006737715667786408 -0.0027102204115879358 0.0005035074090850198 -0.0005939043243151557
0.153 -7.203258262509637e-06 0.003913157508996202 -2.9031496544857593 -3.6569184066414375 -0.0009485183472963249 -0.0028399692206637784 0.0005079234178481263 -0.0007381703291102936
0.154 0.0004754529374087015 0.004271352956782675 -3.1966777372553272 -3.374119645806132 -0.0010087741521453582 -0.002704269841594212 0.00045557323470344144 -0.0008726045607873381
0.155 0.0010272285815619323 0.004362483811507108 -3.5218818309203455 -3.0271246199371222 -0.0012770492272505419 -0.0027701339163584923 0.00046099238546135296 -0.0010196501419231755
0.156 0.0015224763593210296 0.004388519681871573 -3.796398244425685 -2.700141845975722 -0.0014857186279996649 -0.0024222477815612374 0.00035801510560196304 -0.0009759711888898471
0.157 0.0019901814000873254 0.004509680380141139 -4.03430319474701 -2.3101750263616383 -0.0016231582531878303 -0.002497580194544121 0.00033719728616948586 -0.0011832503748879356
0.158 0.002345863704148003 0.004177143108543196 -4.214510478241304 -1.9255232981784087 -0.0018261000632705479 -0.0024922674045297264 0.0001737079525274742 -0.0011124512708131629
0.159 0.002916443347877943 0.004052069241389329 -4.370847245118732 -1.4910176618687305 -0.002154720184267497 -0.0022836620157867657 7.069784181768265e-05 -0.0013795869563207207
0.16 0.0032588795150091973 0.003881362433273354 -4.505701826623073 -1.088223242249211 -0.0022044753252216135 -0.0021675139162335684 -9.862816077332763e-05 -0.001296110932181525
0.161 0.0037375919703982467 0.003489889461179951 -4.571660444940401 -0.6450478740715639 -0.002384902621653653 -0.001942048613669749 -0.00021285732528073605 -0.0013126330827680464
0.162 0.004056510287928772 0.002990119717970846 -4.6245777214882375 -0.20570424628152484 -0.0027596929973560252 -0.0019033404138089245 -0.00042472694197956716 -0.0013451428640015887
0.163 0.0044728645848232385 0.002539791292137863 -4.619764171266035 0.22000909500891808 -0.002850069482321447 -0.0015666365350443248 -0.00047796750394678376 -0.0013364041391116452
0.164 0.004437402148771009 0.0020749062424559777 -4.564388734489945 0.657992584717315 -0.0028478425483091864 -0.0014310508035469637 -0.0006701211490547561 -0.0012408590294799272
0.165 0.00472237978973968 0.001524789364421467 -4.482785940062912 1.1261279630966141 -0.0031254095112230647 -0.0011588379116662664 -0.0008096520958359129 -0.0010797958814361011
0.166 0.004710042668966435 0.0009461527841358174 -4.358175226750697 1.5379626668126232 -0.003239946909723499 -0.0009419623240408715 -0.0009990010520223235 -0.0010908154115788558
0.167 0.004626449108536043 0.00041058277490251574 -4.1872463921119385 1.9421285465089873 -0.0033194585737596175 -0.0007131453526305699 -0.0010288737044620328 -0.0008042961840135538
0.168 0.004502045861593453 -1.0467003706335459e-05 -3.9910847452351064 2.3414092105736457 -0.0034442427587407665 -0.0004811836107244179 -0.0011553169383197173 -0.0007665012739410237
0.169 0.004297255469080795 -0.0005950915934692829 -3.743792901691527 2.6997982051745453 -0.0034769559966813307 -0.0002498031503098715 -0.0012174022986058647 -0.0007186707980602767
0.17 0.0038487222292029745 -0.0009367719392252021 -3.462464374018053 3.0448619875732126 -0.003546587812880849 -0.00016211571852070593 -0.0011738944457187648 -0.00047913214012116126
0.171 0.003545259898802439 -0.0013775632629595567 -3.17149600403398 3.3576126293579285 -0.0035061767425499375 0.00035933262675491513 -0.0011649461667953011 -0.00030161452532361064
0.172 0.002962801599236442 -0.001664891811960447 -2.818060841806338 3.650360509998903 -0.003481299868652758 0.0005411698092076224 -0.0011748353829019933 -0.0001301246294458352
0.173 0.0025572454202298055 -0.0019539464981236762 -2.455982728085097 3.906055683627296 -0.0035250205421218468 0.0009054813252263838 -0.0010348968214872359 -6.209009700321944e-06
0.174 0.001961221393310936 -0.0020892592184433706 -2.0557800545365406 4.117631226237502 -0.00349704557984924 0.0010167096169957823 -0.0009675219848338181 0.00015675852241055037
0.175 0.001372250843749023 -0.0021047462344759636 -1.6758116760996522 4.298927469787959 -0.0034918306045131843 0.001332200368757721 -0.0009409785777076307 0.0002660760968128994
0.176 0.000814614222049755 -0.0020985880956249214 -1.2597805510010116 4.427534451834294 -0.003370712001212512 0.0015029410773386295 -0.0008145151431957892 0.0002771100771706564
0.177 0.00038066456395287443 -0.0018968277917690369 -0.8219171319691266 4.520615490430337 -0.0032435013498580676 0.001911759933284513 -0.0005011269967698883 0.00035191219897619534
0.178 -0.00014278242415428016 -0.0015859236289462405 -0.3988752762113815 4.57713526552861 -0.0030973759720921016 0.002105839007253833 -0.0005385788408100112 0.00031784097721209077
0.179 -0.0006457707932671362 -0.0012553128535346425 0.007830105932599753 4.593987467716681 -0.0029484687077002154 0.002345317909275929 -0.0005064338865750792 0.000375168993032708
0.18 -0.0010776053942395268 -0.000976416993301728 0.4516781063770643 4.585964774398857 -0.0028950377406829725 0.0026253476611096454 -0.0002201613355087307 0.0004801473851131664
0.181 -0.0014704838964098783 -0.0003749497679374948 0.906526400079295 4.512380270743774 -0.0025684474871360613 0.002984119818556759 -0.00022983822651409945 0.00024405836955508368
0.182 -0.0017024727075538454 0.00021988522865023512 1.3233476332190994 4.404618698210959 -0.0024691001066801718 0.0029828070437801072 3.878752130200536e-06 0.0002506075165838106
0.183 -0.001860939665726244 0.0007875274023973507 1.744605339594453 4.257755612218715 -0.0022894000487851817 0.0033150948538038048 0.00011954506773434692 0.00014735862890623427
0.184 -0.001739485201126991 0.0014383083348522765 2.116200247126803 4.051684611597956 -0.0019872419814914236 0.00361407933122671 0.0002330200579329399 -2.340247964755958e-06
0.185 -0.0016277390885326253 0.0019280880816411477 2.5071884913853713 3.8495178961477214 -0.001697748791858874 0.0036201926961134927 0.0002770254970316362 -0.00013890479725642038
0.186 -0.0016629298512131135 0.002695882808451967 2.8733775060892968 3.5779049417241664 -0.0015531722291601028 0.0038608988300531406 0.00030001800326849776 -0.00018765697250840345
0.187 -0.0013486304262658511 0.0031953290809953235 3.2030521309282265 3.3037606583955803 -0.0011225856237564245 0.004054352479380401 0.0001795817801252921 -0.000343885053996182
0.188 -0.001030855008802181 0.0037892753118700553 3.4674631598675516 2.962311096767792 -0.0009539209548000911 0.004030214601394379 0.00012769061283566047 -0.000541620545095329
0.189 -0.0005460034332538852 0.00420040611364383 3.7469295558720197 2.615641602691315 -0.0006039892199612838 0.004153675518296949 0.00023203611343172874 -0.0006898858654305217
0.19 -6.621551646548942e-05 0.004602671232441581 3.995375726644798 2.2601152537110374 -0.00021257271870551292 0.00426764690026754 3.7766876478469275e-05 -0.000700529365433714
0.191 0.0006442162403210806 0.004977192626519267 4.183765281495315 1.840134797919901 -0.00010212204157241596 0.004404791686464545 -2.0788477633989622e-05 -0.0009995921662693046
0.192 0.0013409316190149542 0.005072141963213555 4.322996358905358 1.4526838196811043 0.0002790318831363026 0.004437981701322543 -0.0002758976852026238 -0.0009233186829119639
0.193 0.0019093565020922624 0.005288503908014796 4.44898466358279 1.0375176347202593 0.0006323451343421966 0.004297233519350922 -0.00035796595532623567 -0.0010161456183569078
0.194 0.0025733311431041616 0.0052087960418573465 4.521001956420945 0.6084938347020579 0.0009967762198891698 0.004337745994507714 -0.00048514106723115366 -0.0009755395326651418
0.195 0.0032302790316207854 0.005266096584616152 4.58185841037793 0.16864253807954027 0.001343448818565227 0.004299685207329761 -0.0007317228931981561 -0.0010913920447934312
0.196 0.00391814796098802 0.004960401412480721 4.5493444008430926 -0.2489773121716464 0.0016402105058380678 0.004303560347805677 -0.0007425014811424806 -0.0010442581962506266
0.197 0.004600080820434718 0.004715678560054523 4.502878439624547 -0.6882675032652288 0.0019209321057357012 0.004078002090531726 -0.0010043449032163866 -0.0008829696211061304
0.198 0.005004148709294521 0.004291086693025264 4.41805860221486 -1.1132305991365403 0.002383597753542217 0.004177700381819208 -0.0011851047536568541 -0.0008416751734020519
0.199 0.005492938678818828 0.0038214141287816043 4.288118782126377 -1.5287918904987492 0.002626807593615913 0.003925499161587275 -0.0012488481114759458 -0.0008490648506919875
0.2 0.006031923377090098 0.003217524104372216 4.130513981952152 -1.925747473912532 0.0028867165888530897 0.003697166183606236 -0.0014165842960513788 -0.0007164412298244711
0.201 0.006412856719354222 0.002724934544752647 3.917537037519298 -2.308505152409836 0.0032792476698508873 0.003624543024030589 -0.0014572271637413232 -0.0004986540000703039
0.202 0.006519136410033511 0.0018941288014457046 3.6895470065895912 -2.6777314650957793 0.003623981079005151 0.0033128212629126006 -0.0016210261816608888 -0.000423473277357767
0.203 0.006588494669260339 0.0012901741122850158 3.4063222955513477 -3.0136593940944767 0.0038544916040298507 0.0031080571839779223 -0.0016846601329677119 -0.0001772971657617022
0.204 0.006722822894966387 0.0006860400524300129 3.1054409333577064 -3.3138337827824778 0.004108160201338678 0.002800222230314019 -0.0015866571212122718 4.826021160403523e-05
0.205 0.006527418186893256 -8.604870220912746e-06 2.770916618924724 -3.589292485161185 0.004324082871847189 0.0024849282717225255 -0.0015257077641231533 0.0002784717376591223
0.206 0.006457799246461228 -0.0005555025615518749 2.4192476736693793 -3.8305130490764436 0.004478479486564281 0.00226404428086107 -0.0014410146727288277 0.0004085301533144581
0.207 0.005969526561310481 -0.0010900293692900557 2.045889389888694 -4.056217655380124 0.0047674015985480715 0.001893904746987362 -0.001372272560904503 0.0005246203413209204
0.208 0.005685252644985881 -0.001796602392353184 1.6445979930519725 -4.229076723264183 0.004753631576642658 0.0014252040740273682 -0.0014559829729630745 0.0007244396585911999
0.209 0.005219767952775799 -0.0021432568408389736 1.2494357319135148 -4.368538736364368 0.005009321587899976 0.001047419631862207 -0.0011536173779649684 0.000844175358926492
0.21 0.0047536603154142406 -0.002514071163861993 0.7982347983030934 -4.455922086586547 0.005010763177143034 0.0007972167476889224 -0.0010001859271613909 0.001033464423144241
0.211 0.004112400991313924 -0.002625409995739164 0.3793427782876207 -4.527838269622633 0.005360013723551963 0.00038683689720386046 -0.0009892622822279273 0.0010277711987066785
0.212 0.0036305193204923046 -0.0028108504542448008 -0.05046638376381381 -4.51338973935066 0.005305949876781779 2.4290669817685186e-05 -0.000729661791233712 0.0009569785885047271
0.213 0.002899039486018132 -0.002677829280614028 -0.4921725042856399 -4.496827972221407 0.005368368260930616 -0.00030128112794487814 -0.0004216009673538421 0.0011815962986173
0.214 0.002559616674002076 -0.002694696456930108 -0.8689675890734009 -4.4317236486747005 0.005276708622119053 -0.0006963388685859339 -0.0004291299796755439 0.0009909934854315833
0.215 0.0019228300411330758 -0.0024826700181576266 -1.3070300423786647 -4.336356897104906 0.005299715817484932 -0.0011877190972064645 -0.0001711192654756406 0.0008563075012254713
0.216 0.0014625167185830243 -0.0023809590322211665 -1.7073707622940362 -4.17987376233637 0.005271216106458153 -0.0015053732231038051 -0.00011527255483422864 0.0009727964723053286
0.217 0.000990685418141221 -0.001995517868004426 -2.1179386168227534 -4.001673165402824 0.005203572159699836 -0.001969935959766478 4.917567764523448e-05 0.0007598000245279302
0.218 0.0008580198922796541 -0.0015709410036577683 -2.4857082718519425 -3.7722362734491255 0.005077349999137472 -0.0023446789985206336 0.000200530063094814 0.0006820980806109966
0.219 0.00041981898378184236 -0.0010111919908425643 -2.817145219188023 -3.5515663286099324 0.0049092641300443555 -0.0027282543816031985 0.00026378122843142047 0.0005203719809643162
0.22 0.0004110957330081651 -0.0005522891055211547 -3.149915123586145 -3.244081300340598 0.0046721198244901625 -0.0031622874815828506 0.0002816681495214472 0.0002806330772177597
0.221 0.0001868595509924924 1.9638925194421693e-05 -3.4114776416917527 -2.9387067622126395 0.004667157318127479 -0.0035049970094942914 0.00020466031137992812 0.0002500564733840113
0.222 0.00044051452135407876 0.0006095437760107715 -3.7115013289996495 -2.5785100080854604 0.00430945340649388 -0.003860080230518976 0.0002830509500128817 -2.5804406988869247e-05
0.223 0.000515584026444751 0.0010775393290920502 -3.928349110526477 -2.2480798698620275 0.004012102184255747 -0.004222393141377307 0.000262787569484627 -0.00014666252098791263
0.224 0.0007678719569756776 0.0016910478912844998 -4.123529631715184 -1.8392832749120949 0.0037060707373535572 -0.004556572949926804 0.00025240430045492355 -0.0003317407007445232
0.225 0.0011754217597861906 0.0019638043401069756 -4.267588291307241 -1.434388508911922 0.003327236708526113 -0.004909692200221183 0.00010554826223873031 -0.00039913153830735344
0.226 0.001644340166968987 0.0023131099656727118 -4.389615570833902 -1.0329855557229557 0.0030380228138921074 -0.005133101563822649 -0.00012793996011483297 -0.000464161711305131
0.227 0.0020801206914302594 0.0026174501404452786 -4.489009121074641 -0.5990862957308678 0.002743919325911276 -0.005355424290307074 -0.000284513791334608 -0.0006245341917767419
0.228 0.0027127114128301676 0.0028377993182369878 -4.507506786728908 -0.18325640444792296 0.002324720847604579 -0.005645001356064399 -0.0003517947046249861 -0.0007009176767163789
0.229 0.0033109558265447827 0.002966922867956428 -4.5008039451341855 0.25988416974473816 0.0018690294309974497 -0.005821072370717437 -0.0006002645419534654 -0.0008215904654370208
0.23 0.003912868829225801 0.002829031020717977 -4.455591461867176 0.6776982311308077 0.0015839219286601107 -0.006006177037796989 -0.0007414507735054575 -0.0007794082736851106
0.231 0.004395015306809495 0.0027214794319872742 -4.366064988928747 1.0866854429950876 0.0010812825542366891 -0.006191481946466988 -0.0009269766567484333 -0.0007752446161151334
0.232 0.005187738089554983 0.0025094652255861715 -4.25051053877906 1.5143224400998905 0.0007377503566352488 -0.006179077362904881 -0.0011401257709256537 -0.0006194404261379074
0.233 0.005688572387010767 0.0021621952266535384 -4.077759196603268 1.900813464202046 0.00015586703574019337 -0.006228165819586589 -0.001341257668641784 -0.0005033526163171662
0.234 0.006070427763065378 0.0018456254350792452 -3.874889009836055 2.278927079099619 -0.0003339157697830736 -0.0062894458061451206 -0.001452561698379605 -0.00042230889312170147
0.235 0.006488184227545917 0.0014437337201134344 -3.6475253335098063 2.6379432671915803 -0.0008003164092525917 -0.006391923643382756 -0.0015246021743875867 -0.0001570900908992395
0.236 0.006948264786900207 0.000700819872825694 -3.372743799850006 2.959444476907029 -0.0013344029126520379 -0.006307469230949901 -0.0016306314827765711 -2.2235665766972168e-05
0.237 0.007231047925568929 0.0002016160517746214 -3.0757396986790084 3.268714408612585 -0.0016984517315900758 -0.006170133309287226 -0.0017285409947681112 0.00016691533659042343
0.238 0.00744947172446536 -0.0004605360586588129 -2.7443782933449086 3.5524120720009322 -0.0021752579657951998 -0.0062563767580208285 -0.0016872453899309033 0.0004087234180655349
0.239 0.007415706444807703 -0.001256431143928454 -2.396889266440622 3.7816784186217367 -0.0027207364517841046 -0.0060807253484129395 -0.0017589692403057427 0.0004383055445221347
0.24 0.007253874719405265 -0.0018190377721233437 -2.0263295186653045 4.001819272990611 -0.0031552474829846995 -0.005768031089811349 -0.0017285645337619996 0.0007696065148378185
