!Created with skrf (http://scikit-rf.org).
# GHz S RI R 50.0 
!freq ReS11 ImS11 ReS21 ImS21 ReS12 ImS12 ReS22 ImS22
0.13 0.0005041414402633317 0.0016012159781247548 4.662882263913628 0.505340931446156 0.002109693388633127 -0.00022301931661743165 0.0007718110454884429 -0.0007537132304075669
0.131 0.0005169612257445159 0.0014279071172462725 4.690965477450487 0.04295143540579403 0.0021689277785773117 -0.0002788155295850248 0.0005778363634417814 -0.000918310407410481
0.132 0.0005475630611718017 0.0011119720609840276 4.668702901228276 -0.3940494040149471 0.002162663651325582 -0.0003802338451876241 0.0005593939763977702 -0.0007803524372161721
0.133 0.0005722878698331695 0.0010360131238364176 4.603332753199764 -0.8350922899776454 0.002103304285792434 -0.0006177274635878484 0.0003691998635423045 -0.000861278082093313
0.134 0.0003419076467705014 0.0009352152536605965 4.511023946724916 -1.262368661123784 0.002157087762950598 -0.0007217514692384676 0.0002527093172736545 -0.0009385155664208662
0.135 0.000252090669198944 0.0007715573706667197 4.35914321080812 -1.6893643813631247 0.0018703269754198947 -0.0007808843785568387 0.00028349637148186523 -0.0008446014148165748
0.136 -2.4097363023551127e-05 0.0007533750486844442 4.180888504404912 -2.089766220901199 0.0019559311168571686 -0.0009840316316782215 0.00023079085832941132 -0.0007876084072935144
0.137 -0.00016224556323647668 0.0006766142252731876 3.9643177999645696 -2.474269150971537 0.0019505752395968707 -0.0013288780913174602 0.00019242266762163767 -0.0006968044423041758
0.138 -0.00045048487706648315 0.0005797652289473112 3.720983623711198 -2.8395240689333985 0.0020040425030037395 -0.0013232071919408038 3.097637696938724e-05 -0.000710587375593822
0.139 -0.0008258066038806134 0.0007519615323444267 3.4381069548354124 -3.169687255236621 0.001905359792479056 -0.0015480988199893645 3.552733239000137e-05 -0.0005955240992313346
0.14 -0.001126160953614093 0.0007593817564363653 3.1128982106539276 -3.486989904752449 0.001830722845819871 -0.001790479353612197 0.00010345631367975736 -0.0007204419985968387
0.141 -0.001201013064851627 0.0009425610516519568 2.7730671452730533 -3.7625855674113224 0.001702865751071462 -0.0019124880882625606 -5.340788464992833e-05 -0.00038343045420944467
0.142 -0.0015725461206751203 0.0011451445837864383 2.406101412389957 -3.999791122328771 0.0015841696708345087 -0.002062345787031539 5.492142924774076e-05 -0.0005043433604929395
0.143 -0.0018576899822084704 0.0014562878069281715 1.9986070696962122 -4.224954333836205 0.0014847267584542606 -0.002013805640502728 0.00012329002424147948 -0.0005120018847843965
0.144 -0.0018481601897657116 0.0017442844023890457 1.5875149918741314 -4.385835449301918 0.0011676028557713544 -0.0021553603656627707 9.405284234336292e-05 -0.00033735664541354295
0.145 -0.0022009816768857556 0.0020373510778995186 1.1768983527621883 -4.51641508387298 0.0011208643211600108 -0.0022824912619019556 0.00019332684487715103 -0.00029829794086484127
0.146 -0.002152926211591806 0.0025821603111374574 0.7493912503819926 -4.587633806795957 0.0010055052045948995 -0.0024872479330951052 0.0002547703432837233 -0.0005282856289557378
0.147 -0.0021909816376864196 0.002947471577309698 0.3322838563307857 -4.638259346453917 0.0008311892319121838 -0.0025640842364414687 0.00027235796202381107 -0.0005221947527744286
0.148 -0.0021039301038706503 0.0036366664130947266 -0.11290587908049818 -4.6509735142906505 0.0006422074104583006 -0.0027593810478635304 0.00045511581745717744 -0.0005159013133558608
0.149 -0.0019462499737902539 0.003993167269484136 -0.5514741648808758 -4.608232712750527 0.0004307666506431452 -0.0027525371350554093 0.00037181006198016507 -0.0006507386303953148
0.15 -0.0016401145592029977 0.004636563015176335 -0.9794316693319627 -4.533342693417632 0.00018486949222654018 -0.002677861811447532 0.00040168405698763713 -0.0006608368868807659
0.151 -0.0014073809555443686 0.004948843741030971 -1.3992264698815973 -4.39801701021771 -5.286766222514582e-05 -0.0028297731415764414 0.0005476500048963626 -0.0007339662142028164
0.152 -0.0010451111934435672 0.005261627447056948 -1.8365522635434481 -4.282739386230873 -0.00016156584950730805 -0.0028316218739745528 0.0004862866972342589 -0.0009352375232642988
0.153 -0.0005592191171611985 0.005913338493845867 -2.1906998720944517 -4.0691028458041805 -0.00032520196964431087 -0.0029806641372961814 0.00043915449176613566 -0.001014712270065301
0.154 -3.2200361725227533e-05 0.005978497574137518 -2.570006840847501 -3.835522235846633 -0.000656911472445405 -0.002846281506644673 0.0002998723646089174 -0.0010674444835073321
0.155 0.0002513403700832063 0.006245087363534103 -2.932298839341491 -3.569045198694174 -0.0008104875999922878 -0.002904063394696882 0.0003656822975275412 -0.0012729925308955523
0.156 0.001031832203863598 0.0067069626888335695 -3.235108752856016 -3.272376628476717 -0.0009250972486488758 -0.002899531751341671 0.00022282602666170358 -0.0013020892584364903
0.157 0.0016607822584004258 0.006599662309787942 -3.547223323702475 -2.9674186510508695 -0.0012968465282207253 -0.002779611922701748 0.00010825784045104303 -0.001482771930545406
0.158 0.002419307394665521 0.006748453977797054 -3.790761128526313 -2.6274483052551934 -0.0014426871912905474 -0.0025984970021241047 -4.693501084791828e-05 -0.0014863950523310466
0.159 0.0030471419403449488 0.006652659075029188 -4.032943527426009 -2.240531864208635 -0.001590984191046302 -0.002690458524978117 -0.00015478902488739682 -0.0015340635190354407
0.16 0.0037132343819217374 0.0064279678774757714 -4.212749153592932 -1.8783906038785838 -0.0019132793040118061 -0.0025135993848466893 -0.000412705898968181 -0.0015789290070635335
0.161 0.004315471067075383 0.006267599998087512 -4.370919300764137 -1.4571893495479804 -0.0020434334197863007 -0.0023859576510966637 -0.0004155883471016664 -0.0016533815201340168
0.162 0.004944953818542598 0.005860228721829076 -4.491748781785076 -1.032487127087995 -0.0022987177342668947 -0.0022180294157058194 -0.0006729748293686433 -0.0015740786565297774
0.163 0.00562421028283947 0.005438280847731784 -4.571883000581156 -0.584784667924849 -0.0024562415659515158 -0.002151105314011427 -0.0007927989108858382 -0.0016280132313806759
0.164 0.006031629391331174 0.004919824717813794 -4.601161550323005 -0.1814084876275326 -0.002577388018434242 -0.0019827293593666015 -0.0009878992399096724 -0.001428205094504608
0.165 0.006589305376070382 0.004279144945117283 -4.586769876853905 0.26610302836302974 -0.00273826181163126 -0.0017846248144511912 -0.0012649581839104848 -0.0014305610542143933
0.166 0.006989240831389636 0.003648064123349802 -4.545661538566582 0.6894955909652775 -0.0030783788623021634 -0.0015961060888742412 -0.0012985361575858167 -0.001289009924201414
0.167 0.007225400479613548 0.002954983085838469 -4.454401892502169 1.1228725851908115 -0.003062873108551272 -0.0012951865133543903 -0.0014256344607720798 -0.0010816253137948617
0.168 0.007315676607610578 0.002296894580194932 -4.333685058427664 1.5412917364823264 -0.0032626070926631222 -0.0010468215639484395 -0.0016286625953917855 -0.0009822297964427909
0.169 0.0073999025974630555 0.001621672773893037 -4.165872329429781 1.9411952512040638 -0.0033503339821661926 -0.0008972296728663597 -0.0017352847068486117 -0.0008889456945622722
0.17 0.007490520050931632 0.0007790896982000108 -3.9580013511780403 2.332167975976353 -0.0032527045031317163 -0.0006802660089882213 -0.0017113132334654693 -0.0006162688331526566
0.171 0.007165839881194285 3.143119702688321e-05 -3.7180379546474627 2.691256103980997 -0.0034739310996815625 -0.0002648268252508337 -0.0018705824148909217 -0.0004160363248164975
0.172 0.007123897121594018 -0.0006179689090862833 -3.45899624194883 3.028455563750566 -0.0035148971664216485 -0.0003133097489612371 -0.0017195760672591648 -0.0002928225594826719
0.173 0.006650805681537191 -0.0012982568125101952 -3.1611014631122307 3.333836067477324 -0.0036887010625584996 0.00010665904997036724 -0.0017779329629804925 -2.618411687299193e-05
0.174 0.006194858979673229 -0.0018391362185090324 -2.8346585785442233 3.6210681417624966 -0.003607678969818761 0.0003290189116273106 -0.0017750692992656767 0.00030775442241941247
0.175 0.0058041478118645105 -0.0023940795832936685 -2.469289446375648 3.8678562143042505 -0.0036131192943082728 0.0006655762139708284 -0.0016004299714615282 0.00039810497201160595
0.176 0.005224573394455196 -0.0027074160275570376 -2.107223488831868 4.072310741652525 -0.0036104282584315385 0.0009106459903169147 -0.0015803108057356175 0.0006387376803461985
0.177 0.004658613099763982 -0.0030023611755149566 -1.695687350448966 4.260397745194966 -0.0035601763362474214 0.001257447600576197 -0.00134787050731919 0.0008118847463441958
0.178 0.00415722844274342 -0.0032104914660107515 -1.296389078767742 4.396340728136667 -0.0035546496175667443 0.0014395556461302042 -0.0011370752251513457 0.000812940767785611
0.179 0.0034559278273291402 -0.0032975113064565116 -0.8689974964307261 4.495142638340237 -0.00341310636890324 0.001658926043178905 -0.000994221199310685 0.0009764856321970843
0.18 0.002883981385791734 -0.0034147139611728147 -0.46480410041444653 4.566002816754833 -0.003281866995800515 0.002068202149469488 -0.000979246089966021 0.0010271311999038007
0.181 0.0022403329848289756 -0.003249016422656772 -0.019695114258121777 4.585406921987333 -0.0031818638721673367 0.00223249413304486 -0.0006432333900776363 0.001163040370481884
0.182 0.0017139457071276636 -0.0031185621383471073 0.40877317544608516 4.575281474526806 -0.003011270277400612 0.0025811132295256367 -0.0004299973122392163 0.0011226971583772763
0.183 0.001050424558158863 -0.0027110064632091383 0.8234631193790448 4.4977498871945425 -0.0029254894257985135 0.002755034799818755 -0.0003332236437460985 0.0011047242364469914
0.184 0.0007891487495294509 -0.00244975977575134 1.27132614305535 4.404161962079522 -0.0027933029344641585 0.0029227053892232125 -5.0205865403039944e-05 0.0009432195673093089
0.185 0.00034472313073050293 -0.0020817751356313123 1.667330434431345 4.284938415488432 -0.002644098267254049 0.003238016485236472 8.822118167781092e-05 0.0007871878203469521
0.186 8.42480581343096e-05 -0.001644003821179913 2.041968627288703 4.081956366525512 -0.0022412360353872016 0.003406790605829127 0.00021516713874965155 0.0007839560872786217
0.187 -0.0001604413640018573 -0.0011789008484923576 2.449351485818059 3.879935345626369 -0.0019771432854632075 0.003615538313285156 0.0002909676251080378 0.0006578646839548144
0.188 -0.00023149403388874424 -0.000657420162541829 2.7531737888567074 3.6473726816198058 -0.0018115797913227946 0.0039211795394211634 0.0004957851701738661 0.0005336305176790367
0.189 -0.00020590435580742752 -0.0003497197759631013 3.103750541020223 3.344786186580766 -0.0015667817208563342 0.003892430042276145 0.0004116752700638301 0.0004213015694321224
0.19 -0.00020904938831999784 0.000178052642581733 3.4169430862467047 3.0355375060295544 -0.001289795154191274 0.004142846060388394 0.0005161212924739263 0.0002837607020184311
0.191 2.577572885535347e-05 0.0007338170651945978 3.703665714168447 2.7138932901349797 -0.0008719457123158128 0.00428575009860146 0.0005457564592354805 0.00013801051911543024
0.192 0.00031369534773635724 0.0011062149981187009 3.8845948265298413 2.362578084448986 -0.0005629929670758483 0.004349664397028429 0.0005975313313538979 -0.00011535054423229044
0.193 0.0004823928725752254 0.001385912918511457 4.11903255498184 1.965539596646615 -0.00034566972898020167 0.004395982021366161 0.0005234010826898278 -0.00030132994888910545
0.194 0.000798873843501584 0.001709841495219992 4.264058989088164 1.5630286843370584 2.900434251355005e-05 0.004478122243160806 0.0005165900762065627 -0.0004539727734788595
0.195 0.0014231739406382784 0.001701837563047345 4.405876074465536 1.1421614254198948 0.0004072830571508387 0.004492934081640468 0.00041941921393141986 -0.0005478727689813285
0.196 0.0017523258862355306 0.0019688474188596394 4.484952122005449 0.740390066125261 0.0006825029528968743 0.00456673389094597 0.00026795393726932994 -0.0007780224224909344
0.197 0.0022127138421320284 0.0018256680207912072 4.534981714162146 0.3148546589776115 0.0010065672277125312 0.004530099110053512 8.184593870507942e-05 -0.0007612343738004322
0.198 0.0026544334593858474 0.0018861625489452897 4.544358494113713 -0.1183151767166251 0.0013515241734304753 0.004367333990263597 -8.060094008520697e-05 -0.0009457756929714525
0.199 0.0029469139141689617 0.0016532554670334286 4.513581074060056 -0.539035132978382 0.0016427923536210562 0.004270914947182887 -0.00024866440956504784 -0.0008757524512424256
0.2 0.0033676713157093823 0.001458302950028879 4.4303291233770254 -0.9544886226358824 0.0019463148095893563 0.004323019573602585 -0.0003718850649683201 -0.0008290231930857073
0.201 0.0036742668240834814 0.001002662089863297 4.317525562868628 -1.3695673865148421 0.002326222370075394 0.0041949298757805184 -0.0004232924862226185 -0.0008185799321258312
0.202 0.004052087349079649 0.0006515612657636807 4.172871648308037 -1.768677421289006 0.0025558986867647193 0.003987617008020294 -0.0006953427650517011 -0.000751806147019143
0.203 0.004222932455392337 0.00020928120324018406 3.983824091001634 -2.1497827906341573 0.003048497320053116 0.003829805932130393 -0.0007607959827260837 -0.000645844228046988
0.204 0.004188658678647289 -0.00017016822858095823 3.7623111178873536 -2.5090754891313254 0.0032705716214612448 0.0036423131137167802 -0.0007972353330394947 -0.0005174216320548557
0.205 0.004168300922508481 -0.0006826073385742943 3.5211931961886775 -2.838708880900928 0.003471399994359173 0.003363974734522626 -0.0008354367444335306 -0.0004884343491878797
0.206 0.003997273575434565 -0.0011824902649105393 3.22585753725202 -3.1633474675791025 0.003940229689410534 0.003313347074160866 -0.0009436147829914715 -0.00045848095875336927
0.207 0.0040262980886558025 -0.0014935715431771642 2.907454213989145 -3.4640096600284105 0.004135984173450144 0.0028233195423914715 -0.000950760654137238 -0.0001766153813478567
0.208 0.003728615453453861 -0.0021739533021970423 2.5788268144345947 -3.7127675855117372 0.0043655826176993645 0.0026065259077712104 -0.0009148475372203589 -0.000157713310444359
0.209 0.0034171676147137643 -0.0023915115403184257 2.2188511571091465 -3.9286777252623444 0.0046392915047251205 0.002362841157492904 -0.0008971370055413455 6.50699576111754e-05
0.21 0.002964940654487698 -0.002856381438203854 1.8371231162624113 -4.103637126316525 0.0047578349590761525 0.0020479708370854314 -0.0009584899505145748 7.504029784374424e-05
0.211 0.002331176716200406 -0.0031838736197241355 1.4508597166276151 -4.270268629571224 0.004826077924815611 0.0016511779496779578 -0.0008196365307961009 0.00020257862240472018
0.212 0.0018359381396913013 -0.0032728056839025363 1.0381332756768784 -4.375354262456054 0.005109385137878531 0.0012705833311708694 -0.0007708818479014184 0.000227774043953169
0.213 0.0013707371332231163 -0.003380080864077338 0.6152865009805474 -4.446153697747799 0.005149546822158823 0.0010133638523014419 -0.0006595350130436547 0.0003855941901155241
0.214 0.0007674090476874576 -0.003210951088297393 0.1909204135128224 -4.514030731728449 0.005342682567499607 0.0005280012952302565 -0.0005474575175714962 0.0003619249786016456
0.215 0.0002108219407107107 -0.003096803685444554 -0.23582990904288445 -4.488193252911789 0.005415014160339382 0.00019541507055925088 -0.00045450001949598267 0.00025071963158719573
0.216 -0.00041017399438652755 -0.002937427616018298 -0.6683243240590223 -4.4449101571791525 0.0054650178732936925 -0.00026559633098544115 -0.0002932701449252101 0.00025989155091284794
0.217 -0.0011057581497504725 -0.002565519306190649 -1.0506746910239744 -4.364575397531123 0.005457739726104753 -0.0006811294314936402 -0.00016856906276943557 0.00010813504254042822
0.218 -0.0015196582734346006 -0.0021577489588693274 -1.4738051368088962 -4.234236645263601 0.005418506516386097 -0.001039120891903544 -0.00014203737632788836 0.00021389731508008336
0.219 -0.0019563569018083374 -0.0015203278428721372 -1.8797998928632949 -4.08345758312645 0.00545730270756 -0.0014145304657301723 -1.712888133568901e-05 0.00011916544492198168
0.22 -0.0023821712766837724 -0.000898069409640355 -2.2173684398375655 -3.8888158889845337 0.005309003982620014 -0.001956128062947741 4.529709177786394e-05 -1.498814111295339e-06
0.221 -0.0025312615848383066 -0.0003881852444276453 -2.589031201084704 -3.6665757352187893 0.005238815971993598 -0.0023664696446107965 8.869059773444889e-06 6.747053124412616e-06
0.222 -0.0026572644108603222 0.0005202810601550779 -2.9196916631060246 -3.4072148367414914 0.00507011700393746 -0.0026684003567680895 -4.939528532833423e-05 -8.919748409445309e-05
0.223 -0.002888485145340774 0.001266735171315604 -3.252335145839293 -3.124500629728112 0.004909508777619198 -0.0030729234646879266 -3.949062609456419e-06 -0.00037611437957420197
0.224 -0.0026408027026296682 0.001926920146397894 -3.5364505494859824 -2.7988757737836742 0.004805875000964678 -0.0034062921377155404 6.426522837176655e-05 -0.0005678344625761799
0.225 -0.002508982920550351 0.002709010482525426 -3.7723795273013905 -2.449811909452358 0.004510690106131797 -0.003795936692064816 -0.00024719124814027754 -0.0005998934348576599
0.226 -0.0021158882972272114 0.003369747825240325 -3.9783104226563606 -2.086860854650448 0.0042767320552520765 -0.004187571415904037 -0.0003659849155039427 -0.0006090071327253246
0.227 -0.0016619088252568582 0.004004478668073868 -4.176797293253975 -1.696154192916855 0.004042185215135061 -0.004583321081517759 -0.0003112192336589515 -0.0007111101198010604
0.228 -0.0010744769131608048 0.0046295839868769695 -4.294005402033233 -1.30704926823541 0.0036587585315352874 -0.004849830756815773 -0.0004884048197192266 -0.0008199166435242918
0.229 -0.0003808637366932751 0.0051584500308358705 -4.398142603238732 -0.9023090534400149 0.0034031457282901606 -0.005142354034838351 -0.0006108096667971405 -0.0009454960681336495
0.23 0.00019053957901358858 0.0056098536868362005 -4.461781084585691 -0.4824886357161924 0.0029959241996874654 -0.005222753460319136 -0.000899303733306183 -0.0008861569562223332
0.231 0.0009817402978339626 0.0060100314455783016 -4.488896868834277 -0.05692633891362226 0.00262092117462594 -0.005689297760147196 -0.0011514694083003655 -0.0009118256445966629
0.232 0.0018351895065542264 0.006267609440777537 -4.4670002294876845 0.35952891216867605 0.0021872115054359744 -0.005826941628853654 -0.001358478080964126 -0.0007510806795295389
0.233 0.0027513262716719195 0.0064596667880631705 -4.425702493875208 0.7785042210525522 0.001856245257172604 -0.006021547077182732 -0.0015560694937375111 -0.0006846869640440288
0.234 0.0034975220430619853 0.006287437831803508 -4.319573777560935 1.1871478213477953 0.0012785531072962285 -0.006193459929954576 -0.001723870986830881 -0.0005432760212545763
0.235 0.004424654810428179 0.006204479295218915 -4.191178093204989 1.585935097616691 0.0008304129816156903 -0.006314265800542758 -0.0018526726608884734 -0.0004694434127850133
0.236 0.005231570234476857 0.005983954631232337 -4.022875551063523 1.9648043155863104 0.0004226048785806268 -0.006394264545678433 -0.0020777443930900495 -0.00037835112897676684
0.237 0.0060052136987434395 0.005620270773465613 -3.8148281209459696 2.3362989143727777 -3.995814190975389e-06 -0.0065121638436796 -0.0022508615012254863 -5.8633759750865335e-05
0.238 0.0068656861400479465 0.005104648207338038 -3.578273553716781 2.690307802522822 -0.0004250103614743647 -0.00660866211185802 -0.0022451195120483576 0.00018316477712100897
0.239 0.007353476114371503 0.0046106614495374666 -3.3043387133637774 2.9965198003246436 -0.0009523395622462852 -0.006499508500972449 -0.0022886509849365786 0.0004132110062530507
0.24 0.008026356560354867 0.0039311555159476826 -3.0205875821445627 3.3009081946000425 -0.0014801192946212651 -0.006405123857700268 -0.002364644908812845 0.0006432908267848471
0.241 0.00852486064363213 0.0031714258297485583 -2.69077499384295 3.568753711305823 -0.0020811147180631374 -0.0063651210892422296 -0.0023719248723856256 0.0008975325840066538
