!Created with skrf (http://scikit-rf.org).
# GHz S RI R 50.0 
!freq ReS11 ImS11 ReS21 ImS21 ReS12 ImS12 ReS22 ImS22
0.13 -0.15415687057116717 0.09897882569747413 0.002089043993222602 0.00031237352497642584 0.0001660762738182581 -5.131057119188916e-05 0.03527909632804577 0.039980000091915754
0.131 -0.1450611553653122 0.11445324162899635 0.0021224449172750934 0.00021679809623766457 -8.870585936532003e-05 6.991045064995972e-05 0.03930375399604681 0.03628731786655444
0.132 -0.13585365245788494 0.12748446678501157 0.00213177828230509 9.392185257028944e-05 0.0001498712653560477 -7.63793126182304e-05 0.042946136994684886 0.03288168424874352
0.133 -0.1243309960865382 0.13964569436723331 0.0019012509917411362 -0.0001271939609972265 -4.781495578862561e-05 -3.4471360124066014e-05 0.04656002472032265 0.028350041455488067
0.134 -0.11275856495123197 0.15113094603785393 0.0021082478647344483 -0.00031934240243116025 0.00012263954300260684 1.0705874275612247e-05 0.04967642528547096 0.023762031264010667
0.135 -0.09761770716601362 0.1633194861107753 0.0019648551961938877 -0.0005814702477551443 9.579402257934704e-05 5.900882586535755e-07 0.052095929866295215 0.01877555115904391
0.136 -0.0840439764544367 0.17098231780558631 0.0021024576916476535 -0.0007829740688300821 2.0930982925093075e-05 4.934771757287947e-05 0.05391311630431288 0.013549463361839263
0.137 -0.06963842935857716 0.17958216490350895 0.00179289685963736 -0.0010961261638154911 4.529555010110531e-05 2.0461763641464068e-05 0.05570084619805996 0.007892634344311802
0.138 -0.05236159031623861 0.18663391940074353 0.0017969235531205246 -0.0011100649435541146 -1.4497618398457513e-05 -1.1370092975149666e-06 0.05672611071739472 0.002639598325082643
0.139 -0.03655391864035689 0.19189243223369135 0.0015025709323866583 -0.0013454271252550942 0.00011074038722938004 1.3935681466305882e-06 0.05700272852055529 -0.0031346380572812365
0.14 -0.020585196852604414 0.1936952849942095 0.0015462380286520722 -0.0014893187551637697 1.5226452477006898e-05 0.00010904299787909564 0.05677556504907169 -0.009223642048756604
0.141 -0.0020360984104565044 0.19777394320861968 0.0010778180161335293 -0.001759377590482117 0.00010312614924124583 0.00016197308744878082 0.05586891842305114 -0.014964928636452459
0.142 0.015568408462227071 0.1983340019231112 0.0010241630143256514 -0.001804313407369126 4.051201813562078e-05 1.1621865342790414e-05 0.054442581381487457 -0.02077407837351445
0.143 0.0336200081632664 0.19589697480367327 0.0010208188876813242 -0.0018496274662711356 6.536715117983066e-05 -0.00013820722918877793 0.05251185161831469 -0.02617920843477601
0.144 0.051063109627569776 0.19492250828982924 0.0006757655627396942 -0.002054031040870458 -2.6675567670045798e-05 8.037995499471475e-05 0.05019697044365254 -0.03151664412620697
0.145 0.06790699528077754 0.18942083731619652 0.00035275088998774863 -0.0020570904245945103 -2.5009485283906396e-06 -0.00017140471380379396 0.047070898206389516 -0.03661844650859218
0.146 0.08388148294840185 0.18306793841939015 0.00035188672340606556 -0.002263657696958113 5.930335577546566e-05 -4.528064732279053e-05 0.04313274173726781 -0.04146001434328508
0.147 0.10189360794452437 0.17800912313780043 8.807747401659678e-05 -0.0022773406102827042 -7.331733633609083e-05 4.270383529876103e-05 0.039029991755890045 -0.04570771325191205
0.148 0.11789437737410761 0.16849283642692553 -0.0001128180424232681 -0.0023621813195648677 1.3199470002670802e-05 -0.00013235119755057963 0.034132179664302965 -0.049384433100807715
0.149 0.13283375474303533 0.15804233855433739 -0.0005140179922879526 -0.002300763172358912 -4.6423141441049187e-05 -8.234054359841155e-05 0.029462816016083533 -0.05305418546493705
0.15 0.14552260722499158 0.1462486692097544 -0.0006938757062237797 -0.002077540887067574 -1.6339843997695328e-05 -1.823204829006469e-05 0.02453924398421959 -0.056018138718632
0.151 0.1586978405400086 0.13377288662923334 -0.00102093712350272 -0.0020438431670815288 -6.168414142150191e-05 8.060982234103513e-06 0.018509266551433513 -0.058343080693985486
0.152 0.1702123725042127 0.11972090067083917 -0.0010879306258153713 -0.0021063468932217507 -4.4040334101621774e-05 -6.836587954868218e-05 0.012602191867876792 -0.06033973061124779
0.153 0.1806784533418884 0.10493157054302853 -0.0012446555300348117 -0.0019335847319382616 1.761015192837496e-05 -7.39733687651966e-05 0.006490138101955038 -0.06179006248614927
0.154 0.19115537421168463 0.08920465528920757 -0.0014429592298583378 -0.0017602077387060063 1.386304086010329e-05 -1.9452092775018102e-05 0.0007197655878411446 -0.06209910036836721
0.155 0.1989880180764632 0.07207639081653062 -0.0017003475337547603 -0.0015440638672685333 6.578810984173488e-05 -0.00011043417698093184 -0.005432011562137403 -0.062234779587040504
0.156 0.20566672555997595 0.05539951229923708 -0.0017576058487029727 -0.0012740484169255187 -5.298193520925031e-05 -1.9169388224033388e-05 -0.011958416218248962 -0.061632880165914214
0.157 0.2109341855478696 0.037058097738901445 -0.0020244812303395997 -0.0012994599723445462 0.00013039944159548642 -5.925206724557419e-05 -0.017582448941151924 -0.060460716281225325
0.158 0.2141100947594304 0.018903211216069426 -0.0019493634305787892 -0.0008749287551815779 5.551560399460167e-05 -8.204559559232401e-05 -0.023599115399172546 -0.058778739692836875
0.159 0.21607970688659922 4.661186120962855e-05 -0.002142578058343147 -0.0007315453682142437 1.5949487101362727e-05 4.214998522798531e-05 -0.02935753557055289 -0.05613341367612459
0.16 0.21639483086296038 -0.01887541898627798 -0.002277735515735218 -0.0004199049964292017 2.2177006339916806e-05 -9.076394582911643e-05 -0.03511240231279298 -0.053269717345096786
0.161 0.21503602217748016 -0.037563407822244134 -0.0022353546930915305 -0.0003390633446977161 2.0063352655611528e-05 -1.560813228549786e-05 -0.04034901377089434 -0.04970204581564885
0.162 0.2112532649223951 -0.056364012692727776 -0.0024454368345553845 -0.00013050055554154902 -7.996309862335106e-05 1.8633283890304327e-05 -0.044959422300921766 -0.0453163983713837
0.163 0.20677209829160023 -0.07613814549472785 -0.00232241312877088 0.00012933480250113834 0.0001845783133629594 -4.236977633575989e-05 -0.04957622054182372 -0.04116353918951985
0.164 0.20050335999816193 -0.09471396025235507 -0.002281921201151267 0.00035855078182048516 2.834235558415459e-05 2.6165381735098885e-05 -0.05322834390788067 -0.03648673250911843
0.165 0.1939890874288874 -0.1121363578814705 -0.002271924101970136 0.0004897159527530791 0.000164649985757145 3.972342591651879e-05 -0.05730120960723055 -0.030778982261987584
0.166 0.18310525918132417 -0.1294902554256024 -0.0021314016855054903 0.0008842177455249964 4.361464880871824e-05 -8.950070313456731e-05 -0.06002693690865627 -0.02525804568785569
0.167 0.17262568169743547 -0.14582555055407936 -0.00207655795945039 0.0011955059408183606 -6.521653065837679e-05 6.405315558931794e-05 -0.0626883949371791 -0.01924056490109561
0.168 0.15965573764686328 -0.1624447041409928 -0.0020429593546308746 0.0012477160606893074 3.501563363304896e-05 5.2065809510733915e-05 -0.06478967979708393 -0.013273634918007636
0.169 0.14561798069895673 -0.17558517554307454 -0.001981383944285017 0.0015655047529114152 -0.000100357423013023 -5.527179341135331e-05 -0.06597415938590821 -0.00689778482525018
0.17 0.12966545973181093 -0.1896738411887029 -0.0017826912565372791 0.0017079536690788803 5.143560091051132e-05 2.3803616545169674e-05 -0.06672241769803794 -0.0002456432862923903
0.171 0.11212377385412903 -0.20187072708196552 -0.0016436836401085338 0.0018701428107326817 5.0691548266393785e-05 -8.514537260270265e-05 -0.06645103932092256 0.006425943000172062
0.172 0.09541669110396468 -0.21089503305940513 -0.0013940788996811059 0.001984321225780665 4.4566244935282416e-06 -0.0001261415834247562 -0.06617191797359821 0.012937443470808052
0.173 0.07545587075099257 -0.22119529046131933 -0.0012011411682453996 0.0022223331717063435 6.998535161640864e-05 -1.0403900528330311e-05 -0.06468405310517725 0.01932349640597281
0.174 0.05591010821718553 -0.2278129123170392 -0.0008464386770474725 0.0023226145493447426 -5.127547957622492e-05 -0.00013869699672932774 -0.06299756258333838 0.02594361592640337
0.175 0.03612867293987761 -0.2343067575271095 -0.000746473769950717 0.002488249920928001 6.953828476993106e-05 -3.0665507544738014e-05 -0.06034809583744367 0.03194003041799548
0.176 0.014892822156250578 -0.23712739177923184 -0.0003008975938714591 0.0024799623828008935 3.052628417078216e-05 -3.063586862795469e-06 -0.057303314841032564 0.03787207915838042
0.177 -0.005425321522450944 -0.23892919573758784 -0.0001706458646095151 0.0024816801686892882 3.360512944762577e-05 1.0513850693535276e-05 -0.0535249628197182 0.04370739373679215
0.178 -0.02928436957407516 -0.23676703195052978 5.589227373926248e-05 0.0025377079715625398 -3.006976142627121e-06 9.886073747790678e-05 -0.049492870288472865 0.048835892758147426
0.179 -0.050618560568140736 -0.2358477439804352 0.00042724388076742384 0.002497634086134985 -0.00014645594156451774 -9.321852255612434e-05 -0.04434374640077856 0.05359940526148646
0.18 -0.07065085458927008 -0.23165327949773518 0.0006024582667833407 0.002489224417127007 -6.181576976826111e-05 -6.064685674733184e-05 -0.03915372551251445 0.05828748994950143
0.181 -0.09074535960406117 -0.22433839182575468 0.0010441284924569444 0.0023769177756714785 -3.053891561992182e-05 2.5083553394175733e-05 -0.03327577250007679 0.062091576803730286
0.182 -0.11358130933019646 -0.21746318374318266 0.001178693015132459 0.00225317242198333 4.750412025349655e-06 -0.00012616814054379705 -0.02700671626876476 0.06542696256376483
0.183 -0.13475117218348476 -0.2073438361146236 0.001367165337973719 0.002206288030842337 -2.0765826151739608e-05 4.323264924529715e-05 -0.02049747255161214 0.06813931056149473
0.184 -0.15190801971671467 -0.19437876150924413 0.0017194050296328665 0.001865009988223095 -0.00013942849434081696 -2.6786608092986065e-05 -0.014047751250373379 0.07039703867471064
0.185 -0.17032564885787413 -0.1806168547827876 0.0019920834523278383 0.001912086875682424 -9.89647582104443e-05 8.168990134961681e-06 -0.007030699229658532 0.07219110150745303
0.186 -0.18574262210750925 -0.16388022494480628 0.002021770204390266 0.0016189061914606343 -2.7389566932487086e-05 6.139402132937242e-05 0.0005238678346487089 0.072488799198466
0.187 -0.20118827208457804 -0.1486593300267382 0.002239458549268958 0.00149514401955407 8.451864803760579e-05 -9.477586804651192e-06 0.007813118131140658 0.07252883833491441
0.188 -0.21415266907816516 -0.1295518308425396 0.0022885210816264824 0.0012555764056788035 -6.41025172385243e-05 -5.363962074712514e-05 0.015043362325540505 0.07224963201213545
0.189 -0.22620861478529775 -0.10945247065952156 0.002433183778305246 0.0010295475712012215 1.6200405480360166e-05 6.288988999350561e-05 0.022288692308969196 0.07027283428031311
0.19 -0.23658053247976796 -0.08963234573367511 0.0028332569230368008 0.000698644436282883 -1.3381682024991909e-05 -7.286628379359681e-05 0.02951197221870728 0.06835663406473137
0.191 -0.2435228987011234 -0.06771370602083002 0.002549799419416117 0.00026675349098868845 1.9640926473983355e-05 -6.0336561673112005e-05 0.0365876139398669 0.06508186757356883
0.192 -0.25035339115633404 -0.04643556856608483 0.002623433390637281 5.3447760769900435e-06 -3.7261130176740175e-06 8.019721678917777e-05 0.04214736365264133 0.061576283232453656
0.193 -0.2545365220718089 -0.023458622640166397 0.0028284563350621144 -9.067274323273347e-05 1.3599393978728649e-05 0.00014103353616893216 0.04898068116292956 0.05690369188666853
0.194 -0.25653075933399233 -3.49789563340986e-05 0.002586064222351645 -0.000607495309652367 1.7885929756940843e-05 3.698466491602408e-05 0.05521005814473596 0.05197902283992499
0.195 -0.2560437235099448 0.02271757532186282 0.002768627424641268 -0.0008948885259865844 0.00015272338650028431 5.251118717447168e-05 0.060549778554295636 0.046573076112147525
0.196 -0.25314494914788255 0.04584735928826741 0.0026407427382548507 -0.0009901044761623796 -2.85585545183491e-05 -4.966798281833309e-05 0.06466841072331435 0.04057501942155895
0.197 -0.24933739843116026 0.06867164637576047 0.0024857750016954333 -0.0013384956578694554 7.021436848985456e-05 -0.00010484321757748881 0.06876991421862262 0.03389171364801547
0.198 -0.24335999705637174 0.09102639815281155 0.002327769104999697 -0.0015780789004305308 -9.009307729906185e-05 2.568163658082729e-06 0.07225312852766877 0.02661641826579083
0.199 -0.2343811891125957 0.11242242063965925 0.0021958684411146154 -0.0017339979417920802 5.615047008016487e-05 8.001109377987512e-05 0.07536375209528404 0.01957949500700469
0.2 -0.2249906081970093 0.13373076527087135 0.0019000983666222486 -0.0019235603370305603 -2.5282437338493463e-05 -1.3487162269023373e-05 0.07685998291601848 0.011534350133706746
0.201 -0.2136939024572205 0.15357232026418227 0.0018526735848115395 -0.002066226674937891 0.00011635232179836606 -6.396729621704661e-05 0.07784986472141663 0.0039404115410797864
0.202 -0.20022856561924532 0.17162610859856092 0.0014477871802488764 -0.002372365305762741 6.200882864444221e-06 -8.52515687784667e-05 0.07859715653886105 -0.0039669880591572376
0.203 -0.18360622797357412 0.188579927423878 0.0011235089705355305 -0.002580044623829444 0.0001266325661794329 -3.2696894307233193e-06 0.07792506661609414 -0.012090367142854662
0.204 -0.16869258792093283 0.2054382431921574 0.0009855508929880986 -0.002608830226130691 -0.00011419937378979365 5.803066121546633e-05 0.0766333751780062 -0.01989609749544906
0.205 -0.1483363327879292 0.22027381096844265 0.0009376800797614261 -0.002807518244578637 2.1234251010161892e-05 -2.095381227260051e-05 0.07454852330981748 -0.027635286367101383
0.206 -0.1302858594257369 0.23249339805459135 0.0005119658318123669 -0.0027644240321870787 -7.634609724295657e-06 -2.265818607850985e-05 0.07147003967009957 -0.03534209678366266
0.207 -0.10915766195018134 0.2467550749115322 0.0002396845279075606 -0.0029207037361886935 -3.093301370161219e-05 -6.512643988738012e-05 0.06804164688658622 -0.04238985592622002
0.208 -0.08904346887626209 0.25509308074309256 -0.00016799114552272466 -0.002768311650739221 6.785340995682676e-05 1.9001872756375704e-05 0.06354481496402191 -0.04922937675491255
0.209 -0.06629323869678928 0.2643515633147766 -0.0005623855944217885 -0.002806299164283702 0.00014530637575075177 -3.552212170032065e-05 0.05832382770729808 -0.05548722108581185
0.21 -0.04463151205543993 0.2694147188798876 -0.0007687734826008172 -0.0028070043528575844 -1.5385171210013468e-05 -9.151648844298529e-05 0.05268312340219174 -0.06135716167511854
0.211 -0.018611155100094756 0.27421044804194666 -0.0011392932359798544 -0.0026988299025852477 -5.280536055033661e-05 3.475508736188611e-06 0.046580121589096836 -0.06656193423349237
0.212 0.003576098810853124 0.2760541084793684 -0.001306361123281726 -0.0026645913299702018 -3.292131232954998e-05 -1.2375332423909835e-05 0.03975435792553967 -0.0710603612079685
0.213 0.029864027433826677 0.2774040779840933 -0.0014906994486600746 -0.0024588640009221095 9.190190194271572e-05 -5.4839317277666e-05 0.032685546848547714 -0.07517161132197397
0.214 0.05369434927298017 0.2743357364121702 -0.0017046294134794079 -0.002189508118846618 1.869833495395926e-05 -5.7031139207164564e-05 0.024668101339763538 -0.07844229877610547
0.215 0.07734091530898751 0.27118457684587927 -0.0021312446859121713 -0.0020915140449174127 2.3165269747370002e-05 -9.591395787431483e-05 0.017302262202219757 -0.08050964783995704
0.216 0.1022128891007643 0.26465448624435156 -0.002354153157559678 -0.0019036996434444746 0.00014750579004870504 2.3378085398680344e-05 0.00906947196194739 -0.08234583564926709
0.217 0.12495194170552452 0.255592119835573 -0.00245083620356884 -0.0016977317069315169 1.0287501152187962e-05 1.4210401605389677e-05 0.0006537170496509524 -0.08265809006713712
0.218 0.15070233104743627 0.24581098707835972 -0.0024563660654032815 -0.0014088208829721384 0.00013730579740593363 3.26908235802485e-05 -0.0073784186200162895 -0.08303157581535708
0.219 0.16996869796906475 0.23262188421102983 -0.00281297533808374 -0.0009965584905552785 -0.00012044494299204377 2.862115083845323e-05 -0.015839757882445564 -0.08238778892474642
0.22 0.19142516080654975 0.21657496499327997 -0.0028442269996685745 -0.0007654346260994726 -2.718912313816231e-05 8.722719414076203e-05 -0.024131067025149073 -0.08081723778153321
0.221 0.21110394279736283 0.20017977210253377 -0.0029700249497033038 -0.0005693331298017062 1.6586753776918165e-05 -5.765089735808948e-06 -0.03195375532423106 -0.07769696729849239
0.222 0.2299865896954409 0.1843776048852736 -0.0030254978523213314 -0.00010152249372582842 6.167778714496759e-05 -3.0015927307799974e-05 -0.039807932743085764 -0.07456097358409115
0.223 0.24579537609009922 0.16165415993012136 -0.0028891999231911536 5.0037099629272675e-05 -6.939063829750699e-06 -4.822829699641522e-05 -0.04677771971282403 -0.07032912412481426
0.224 0.2617975067588754 0.14111772747454568 -0.0029729533791545176 0.00046256227089315895 -7.123824731585008e-05 6.0324304958869294e-05 -0.054241721701034244 -0.0657639218774591
0.225 0.2733708824985056 0.1172507520771629 -0.0028920279517762174 0.0007854925406017009 -3.1827866531356854e-05 3.047687181482761e-05 -0.06031217457109079 -0.06049337001622452
0.226 0.28517821384545566 0.09397300639895574 -0.0027390086571962378 0.0010155683794214239 2.2716069035072937e-05 -9.781585128728558e-05 -0.06633695908263956 -0.05460805246828285
0.227 0.2932776414501031 0.0682615455696531 -0.0027581571712342987 0.0014472973787402013 4.0869653755019935e-06 -5.7823125322428316e-05 -0.0720732251125163 -0.04761947613239815
0.228 0.2994302388023805 0.042266946290659 -0.0026174473647954245 0.0014625608749551638 -4.923996242298758e-05 -7.687424016820757e-05 -0.0760744557616959 -0.04123792905391031
0.229 0.3038545390910415 0.015408962574689182 -0.0022891235818875417 0.0018557638828375896 -6.391493567024056e-05 1.4279360563976227e-05 -0.07981803072445252 -0.03347047809058311
0.23 0.30426413863543716 -0.011703321129481347 -0.0023604767811516505 0.002177231989927861 0.00010133534322254631 -6.365807441384705e-05 -0.08344150452919824 -0.025299279662712976
0.231 0.3039089538751985 -0.03896348793219202 -0.0019990446768376937 0.0024223420758023493 8.95089451763781e-05 -0.00012085235460750224 -0.08603678802310079 -0.01754103654587457
0.232 0.2995710910658157 -0.0656075535880545 -0.0015420657779526537 0.0024093063723179724 -3.213929549563375e-05 8.456884443357593e-06 -0.08767797440048741 -0.008961568880567504
0.233 0.29525030715617945 -0.09336876835759335 -0.0014891763795847437 0.002827183557087973 -5.0622871713275176e-05 -4.9543838782259e-05 -0.08822186067877898 -0.00033682456117831725
0.234 0.28469870669614733 -0.11823317390458858 -0.0010646779193930925 0.0029577628414334286 -1.4728563295708804e-05 2.3029028892337205e-05 -0.08820471348961767 0.00794722831473158
0.235 0.27469398615848445 -0.1438367407750142 -0.0008593250029147687 0.0029837662521625427 9.341637105141139e-05 9.88646719868474e-05 -0.08753176903321218 0.017225113923533545
0.236 0.2605659208820928 -0.16995952807165915 -0.0006025330093430948 0.0030108959810807062 9.751021802784992e-05 -2.7756572361299472e-05 -0.08566916406904114 0.02569434149988114
0.237 0.24608527630318358 -0.19082150893709546 -0.00024129027545791582 0.003229079373715338 4.312930894960033e-05 -9.141491004016205e-05 -0.08308219304378478 0.03429438149957616
0.238 0.22847990056460307 -0.21088710390251264 0.0001314221134139846 0.0030627677521885594 -4.361399821258528e-06 -5.4890518079547115e-05 -0.08015335642631773 0.042003410558479164
0.239 0.2094583881399805 -0.2326111606471269 0.00047443816977862365 0.0030796812881106867 -7.16346993786508e-05 1.61682115129145e-05 -0.07554654541641 0.04998835506589685
0.24 0.19036304197332785 -0.24857684801579663 0.0008383759120946689 0.0031374159130270717 9.16869951961809e-05 -3.1372969255113484e-05 -0.07093481364638447 0.057329862403327936
