!Created with skrf (http://scikit-rf.org).
# GHz S RI R 50.0 
!freq ReS11 ImS11 ReS21 ImS21 ReS12 ImS12 ReS22 ImS22
0.13 -0.13083795181919539 -0.12892525277996122 0.0007279914018574659 0.003586953407376317 -3.2436337656454566e-06 -7.833533375612974e-05 -0.013620238177259244 0.05101222654547469
0.131 -0.14229026174827208 -0.11883473511683716 0.000991838170981551 0.003514958246947996 1.0878865643887151e-05 -2.4141395373249783e-05 -0.008854252833047643 0.05247130925007752
0.132 -0.15210164679765048 -0.10709104207551853 0.0013713368754973763 0.003466777675196474 -5.537474506485984e-05 0.00011506423660941378 -0.004182835991182521 0.053852003914451003
0.133 -0.16131575910233348 -0.09600257539987186 0.0017597227965564072 0.0032688539234991734 -4.000754571089002e-05 -1.372690537742493e-05 0.0010546410042980073 0.054270988358260976
0.134 -0.17016638437867607 -0.08362851181415816 0.0020908801272213787 0.0031103667707635015 -0.00010466779047827757 -5.56345459929174e-05 0.006098999144540825 0.05418703515061182
0.135 -0.17817893135500715 -0.0694578672699512 0.0024386092125068355 0.0029219643303354794 -5.4697711201109894e-05 -8.444118772885465e-05 0.011250533936036202 0.05429321949351664
0.136 -0.1843029733102204 -0.05593513976889322 0.0026796177430571198 0.0027018146842380836 -7.908151484853216e-05 -1.1918045068499448e-05 0.01639188209218611 0.05302014873470813
0.137 -0.18948237797096676 -0.041194769587315064 0.0031052382683854525 0.002495525619718569 -1.91102883408857e-05 6.676573586510014e-05 0.02158293303785456 0.05198547438271856
0.138 -0.19385510932948702 -0.02608643555640048 0.0033138127290569825 0.0022286266849509276 -0.00013504816992910404 -0.00010047287256819893 0.02650544992905865 0.049943927418689485
0.139 -0.19707484617113047 -0.010409093935861544 0.003511705898203885 0.0019115860474118813 4.6956196358340614e-05 -1.6530849543486976e-05 0.03145682036674836 0.047759184371064266
0.14 -0.19830843054825367 0.004705863469376978 0.0037019612806318317 0.0016225043948319335 -0.00015204271665732853 1.6798262881223203e-05 0.03596921704126547 0.04503014868618592
0.141 -0.19840627948176653 0.02172902155305668 0.003881934185949795 0.0012254241482618547 -2.99536600626415e-05 -5.370059851729317e-05 0.04020180649822741 0.04178383956317271
0.142 -0.19773607992523295 0.037597238520962 0.003978850335985665 0.0007969782411039646 9.653290178331738e-07 0.00017480285652515183 0.0444191996862174 0.038094978177552835
0.143 -0.19553178403400498 0.053881374598314456 0.004203212105801898 0.000512272141064856 4.323882424310428e-06 5.017063258088972e-05 0.04803296310478028 0.03400775869310974
0.144 -0.19144560995895804 0.06944409726225996 0.004201514366516878 3.383720370322796e-05 -3.078691461285145e-05 -6.740951688539196e-05 0.051504561908971694 0.02956552826413645
0.145 -0.18655168582942175 0.08560087188887303 0.004169054693584857 -0.000401039867539856 -3.6558498615894577e-05 -7.69263095544568e-06 0.05435440756279997 0.024710338810256548
0.146 -0.1807391601825499 0.10170495663401816 0.004196361430013408 -0.0007717587173470468 -7.063512170685444e-05 -0.00011561962081211158 0.05684469145834885 0.019465968360795272
0.147 -0.17203969458922855 0.11515694930937528 0.00406286214631923 -0.0012699848643555262 7.427776371024394e-05 -1.1295103456035845e-05 0.05902229355243584 0.014121065453322123
0.148 -0.16377675656466723 0.12972788411134034 0.003978500872127085 -0.0015035981856629337 1.734337172417358e-05 -2.6158392715401806e-05 0.060394381566286945 0.009029684120094692
0.149 -0.15419776525738044 0.14339915260235234 0.0038388394790578695 -0.0021394653289758103 -0.00014334859359512746 6.045609784663945e-05 0.06118689459811446 0.0030734820699707503
0.15 -0.1421671338307997 0.15763305956343168 0.00365225609784317 -0.002392566329967706 -3.2694387371154233e-06 5.22847733039762e-05 0.06199467006713759 -0.002524545723913797
0.151 -0.13055970422242177 0.16835921427640443 0.0032433159471005747 -0.0027203349885721226 -3.504993770885114e-05 2.3578951329097435e-05 0.06186219480849877 -0.008166571365354878
0.152 -0.11600603337612411 0.1789807123408463 0.0029466504597822868 -0.002950872247550386 7.525598983595403e-05 -2.454862030080214e-05 0.06098651261276459 -0.014235404897279624
0.153 -0.1023724028408539 0.18784348693913241 0.0026929820752951417 -0.0033744311353484874 -5.724982674520791e-05 -4.431506715995702e-05 0.059767735527930244 -0.020063725366963568
0.154 -0.08760008614034451 0.1969336565623245 0.002375174132575868 -0.0037448761032946886 -1.21691201566757e-05 -7.25335197887298e-06 0.05796295962735067 -0.02563177040199166
0.155 -0.07132708603570283 0.20483248374152283 0.0019847628653400077 -0.00381332872451921 1.3195154777752652e-05 -1.9532445751511625e-05 0.05578419396052312 -0.031127089433858942
0.156 -0.05633940173971106 0.21182039905170796 0.0016215025501823952 -0.004010210655566801 3.981550384237292e-05 -0.00020247364396156696 0.05284102589176853 -0.036444075548723746
0.157 -0.03984562456320109 0.21531543279320806 0.0014160421481159559 -0.0043011837067743796 5.1188279386211023e-05 4.764583634961947e-05 0.04946973279227544 -0.04146981906309104
0.158 -0.021971574580511324 0.21834923450742347 0.00092641354215313 -0.004356972397478276 -1.1710202869865399e-05 -2.1620207751594837e-05 0.04563960466869118 -0.04595809326555187
0.159 -0.004703198044004322 0.22249973594229758 0.0005301638829346328 -0.004372040844461978 -3.755043821518029e-05 1.9378632801336802e-05 0.041417431116314934 -0.050257322116592264
0.16 0.01174801381440952 0.2227128246285677 0.00010660862751449514 -0.0043915685082375035 -5.7797626358243906e-05 -8.835295121104596e-05 0.036506662605355844 -0.054426981265432474
0.161 0.03140630940315684 0.22127782272332316 -0.0005194334487118378 -0.004504393679162549 8.192854586959473e-06 -0.00012932123773264567 0.031714013731717006 -0.057961537141681306
0.162 0.046114587224950904 0.2198245122432051 -0.0007840245045834026 -0.004315546137382434 1.3937796333851575e-05 -9.084364451865451e-05 0.026379338115712928 -0.060442810735006236
0.163 0.06378113197761298 0.21673151707542218 -0.001328931366508273 -0.004368031833250889 6.212669496835233e-06 9.701645793490253e-05 0.020717614608916225 -0.06313191216790721
0.164 0.0827112736671375 0.2111136068627337 -0.0016773875725337214 -0.004287414520080133 2.5256931280266638e-05 1.836229965611798e-06 0.0148369477398729 -0.06517753455120576
0.165 0.0977464649746138 0.206631086757056 -0.0020291405843874313 -0.004092159530552574 6.218012647990854e-05 7.942496651524709e-05 0.00850793657540466 -0.06680508206879693
0.166 0.11463281193286824 0.1978949917162676 -0.0024641261343708513 -0.0038883472544380556 -7.42570635028237e-05 1.1356710147222813e-05 0.0026591786843383337 -0.0675631987885708
0.167 0.13011144793991683 0.18950701676110432 -0.0027568725509658065 -0.0035640626768634405 -0.00011058642249562956 -9.644670428486654e-06 -0.003865717910252831 -0.06758897372109668
0.168 0.14629696738999773 0.179707757148959 -0.0032421756852697007 -0.0032271795931643915 -6.0218356166485836e-05 7.077360785591212e-06 -0.00973695144813963 -0.06738101369965555
0.169 0.15980904360353773 0.16925664102443821 -0.0034528198669302084 -0.0029587712729392075 7.24907885103532e-05 -0.00015889424048895712 -0.016268906500526474 -0.06644628898053394
0.17 0.1730080872468408 0.1573433334263959 -0.003778852418600608 -0.0026092899160472262 6.200906415293711e-05 -4.7708973745094476e-05 -0.0224588044629332 -0.06485143787347922
0.171 0.1858679220395366 0.14338805247975944 -0.004044695288567696 -0.0024026087568494977 3.1738725381171145e-05 8.48538036446104e-05 -0.028571760062680356 -0.06294502568302843
0.172 0.19800943598125645 0.12985928330562346 -0.004307829213581325 -0.001879386787754075 -6.983733726645676e-05 6.202492711519262e-05 -0.033682374909016044 -0.06044350333854104
0.173 0.2087098252678773 0.11489118755043683 -0.004475904526639661 -0.0014678163129094371 0.00010280227225519703 5.4834120416118744e-05 -0.039637653805935605 -0.05707925833130498
0.174 0.21748322958050095 0.0991575882714739 -0.0046896364226205545 -0.0011604319613009529 -2.887236559153683e-05 -5.243223661341103e-05 -0.044596750752779094 -0.05342883811647384
0.175 0.22623617550210717 0.08159729240657461 -0.004678437292888584 -0.0006425559957982295 -0.00010291080349310184 2.161289415080014e-06 -0.0496551535187355 -0.049452447694484085
0.176 0.23252560652675427 0.06497187583307341 -0.004761181748465369 -0.000294464657332108 2.417331265924522e-05 2.873296242232321e-05 -0.05414078434284335 -0.04517848402591068
0.177 0.2380161174305223 0.046259331393269654 -0.004768976017793587 0.00020496054699288495 5.031584692359908e-05 8.635239734699443e-05 -0.05824493276985805 -0.03985547928401608
0.178 0.24241458267668406 0.028395281002555853 -0.004718578606930458 0.0007084854683667295 1.1256207577667922e-05 4.826036298991279e-05 -0.06160133420096053 -0.03508559023892488
0.179 0.24520485892167473 0.008972317171340394 -0.004808268027566018 0.0010714714826345275 -3.092157633642969e-05 -6.960419536138518e-05 -0.06477826800539199 -0.029350651384900422
0.18 0.24653307784277298 -0.010157693712357327 -0.004629961032092634 0.0017109523234691898 -6.276505676999096e-05 -1.099659175393308e-05 -0.06775154185951235 -0.023246089900161502
0.181 0.24653457430249467 -0.028897045632736103 -0.004628908616214278 0.0018613958926289272 -3.796398155127679e-05 7.587174174189094e-05 -0.06998765370005001 -0.0172675392591747
0.182 0.2446431734825128 -0.04935865841729063 -0.004399308831998475 0.0024409297662255844 2.5910013240137344e-05 -6.747039280521262e-05 -0.0716149901277082 -0.010832746632297389
0.183 0.241269264370511 -0.0680094566190143 -0.003975802971044078 0.0027078213992586387 -5.1965677833415354e-05 -7.780657823086544e-05 -0.0724672815493889 -0.004471962769756336
0.184 0.23724895877823016 -0.08731908649698067 -0.0038816460946080903 0.003296974237355674 -9.188835746794264e-06 4.1235241299405635e-05 -0.07310889080315831 0.002233678635731276
0.185 0.23034784504138744 -0.10677315066467456 -0.0032935510739045726 0.0036308876331785688 -6.897357733752792e-05 -6.938863542476662e-05 -0.07287921142585703 0.00893835496565212
0.186 0.22335241804488212 -0.1259951001350297 -0.0030829605594014813 0.003933833378845876 7.264519760747019e-05 -9.967280937794743e-05 -0.07204252916509392 0.015487739253594018
0.187 0.2124195994442179 -0.14240604896135992 -0.002869292098758253 0.004183394368611714 -5.2011231854421744e-05 6.446182323969936e-05 -0.07050714975126199 0.02216741722611742
0.188 0.20218071359503237 -0.16060810920012025 -0.002280712376908883 0.004493555358047695 -1.6508108798986088e-05 -4.3242847955108294e-05 -0.06847432214988142 0.02866976224193128
0.189 0.1902888567270847 -0.1778357000665889 -0.002054469748878725 0.004812635945282412 0.00010013359503782267 1.9473740856728936e-05 -0.06596733480179992 0.03486804229180257
0.19 0.17565452527839806 -0.19174576041618774 -0.0014778079100178094 0.004971565676957941 -8.292646094287305e-05 -4.130590854212429e-06 -0.06289187375525096 0.04075716838882947
0.191 0.16130872759961623 -0.2077034552703718 -0.0009764808669961694 0.005160550343984946 0.00013476586057324294 2.5180568911054377e-05 -0.05923519671114909 0.046789008774280376
0.192 0.14509086196743373 -0.22038169727023962 -0.0005374776456706464 0.005279911347354049 8.87649607008345e-06 -1.2969295468033221e-05 -0.054842071174098755 0.051802107265382154
0.193 0.12787518446155866 -0.23323649263123464 -9.611569874823126e-05 0.005299411876053824 3.778955375358293e-05 -6.186559056944996e-05 -0.05041216856723356 0.05718452457824331
0.194 0.10776617380014016 -0.24191361668101047 0.0004629847426846949 0.00530443521401618 -6.921735664479663e-05 -3.748425293903858e-05 -0.04507112896785901 0.06168065542649136
0.195 0.08921518583903881 -0.250631859965688 0.0010285194790170939 0.005055334748884561 6.744537849054662e-05 -2.3166743506985964e-05 -0.0394958557317608 0.06602749454248037
0.196 0.06830418811565431 -0.25958123232517516 0.0014548915857893654 0.005142548418416009 -6.558816977275763e-05 6.962710015250272e-05 -0.03345306861275969 0.06948851812389688
0.197 0.04900142503457882 -0.26682383695800277 0.0019714330420439945 0.004933615977581204 -1.6341884645767514e-05 -5.724123066779163e-05 -0.027154889418465437 0.07329860760872575
0.198 0.02532373942762981 -0.268170377315808 0.0024544597175048142 0.004789266712851002 6.811195752411254e-05 3.3957919821734446e-05 -0.020393268801721272 0.07551121578434562
0.199 0.00512754426269827 -0.2714817330711623 0.003023510104962275 0.004554183186431441 1.4512760778815833e-06 -3.954900268939751e-05 -0.013290820822719191 0.07744291967998737
0.2 -0.018083893081114952 -0.271370776906268 0.003602504947597908 0.004198246417930955 -3.6589164206635036e-05 -3.566303810570676e-05 -0.006223236918478747 0.07879898051976024
0.201 -0.04009397972582562 -0.26991129261520297 0.00390410011668335 0.0039880409381471225 -1.676290923359553e-05 2.7527001509337525e-05 0.0014383761227633209 0.07930595736676688
0.202 -0.06246319218920475 -0.2664112156604043 0.004263811010643453 0.0035574996564028535 2.5629529619627887e-06 -6.75803381396455e-05 0.008468459912691519 0.07911885152769335
0.203 -0.08348543659419397 -0.26271948964653524 0.004589265379364968 0.0030404940455304418 1.4962005783471544e-05 5.4123157087230536e-05 0.015694433029987118 0.07850953647664548
0.204 -0.10359377600017858 -0.2547021580465443 0.004899121125066745 0.0027595668451102836 -3.405589636987772e-05 -3.112968103085698e-05 0.023079466371233523 0.07723769946292994
0.205 -0.12564457001966448 -0.24534950169920233 0.005176789218523912 0.002159197197306181 9.327995516209507e-06 -5.410889988399225e-05 0.030404490192767645 0.0741021469424209
0.206 -0.14669002108935253 -0.23593261066121748 0.005572752411226125 0.0016941069448040377 -4.064339503628305e-06 -5.0070855702828995e-05 0.03750550291396972 0.07208339335289793
0.207 -0.16341984001158957 -0.22319548489678245 0.005535674428147971 0.001139369069630809 5.096999397809597e-05 4.8118369325296774e-05 0.04401612488091071 0.06876513975361001
0.208 -0.18235046998191606 -0.2114531602551535 0.0057276320202123455 0.0005575929711007278 -4.702483792182116e-06 -6.416740962605736e-05 0.05081723948906771 0.06407410956530435
0.209 -0.19803649103633506 -0.19712050937831269 0.00586343189982553 0.00014942043690984645 1.7148333699375785e-05 -0.00015618672392828686 0.056829832495128824 0.05991068403367511
0.21 -0.21488431829689894 -0.18000997587132506 0.00573236749589503 -0.0005679185989630653 -2.9071956312984256e-05 0.00014832016049361183 0.06192790929896321 0.05420856616169262
0.211 -0.22863292147133119 -0.1626123706960604 0.005699558955642266 -0.0010328052016614065 4.22745336382e-05 -0.0001940664987024123 0.06778222398737156 0.04873660677436117
0.212 -0.2419952697586827 -0.14504638275348924 0.005612808538939328 -0.001634739050815426 -2.3770610417620372e-05 -2.6779366039065658e-05 0.0717722427626869 0.04229850555351073
0.213 -0.25339468806545484 -0.12478866172542566 0.005477614720126985 -0.0021024450541793573 8.897323615423253e-05 5.331440172486053e-07 0.07543214918960733 0.03506351902845141
0.214 -0.2626281101139595 -0.10544273507792169 0.0052317031328914234 -0.0025510098497904332 4.443222244746619e-06 7.998159506894896e-05 0.07963482065515963 0.028359131192398437
0.215 -0.2712047346305598 -0.08417076496601407 0.004871921834049281 -0.0032423579631034693 9.067307497475598e-05 7.352289697962613e-05 0.08157645886919444 0.020754047288615643
0.216 -0.2776510779467946 -0.061275784318058406 0.004763226109606876 -0.0036187110458464023 -5.858618874495728e-05 2.471765618224157e-05 0.08351351512596383 0.012819718606198925
0.217 -0.28227911666564964 -0.04104642809367788 0.004242329904601173 -0.004126217198300836 -1.2141718709925747e-05 -4.961910893140118e-05 0.08491973920428102 0.0050802408764301
0.218 -0.2858203969391326 -0.017598882819815264 0.0038086732482826052 -0.004495567144503236 3.7432259042371304e-05 2.3093258677180022e-05 0.08540193663772479 -0.0028422180619000785
0.219 -0.288243757828407 0.004834740215166941 0.003480508475715279 -0.004850754797032197 -8.363280611698107e-05 -3.320758457706318e-05 0.08510582996197137 -0.011012977750557422
0.22 -0.2873748201638545 0.027750145921009606 0.0030336961934565587 -0.005219940212824336 -3.771009607239508e-05 -8.522113860562296e-06 0.08387304091630056 -0.019122096820011706
0.221 -0.28494441379843954 0.050924709306234245 0.0025003682834915386 -0.0055024556684983095 -2.984584151837141e-06 8.028788125032705e-05 0.08202332957607572 -0.0269279363357766
0.222 -0.28132016861220926 0.07353243405218553 0.0018154224932512063 -0.005790806498689525 2.6045231312831298e-05 1.7619448980709577e-05 0.07945414820310216 -0.03486048998199142
0.223 -0.27605169856005735 0.09581072716279444 0.0012483121253510105 -0.005918465910915906 -1.0662468512017538e-05 3.830560459720729e-05 0.07626132903857062 -0.042151782918506804
0.224 -0.269261711848811 0.11729667042587426 0.0007307505275721454 -0.006148937742711199 -3.0739995388211416e-06 -3.279152260746522e-05 0.07231989617905332 -0.049352798008273704
0.225 -0.2585976701711031 0.13894954035902715 0.00014857801053356077 -0.005936909509780809 -5.771440321908013e-05 -8.621020331798838e-05 0.06730484798902941 -0.05603509580911739
0.226 -0.24893494996315255 0.1595929948408695 -0.00042004095491355404 -0.006096453483932757 -3.580651411925683e-05 7.953481412343153e-06 0.06226598687828727 -0.06224052146569667
0.227 -0.23651934055184493 0.17990438970712774 -0.0009626107836251482 -0.006104619040059068 5.570561298284227e-05 -1.561174292410377e-05 0.05628981214104378 -0.06822338183999099
0.228 -0.22367395382570404 0.199746252562046 -0.0016231127337336772 -0.006044350532717896 8.654386099733952e-05 -7.52884231739848e-05 0.04983994327573663 -0.07321585471198704
0.229 -0.20721547272812943 0.21651920175107076 -0.002074808422791986 -0.005695655957836669 -2.86048412848899e-05 -2.2092139407074522e-05 0.04267145889667209 -0.07808249990582453
0.23 -0.19028768951730987 0.23374492654419296 -0.002709481190725805 -0.0055581446755823515 -8.158777843790553e-05 -4.5050486067095384e-05 0.035408648054792935 -0.08221487510953523
0.231 -0.17098104115910315 0.24914267293692186 -0.003166774658736482 -0.0054583404918582944 0.00017058993775530593 -2.650935787857689e-05 0.027787039483517822 -0.08506561316261378
0.232 -0.15247976115522707 0.2629422217066323 -0.003658292682481264 -0.004999281212803032 2.6236592733340265e-05 -0.0001239736524162571 0.019719410176184893 -0.08775854446670613
0.233 -0.1316107706188712 0.277484049116103 -0.004166896421528376 -0.004582371002352187 7.525465234119873e-05 -3.8219838083974996e-05 0.011702564604751112 -0.08888980322596994
0.234 -0.11063123604205674 0.28662609073070455 -0.004641679818081322 -0.004256810255087034 4.181192831692148e-05 -9.655663910205001e-05 0.003309479814632844 -0.09035536612592096
0.235 -0.08605704246952632 0.2982737307453177 -0.004987134525811586 -0.003730429074257217 2.6390121314129474e-05 -8.148499929204467e-05 -0.00507019320990145 -0.09070924135223826
0.236 -0.06452193027924531 0.30653063461007396 -0.0054507301414309425 -0.0034443523755413675 0.000129630859146586 -7.050974069980893e-05 -0.012973076918036905 -0.08986199877006745
0.237 -0.038630287987813386 0.3107643179483343 -0.005714109289628723 -0.002907559521136676 9.727742517203415e-05 5.5291098616415526e-05 -0.02115627246744562 -0.0883610309640371
0.238 -0.016270044942612565 0.31413888537268736 -0.005987663058238287 -0.0022778637588568447 2.7879214749023894e-05 -8.016353608964295e-06 -0.029778549358047468 -0.08602566721207643
0.239 0.010843739199155093 0.3154569904331994 -0.006182418330799917 -0.0018139067630865374 1.8520913887656044e-06 -2.52725819077557e-05 -0.03720076737351441 -0.0838001856921617
0.24 0.035848646519469146 0.316365292405207 -0.0063069606259293235 -0.0010837340433148563 3.317851696365746e-05 1.807717214108267e-06 -0.04548601477751316 -0.08007749315640678
