!Created with skrf (http://scikit-rf.org).
# GHz S RI R 50.0 
!freq ReS11 ImS11 ReS21 ImS21 ReS12 ImS12 ReS22 ImS22
0.13 0.054442032582584315 0.1731619207104026 0.00015691093897023171 -0.00038745526142177695 -4.458383837247773e-05 -5.029604657715927e-05 0.0330460648980916 -0.041411143587398766
0.131 0.07284233120501427 0.16790140222446295 3.724717583156656e-05 -0.00014986898250181582 -2.3182429452068094e-05 -5.833778416740123e-06 0.028227780696837883 -0.04503030338730059
0.132 0.08942676429574842 0.1598874682654623 -6.090653100955897e-05 -0.00024578130434988165 3.0721109770159406e-05 1.0237817295690368e-05 0.02311018146027978 -0.04828196676647146
0.133 0.10613037221336964 0.15265273166054322 -6.933278302054183e-05 -0.0002659942207779253 2.52746107660295e-07 1.5068542384130837e-05 0.01750434981172474 -0.050994387234513265
0.134 0.12183182835874357 0.14046064242742765 -2.0391532861557032e-05 -0.0002544410853586385 0.00011568369393022857 -4.641616161546021e-05 0.011555116230252021 -0.052802804314748174
0.135 0.13514446475837205 0.12845760390384778 -9.562346692071213e-05 -0.0001801377546232607 7.194187322971803e-05 -6.657518744286115e-05 0.005278755474640801 -0.05424050286460878
0.136 0.14889308200019072 0.11561042068976789 -3.376834772143247e-05 -0.0002869834451100537 -3.900014367779621e-05 -6.0396939532665604e-05 -0.000931219467345486 -0.05529382534614635
0.137 0.1613711504443693 0.1006906180917567 -0.00020260139195265494 -0.000245093476178874 6.814721548068032e-05 -3.6950606191443365e-06 -0.007202631506191851 -0.054709417885600485
0.138 0.17072826777617392 0.0842662286240593 -0.00022678500725038857 -0.00020291391765724632 2.5413740625677596e-05 -5.548443607609323e-05 -0.013338582642270825 -0.05351367524976547
0.139 0.17971693776503095 0.06639505560876532 -0.000227483365238634 -9.01818736600951e-05 3.956461502452924e-05 -9.333027059842029e-07 -0.020000691986271402 -0.05206114395024791
0.14 0.18575915785323957 0.048740447719205764 -0.00030167996139496034 -0.00036263013965238223 -6.130548713937312e-06 -5.038361334140955e-05 -0.025633151319707018 -0.05018096142113034
0.141 0.19107669511925962 0.03006830668262015 -8.964341826443597e-05 -0.00031743734531158526 1.8990304591721985e-05 -6.051715751568861e-05 -0.031029008463288016 -0.0467203772694715
0.142 0.19403393551624476 0.009974897547945687 -0.00042185345113864974 -9.479078405178155e-05 -3.5997432837456816e-05 1.4515366686000205e-05 -0.03672111271425146 -0.042722859451417815
0.143 0.19475013111314024 -0.009399019054685995 -0.00031065648317818445 -9.248158814335369e-05 1.5823068576510584e-05 -2.159074469514101e-05 -0.04139926016709872 -0.038806441160823844
0.144 0.19459220291806542 -0.02960098844362174 -0.00037466176836083344 6.070293609096219e-05 -0.0001304054516654426 -3.9344565710523397e-05 -0.04565120331615221 -0.03405060334441291
0.145 0.19130409599953727 -0.048720440577523776 -0.00038381999620472253 3.820605515635368e-06 6.036287605285809e-05 1.3956459390351473e-05 -0.04958308813652884 -0.02846477828394016
0.146 0.1863892631844582 -0.06847764114195275 -0.0004582577467666702 0.00011153909597484373 0.00010061190579930254 2.1238793244298906e-05 -0.052704736844654224 -0.022899583454760248
0.147 0.1795759286246216 -0.08824904578324154 -0.00022664789976633914 0.00012027308079703507 -2.4376101172833178e-05 -8.890870238085119e-05 -0.05524480655537091 -0.017054909152063043
0.148 0.17009799527782582 -0.10585817490112202 -0.0002520599660667471 9.38106886997672e-05 7.739343790621249e-06 4.23537395407514e-05 -0.05722496496920799 -0.010581809559096154
0.149 0.15957767646007895 -0.12414223718011869 -0.000446199187521173 -6.171682591295558e-05 9.305256887854417e-05 3.859567385298964e-05 -0.05821993068627433 -0.0037123037989553673
0.15 0.14756540457941983 -0.14041724441473993 -0.0006114166666019632 0.0001343237974511461 -1.7537235207672354e-05 -8.425588464020328e-05 -0.05861229753043435 0.0025590681762130206
0.151 0.133053362216435 -0.15428835432137325 -0.0006388550543865253 0.00037047099348826244 2.942656144226348e-05 -0.0001929368020856195 -0.058150763452261965 0.009429760786905654
0.152 0.1165592839356326 -0.16966914300248792 -0.00035686893105749454 0.0004931649594856826 6.930418796273149e-05 0.0001014742336637647 -0.057135120661172545 0.016206322650745238
0.153 0.09911059122010586 -0.180844751960054 -0.0002130890079622659 0.0005382657270369515 4.3302403897705794e-05 5.061668842186643e-05 -0.05500655427043372 0.02283720195994873
0.154 0.08159812233447163 -0.1914343026796358 -0.0001555871753823665 0.000498073408278697 7.603838654425883e-05 -2.3016466745217696e-05 -0.05234365475068515 0.029107934668888575
0.155 0.061065585229493666 -0.20012685647662024 -0.0001376332940152055 0.0005777939916247574 -6.885729235809109e-05 -0.00022282912406744533 -0.04894849903978255 0.03519735979279788
0.156 0.0401187068763382 -0.20654321079403204 -1.436895888855251e-05 0.0006215997970575756 7.910297525169679e-05 1.4169131730514342e-05 -0.04493806081560651 0.04084123224314014
0.157 0.01667629888844862 -0.2107900397566743 1.4625844931501929e-05 0.000561464102235487 -2.9793964500014622e-06 3.9188718711805156e-05 -0.039959960487961556 0.04604470292999467
0.158 -0.0046900943907247136 -0.21228950598160112 -3.5869255836423815e-05 0.0004650848084022225 0.00015740395240480484 -0.00010217355685470553 -0.03462716836082257 0.05041228889934599
0.159 -0.0260886619191169 -0.21187797416716567 -7.528535205606051e-05 0.0005854139261724077 7.991358473435075e-05 -3.188386635731835e-05 -0.028668882610731132 0.054935172569512844
0.16 -0.04750717907694645 -0.21088642345076591 -0.00018609876489257847 0.0007043166687466114 -7.411750425136436e-05 -6.947555478306632e-05 -0.02235065915981143 0.057941905079000655
0.161 -0.07165473151424227 -0.2057282307861919 -8.750784944011745e-05 0.0012700845652073637 6.002517489443488e-05 -3.92373052518359e-05 -0.015407728450983071 0.06092917683497174
0.162 -0.09332000007976889 -0.19863839824691856 0.0004925879264472925 0.0013416932007973906 -0.00013756586588506694 2.5700949749172507e-06 -0.008073959393318762 0.06258021495418016
0.163 -0.11492905747458125 -0.18786327425117016 0.00092718241163946 0.000996662794888655 7.62446351937646e-05 2.9846070885829394e-05 -0.0006991248691507267 0.06329722558771089
0.164 -0.13396523373239105 -0.17624803135049938 0.0010941831521020333 0.0005977443471452214 9.5907392925119e-05 -0.00012204254426654742 0.006954178332770245 0.06381977422499642
0.165 -0.15307505723777629 -0.16117535946741426 0.0010580220751797804 0.00037702108512841783 -9.40707179287826e-05 -7.403526063212438e-06 0.014190307990251916 0.06265260385911621
0.166 -0.17008937465776625 -0.14551087852197359 0.0010114602175149705 0.00020900851574114535 -7.836279401023238e-05 4.551387471535201e-05 0.022177215528735965 0.06107387091311573
0.167 -0.18688882700980228 -0.12665220960539791 0.0008314171163852865 1.454876368293225e-05 -6.585613904208668e-05 -7.980116622700605e-05 0.029562428512172823 0.057985323111320396
0.168 -0.20054096533717927 -0.10747279877590181 0.0006333841153222269 0.00010225018392679245 7.378878432986713e-05 2.4085323018950418e-05 0.03679100079413741 0.05519593646943996
0.169 -0.2112757040255331 -0.08419029440963756 0.00044828096941051005 0.0003264195210539056 6.28654547852842e-05 2.0125753325292298e-05 0.043014552042857965 0.050255933281182226
0.17 -0.22040092175925555 -0.06209460783673874 0.0008909064605831702 0.0005579255064317414 2.0930475552206583e-05 -2.3589458615252963e-05 0.04920188969003912 0.04551287275387798
0.171 -0.22722807335700337 -0.037961239421665176 0.0010507105554345602 0.000832736271496144 0.00012303712880856274 4.148035470734186e-05 0.054410548236780765 0.03929402831327664
0.172 -0.23112137663671026 -0.013345346255845767 0.0018340201756048289 0.0007765039994497229 -1.024440475159221e-05 6.468062601730944e-05 0.05951535279801668 0.03252993174611431
0.173 -0.23200582673879064 0.011683133873276784 0.0024470489898932783 6.687989189038092e-05 3.650389927786338e-05 4.643832404277399e-05 0.06357879475605117 0.025228549613481907
0.174 -0.23051225647538987 0.036445118100486965 0.0026103355015351785 -0.0005815921534676089 -4.3949998308893873e-05 1.7833679400379665e-05 0.06625102574276094 0.017485311405750572
0.175 -0.2271005704327307 0.06121664378401267 0.002477714284019777 -0.0015442576319106196 3.925295465331718e-06 -7.690536621366384e-05 0.06860478006699917 0.009501703914616487
0.176 -0.21976641979025477 0.08591126597025645 0.001712867898319674 -0.0023617904401823137 0.00013034460343717285 -7.32681370945008e-05 0.06951362375417972 0.001133071317882944
0.177 -0.2101964438567815 0.10880281266640265 0.0008143310967070736 -0.0027931345792907834 8.234480553768667e-05 -7.780689252970179e-05 0.06951239629640653 -0.00739200577245961
0.178 -0.1976204077122606 0.13196779540627362 -0.00047705528308645634 -0.0023571376581810544 -5.204563048158069e-05 -1.7217170418158922e-05 0.06851125809775198 -0.01579616228272393
0.179 -0.18433152529658245 0.1530944318908779 -0.0011353881249901937 -0.0006295583125195967 2.8537846745194436e-05 -0.00011075251529506691 0.06630549730052122 -0.024309996814842368
0.18 -0.1683516343176178 0.17248809534652404 0.0006626693806249227 0.0008777722452381478 5.451646554586759e-05 -9.038830322405714e-05 0.06347235520829979 -0.03222911836259238
0.181 -0.14971505776177121 0.19012584205211486 0.0031325739302465127 -0.0008127595489243756 9.741470096812152e-05 -3.09668326779534e-05 0.059175885807656176 -0.03989703157451494
0.182 -0.12837560391591588 0.2053192964404102 0.0025248048196556436 -0.0032107962216551033 4.942061910345031e-05 -0.00010283554625049537 0.05424736731588799 -0.04704300428184572
0.183 -0.1061859766811893 0.21945765636845554 0.0008290671318145555 -0.004122447792832968 -6.638060531619421e-05 -1.9034332278295286e-05 0.04840373407024424 -0.053449214072202544
0.184 -0.08260241669986884 0.23056091088305816 -0.00042593155470093113 -0.0040182066773054685 -0.00012194471925951762 -0.00011785708606623258 0.0417155359061553 -0.05915437631302328
0.185 -0.058984507462625936 0.23858248115006772 -0.0013763132113600001 -0.003513629597364183 5.443660309174141e-05 -2.9324017844665723e-05 0.03432283828631715 -0.06409259098032052
0.186 -0.032137613751729716 0.24540215013771038 -0.0018080814253170453 -0.003249315215300295 0.00014605035912622393 -6.069737035458661e-05 0.026063962813708347 -0.06848443759598849
0.187 -0.006799372546403957 0.24926641305221633 -0.0018310481668721444 -0.0028111676985978513 1.1250376907904276e-06 -3.845461924413444e-05 0.017805381733576677 -0.07143423265745971
0.188 0.020525741122140343 0.2494927921225499 -0.0019939225798504814 -0.002713931278922386 2.3182237965654908e-05 5.951723758856578e-06 0.009161276016495272 -0.07312833803995786
0.189 0.0456642956852344 0.24657011964701464 -0.002138151776245147 -0.002651467672870496 0.00010288288944924456 -4.071109505335308e-05 0.00043178072301300595 -0.07364146489755997
0.19 0.07354495208013218 0.24061336913637735 -0.0026139574732710474 -0.002619666473640751 -1.3102049885871451e-05 -4.7686036937846056e-05 -0.00900736105152594 -0.0735663803337589
0.191 0.09894489192389903 0.23429774987702612 -0.003177985338100913 -0.0026438356586440314 2.083568889398362e-05 1.4361841496088399e-05 -0.01778911219671439 -0.0728055893127691
0.192 0.12542669925444763 0.2220086743209561 -0.0037176649783657797 -0.0025745332727731348 -2.336375443891487e-05 -2.0875853468370537e-05 -0.025808732207241253 -0.07000171778128589
0.193 0.14862958134476112 0.20983517266845825 -0.004583068122210518 -0.00215006743478722 -3.177706988732536e-05 -1.7495556306748054e-05 -0.03498863567156527 -0.06706734668962547
0.194 0.17072513253546537 0.19371353801782165 -0.005122225045632852 -0.0016851854823842181 -0.0001796404029330463 -1.9252526318921186e-05 -0.04321631477987505 -0.06262368980413903
0.195 0.1913261741439459 0.1755702676834934 -0.005753762797397805 -0.0010728901957863556 2.0533743486823307e-05 -7.839023992710619e-07 -0.05057583380779617 -0.05620096812691113
0.196 0.21037718670793004 0.1539353841718081 -0.006305597976839663 -0.00020814534774801595 -9.018562005194142e-05 -1.6168562606732576e-05 -0.05662892221368005 -0.05021126897253258
0.197 0.2283580805972497 0.1307136866087917 -0.006524862400886694 0.0005108322916574391 -6.616435678828216e-05 -9.435551453354801e-05 -0.06295464680821855 -0.04307821302861843
0.198 0.24269091889658295 0.10558404244260261 -0.0069011447327673335 0.0015774043126807963 -3.689121673249386e-05 -3.0639576482304014e-05 -0.0682419635198349 -0.03535910900471557
0.199 0.253808886862042 0.07865326024324124 -0.0071419156480472985 0.002750466888464997 3.054166757302184e-06 -1.6280504764764613e-05 -0.07188780935030248 -0.02720223226120157
0.2 0.26305557507376887 0.050869979400645866 -0.007372041426374869 0.0037892229585504357 2.0546467682467527e-05 -5.669842901044421e-07 -0.07496953604929407 -0.017879708517421464
0.201 0.26879926175519003 0.021635605711893168 -0.007327149011776176 0.004956774107183497 7.24524469949039e-05 -5.985389130609069e-05 -0.07684361798568186 -0.00880829819164512
0.202 0.2710475683225957 -0.008448301328097076 -0.006968478492178295 0.006322787049201981 1.2854038658113107e-05 1.7555783869180625e-05 -0.07767832401082295 0.0008050009325883561
0.203 0.26958872692827557 -0.038605399805758216 -0.0066618519399839465 0.007759230908388108 8.898645475386655e-05 9.883382015496898e-06 -0.07739027737955555 0.010661358272735004
0.204 0.2650651042600978 -0.06940913279188242 -0.006058763865987823 0.009283883357703714 0.00020126717770456478 3.623154845694379e-06 -0.07593568988090346 0.019925782073457726
0.205 0.25666452836999876 -0.09981641255072596 -0.005091582787939315 0.010805245693105587 9.210701659843993e-05 -4.426664396002923e-05 -0.07328206320230134 0.02959625265241424
0.206 0.24488488433012667 -0.12879221107483385 -0.003953657234138974 0.012313623588394362 -0.00010621091837526183 -7.067496718338875e-05 -0.06921377162528097 0.03853872597289988
0.207 0.22936904776837153 -0.15691678412041862 -0.0028481916379539634 0.013641887439676524 -7.038400286679351e-05 2.7780442307329724e-05 -0.06413725893894044 0.047242882643896096
0.208 0.21131634777003339 -0.18250899717452732 -0.0012062285292295096 0.01528661293915883 -2.124960709024001e-05 -5.195106453338421e-05 -0.05804121015805871 0.05485387217294913
0.209 0.18927395201806135 -0.2059634797946848 0.0008044956346367689 0.016965876315324424 9.563666567027706e-06 -6.477724691188926e-05 -0.05081797117848113 0.06216348292788875
0.21 0.16474252911383644 -0.2264238517170168 0.0035610822626463844 0.018440973947273804 -7.952652032610994e-05 -5.156807584763506e-05 -0.04252338766646694 0.06849766919448447
0.211 0.13582019115494653 -0.2466296670797014 0.006907823723170529 0.01911277474228658 -3.0008554341590912e-05 1.956349661548786e-05 -0.03349490667774475 0.07403221982858255
0.212 0.10789072036604726 -0.26168148390132817 0.01021789918810206 0.019193391100882154 -5.9367233878749764e-05 -8.206443373537286e-05 -0.024087147512895146 0.07776044940240051
0.213 0.0748218409850352 -0.2721752475908903 0.013939078049356108 0.019316735950090647 0.00012415278611933468 2.883954000174951e-06 -0.013964870163056682 0.0804815298327423
0.214 0.04483004686783792 -0.2831707241385376 0.0180643830851879 0.018738147212514086 2.77541169642334e-05 3.4007181713689805e-05 -0.002681241368016788 0.08190345103518405
0.215 0.009397682781377512 -0.28294028745012745 0.022234374793592845 0.017788964369117716 -1.610238063658561e-05 -3.893463536284483e-05 0.008329374108604336 0.08300291878249254
0.216 -0.025378589719264284 -0.28405531078562984 0.026928028475053788 0.01602173630771326 -6.99357789410948e-05 -7.043341790866921e-05 0.01926272110244242 0.08108691352284408
0.217 -0.05867155298581926 -0.28111295477003734 0.03135407825339977 0.013007324041624939 -5.297504347480969e-05 2.8455209490611552e-05 0.030043847785290734 0.07796488649103231
0.218 -0.09382312006932743 -0.2683742007640339 0.03630170501051448 0.009756860782262362 -3.0777911129116673e-05 5.021730095188047e-05 0.04037018957999154 0.07327090943400627
0.219 -0.1253804532350637 -0.25697908599365477 0.04122281102213994 0.005109316121085444 4.919958144804317e-05 7.884339801300198e-05 0.050395999928358366 0.0678689043228783
0.22 -0.15744814675381597 -0.2396491669511134 0.04590153673174131 -0.0004907028427694566 0.00012794209934559154 3.919929813197271e-05 0.058950107917279185 0.060816026865992426
0.221 -0.1853725196492057 -0.2183060420692339 0.05066485038085222 -0.007900641723994503 -1.0349584420488095e-05 0.0001031344857231132 0.0677715159855139 0.051698923648674296
0.222 -0.2121360559995511 -0.193219394522786 0.05441297554986761 -0.01755484047736215 3.4232850654754156e-05 2.4167149425663013e-05 0.07423683343186942 0.04196610958287862
0.223 -0.23585731681432634 -0.16688043769069458 0.05632749582513852 -0.028799526425251548 0.00012790976119430995 2.4426754527289064e-05 0.08018063358567021 0.030881993661533925
0.224 -0.2539727089709808 -0.1362413992338289 0.05624807520924721 -0.04013582870744361 5.599389212967029e-05 7.559592411726657e-05 0.08383552252337606 0.019115046245276542
0.225 -0.27007254020793425 -0.10270051087327105 0.05576262607350768 -0.05204215219881966 6.494535376202968e-05 9.51129723581499e-05 0.08603232135628087 0.007304526639504447
0.226 -0.28143890391934906 -0.06740517547151416 0.05396372949827207 -0.06719517154866092 2.6172779403187358e-05 0.00017879342650485827 0.08631652875558954 -0.005720651159818814
0.227 -0.28843222398949064 -0.030196163534122886 0.048894808834971465 -0.08380192233905613 9.893676543984117e-05 0.00011933867141351123 0.08472900235657006 -0.018202996940906584
0.228 -0.29102061043707506 0.00825602402529624 0.03949374532106597 -0.10145560050850223 0.00015791780012883565 0.0001247019790751851 0.08124742030738573 -0.03071856738847905
0.229 -0.2890770235240965 0.046836441735492604 0.026378596118026818 -0.1189477798502969 0.00018141916456571044 0.00016810400110596027 0.07583067083826422 -0.042548749598496007
0.23 -0.28034938053401 0.08458407592209498 0.00858224508125634 -0.1383066747446114 0.00022184621838007245 0.00012238380923103778 0.06861869826935886 -0.054147739130515536
0.231 -0.2677671182602874 0.12273471232655263 -0.013985881046129512 -0.15487209706793345 0.00021925174088710596 5.415978817037598e-05 0.059604916034818066 -0.06385732053746543
0.232 -0.24895519999368212 0.15774427463558244 -0.04389000322329053 -0.17028464424185938 0.00013427907542291523 5.237379025302835e-05 0.048903609423937955 -0.07241735225265315
0.233 -0.2258073036827531 0.19505137758099392 -0.07997085480011291 -0.1832707957850545 0.00031758805881797783 6.8976409137186375e-06 0.03668256269123119 -0.07961345374680068
0.234 -0.19446354274766472 0.22259893611140533 -0.1257469364171442 -0.1932869224600939 0.0002977104079206435 -0.00012956282389316417 0.023445596871514093 -0.08451971450191266
0.235 -0.16274302544898797 0.25365805260468777 -0.17710181468754177 -0.19513421512644274 0.00033428981891468144 -0.00017503537102328927 0.009095222270687873 -0.08751080236593616
0.236 -0.12554194669219682 0.2743358618196642 -0.239633114646569 -0.18659127504230527 0.00041928364926191225 -0.00019358710411951705 -0.005693311697446607 -0.08759517331228404
0.237 -0.07901248062360784 0.28934795874295705 -0.30909509128546947 -0.16407856475565274 0.000419611712731636 -0.00021191445053842043 -0.020064909477432825 -0.08589480459117467
0.238 -0.034968523711025316 0.3021519503859885 -0.38987211008359884 -0.12345241687487526 0.0004182304688765655 -0.00044837467900480537 -0.034994139284934694 -0.08082737270367082
0.239 0.0136772977029117 0.30283766031672943 -0.47139700257585654 -0.06003459131479009 0.0004514689760202786 -0.0005634624144034051 -0.04865639788846698 -0.07251937795133573
0.24 0.06635179356415676 0.29623364968697835 -0.5574229171650669 0.0397426649507361 0.00036794552974734365 -0.000826116017029846 -0.061626834197310604 -0.06264354151485661
