!Created with skrf (http://scikit-rf.org).
# GHz S RI R 50.0 
!freq ReS11 ImS11 ReS21 ImS21 ReS12 ImS12 ReS22 ImS22
0.13 -0.18334643393646002 -0.006778083072366141 0.0002404313916343547 0.00021344739127451595 -3.894190620763907e-05 -1.677481137616548e-05 0.03698855621776792 0.03792581882296911
0.131 -0.1847199030172048 0.008948470844979042 0.0004608230367734535 0.0001999140975878918 7.827054135474579e-05 1.735706002444371e-05 0.04136388539151189 0.03417835129965355
0.132 -0.1850900640708085 0.02480418117124532 0.0005233511004798686 8.38005102970325e-06 -2.3716150090517395e-05 -3.0312667321740767e-05 0.04496967617391019 0.030410555766364006
0.133 -0.1834124566337114 0.041502001788406066 0.00034176329900780753 -2.5877745854549586e-05 4.0136412991283136e-05 -0.00010421898812928835 0.048062560646209396 0.025252430358157187
0.134 -0.1807102131565005 0.05716739940134085 0.0002514382368948021 3.5597404864448524e-05 -5.727824114894971e-05 -2.7138391890163146e-05 0.05092875922011086 0.020691755110860858
0.135 -0.17630430870589103 0.07257741241573964 0.0002924420897388477 2.7012402282110477e-05 1.320040729263651e-05 5.114458658412197e-06 0.05315333710674026 0.015565548166177364
0.136 -0.17035451782231417 0.08788534407883326 0.00018482111195387794 6.005550227495685e-05 0.00011917557626014606 3.007653306816663e-05 0.054903474421631814 0.010023383616994043
0.137 -0.16357176182299016 0.10423806345054348 0.00032968958814822086 -0.00015759889372788467 5.7938387769057586e-05 -0.00011259803417541 0.05621256759421457 0.004455357502400107
0.138 -0.15553076694194243 0.11790059283621161 0.00020776411549687979 -0.00012021249521371413 -2.4307701798217765e-05 -4.451557621945523e-05 0.05654323032140553 -0.001045049595938143
0.139 -0.14595632679700707 0.13163604578043564 0.0004082170609600684 -5.766919380312056e-05 -4.004704817962134e-05 3.0332004944470767e-05 0.056631869851283614 -0.007087055172453425
0.14 -0.13469751536762897 0.14488046407993546 0.00016000687476704458 -0.0002235306525996183 6.69684526248767e-05 -5.2498178889092244e-05 0.056222723413336305 -0.012781349945373154
0.141 -0.1214651876161596 0.15702921833267552 0.00035279427576199394 -0.00014463387930355686 7.543300401916373e-06 -7.375224551599491e-05 0.05491141792778923 -0.018419947101851995
0.142 -0.11109938733292442 0.16641931235206622 0.00019158985869621088 -0.00023562323580366627 -6.098825793154474e-06 -0.00014012451888141284 0.05324931285569849 -0.024066809838616036
0.143 -0.09602359994415781 0.1764802853007504 0.00027980844422403336 -0.0002636673341293581 7.115319924347412e-05 -1.4300816085177942e-05 0.0507503050092776 -0.02937687175370058
0.144 -0.08094678688718378 0.18530053568341234 0.00014104124810625246 -0.0002919508360981679 4.595631959169149e-05 1.84865154191816e-05 0.047719156804292 -0.03471972815365715
0.145 -0.06416448861387487 0.19325501473276185 0.0001516965131329617 -0.00031150891751204307 -1.7542290931579235e-05 -4.2555846925454235e-05 0.044311127053180216 -0.03957090856707657
0.146 -0.04927951720375092 0.19891991332564715 9.387438474344097e-05 -0.0002975900150664413 5.315683745799663e-07 1.414378934150643e-05 0.04034995543797571 -0.04385983741944061
0.147 -0.032119587395917575 0.20414606799101148 0.0002564350504328604 -0.0004815711066028993 0.00011093976047770414 -7.40182241826765e-05 0.03599240618653728 -0.048240826756731935
0.148 -0.014358411604965328 0.20614270429982007 9.510199951175626e-05 -0.00040474946778797327 4.577411884114778e-05 1.8791382851955254e-05 0.0310888037928439 -0.051704520310278904
0.149 0.0025374645209510103 0.2079160351734884 -8.44607445653771e-06 -0.00033475236063444934 9.679084767170065e-05 -2.387740185809834e-06 0.02579656268495124 -0.054793333560987936
0.15 0.021125394332261186 0.2078065307881633 0.00014535322523739588 -0.00026526550165396114 2.3258467251489128e-05 -7.329570478326739e-05 0.020358119992944648 -0.05762686607056393
0.151 0.03722313839716733 0.20600706643709246 -3.2139940188984465e-05 -0.0002736264698332988 7.461541860629806e-06 1.5902148724998382e-05 0.014415935671456959 -0.05922779040476603
0.152 0.056159080713990735 0.2046142056707336 -0.00012103795275057245 -0.00037045292026026926 -4.838764880135922e-06 -9.429714129621951e-05 0.008312309830289622 -0.060984346308495724
0.153 0.0733130001496371 0.19977149237608954 -0.00021556459503811772 -0.0003298195127902031 4.7060225616418756e-05 -2.922945985030658e-05 0.002291069870830329 -0.06197319894596288
0.154 0.08935166189545757 0.19302208107025493 -0.00015028024463416205 -0.00016690312042229303 6.13230822633127e-05 -5.4909712748309157e-05 -0.003246041536537248 -0.06193816225271079
0.155 0.10635111464795338 0.18625266488145636 -0.00017780220488556543 -0.0004411145884064423 -1.7916960712679735e-07 5.9727310619919576e-05 -0.00989199302143026 -0.06174699334536814
0.156 0.12188717737539209 0.17643063473025725 -0.00020346976280567956 -0.00040115570506032197 1.8026165643930338e-05 0.00011549387076544085 -0.01592402671451254 -0.06056753954431266
0.157 0.1373771076368612 0.1676856930617807 -0.00018336166832502924 -0.00033688813970677217 -6.755720769084864e-05 -7.426685318915412e-06 -0.021838897232348605 -0.05908524959331589
0.158 0.15145819291764012 0.15687165150525936 -0.0002970080335898011 -0.00028564566209070974 1.743433200711427e-05 -3.247607087103389e-05 -0.027917476102497698 -0.05704177195806465
0.159 0.1643895174069402 0.14436412794896647 -0.0003024778424274889 -0.00025135891844763807 -7.126616199503001e-06 -7.557871082625086e-05 -0.033730957346985405 -0.05385817694232563
0.16 0.17644385012181513 0.12998538512157168 -0.0004653387944387934 -0.0001084348907336857 6.44768512550719e-05 -1.408126816509079e-06 -0.0387496894081486 -0.05068535442288977
0.161 0.18848596557464856 0.11630570633680336 -0.000356721225596381 -7.445188111613576e-05 5.498170642295646e-05 4.673237553527114e-05 -0.04370734489911856 -0.04675522241754301
0.162 0.19767225489745396 0.1013947534455951 -0.00040379535629586757 -6.423713324004858e-05 -1.596565062972278e-05 1.5459976383371407e-05 -0.048240671056768984 -0.04209692180801821
0.163 0.2062209498459807 0.08344953726454782 -0.00025441619771102153 -0.00020186251810100792 2.0628526139563896e-05 -8.976646545339878e-06 -0.05228358591747424 -0.03739041046894345
0.164 0.2143193357404041 0.06692459018170456 -0.0004355794583919345 5.964276102322438e-05 4.641463203881785e-05 0.00010911842584307843 -0.056205780736949734 -0.03231771782022264
0.165 0.22000251483902272 0.049602167711336506 -0.00039404522505871877 -8.673785545257845e-05 4.908150655361766e-05 -6.361333155110092e-05 -0.05951175356468227 -0.026486617176736747
0.166 0.22444715826384035 0.030943443265758958 -0.0004463724337766581 -0.00015472028784855704 -5.168946120389125e-07 6.114100475799538e-05 -0.06187112059610579 -0.0207862497413196
0.167 0.22710235782314925 0.012663309264655899 -0.0004644000530216119 -2.976209250181487e-06 5.7097151772647746e-05 1.2657623297445552e-05 -0.06408573251438605 -0.014528680577724778
0.168 0.22881658875712976 -0.006879482912020577 -0.00023268963483849832 0.00010170494601825608 -0.00013452228966701632 2.6834428901426616e-05 -0.06555208956976781 -0.008230306437039868
0.169 0.22884386634817258 -0.026000372374480135 -0.0002870834015666178 0.00011435320071665815 2.886870260237412e-05 3.5518477492648524e-05 -0.06633911651548369 -0.0018276721540865424
0.17 0.22695882068204157 -0.0453500429199307 -0.0002347677592636781 0.00013274070376921888 4.1374762843600165e-05 1.1829686565601568e-05 -0.06654621888538469 0.004799278654903502
0.171 0.22381446140596012 -0.06434293258395238 -0.00035001048284548575 0.00026292966203897146 -5.825638046802741e-06 -4.8906315079407805e-05 -0.0660301871535774 0.011253389858810435
0.172 0.21867155623337303 -0.08252774067833421 -0.0004129378482297357 0.00021367532794520601 -6.58699440155547e-05 3.512742597471266e-05 -0.0646281997362115 0.01787554474608791
0.173 0.2124114749747318 -0.10186224245753141 -0.00021644084194952354 0.0003003960662671969 2.5650647785811523e-05 4.151421007698986e-05 -0.06300687051202376 0.024472365263703413
0.174 0.20365375581978015 -0.1201108943823968 -0.00026545899312599344 0.000395358994080583 -7.075644078281298e-05 7.383248471935933e-05 -0.06055030223921565 0.030509511698070608
0.175 0.19380345654574277 -0.13743285985155346 -0.0003458927003411084 0.0003443867418237546 -0.00010106644383905448 -0.00016940396002436016 -0.05771051272593538 0.036633036254321134
0.176 0.1826916972342844 -0.15423279650455265 -0.00021630926129714313 0.00032724373743592657 1.9017200783964668e-05 -5.670544386722509e-06 -0.05403167784138294 0.042143031382704664
0.177 0.1710020217344584 -0.1701530699595817 -0.0001445681331368434 0.00035138758541107133 3.576824084870194e-05 5.272178084690881e-05 -0.04998357981964891 0.04774448767941153
0.178 0.1548674887218637 -0.18481963611796126 4.925032129271553e-05 0.00043200266227655783 7.616248984625697e-05 3.663566697754365e-05 -0.045124572535194904 0.052572256538804596
0.179 0.14026063943894132 -0.19814876097028813 3.707747747313132e-05 0.000378570577710722 -1.217218278564992e-05 -5.2107250371469326e-05 -0.040170027513953606 0.056962780711017735
0.18 0.12334680266746897 -0.21043342553190195 -7.518919987536313e-05 0.00030139232986132347 4.623222318056614e-05 3.2732819050553553e-05 -0.03433126558377557 0.061068286224636815
0.181 0.10571908171165462 -0.22265953982009476 0.00021806663478895832 0.0004977097644986799 -0.00011394277532039995 -4.008717014982037e-05 -0.02825752685325103 0.06473425385490933
0.182 0.08637512539427246 -0.2313091715261782 0.00012952124539809286 0.0003929656903932537 -2.398602996229174e-05 1.5244028027809349e-05 -0.021793160163862603 0.06746348692412456
0.183 0.06795361406747441 -0.23771624616279224 5.222821480973624e-05 0.0005671225227785951 -5.365979990878999e-05 -9.601598107284484e-05 -0.014999154881076747 0.06965427708574791
0.184 0.04618186304042349 -0.24516178034404354 0.00021705736722988682 0.000344900230540897 1.6970115776939158e-05 -3.2781874556671416e-05 -0.007918605155813994 0.07140445696279286
0.185 0.02438304828727622 -0.2501879261520157 0.00027450418220335 0.00043202185049777896 5.2999538136595586e-05 -0.00010083563227473964 -0.0006142881204721073 0.07207990199825527
0.186 0.0028467395304272954 -0.253051004672302 0.00020955406143128463 0.000375024886326396 2.6265000536160434e-05 4.014130887251298e-05 0.006534526555016934 0.07203086652303622
0.187 -0.01809485998742187 -0.2535513110901927 0.0002933731039325371 0.00032169833549991624 -8.546968089411692e-05 8.582002153288934e-05 0.013763683443701488 0.07164212999560124
0.188 -0.04007363760986471 -0.2508011885889814 0.0003654197665801748 0.00040461766293542164 -7.287666419798195e-05 7.870824906464495e-05 0.021168352373729667 0.07024795314868498
0.189 -0.06145867596962977 -0.24880848719388862 0.00041030518688553816 0.000213991501549718 -1.4324620067124286e-05 7.355989670354489e-05 0.028559911387427733 0.06789987378063612
0.19 -0.08406603997912895 -0.2426398313897438 0.0004606279267326889 0.0002615547095256928 -9.160366757969311e-05 6.869598070280035e-05 0.03490511168301849 0.06544232052427862
0.191 -0.10482026018037528 -0.23367011741171154 0.000538471124540375 0.00024876181483215727 5.799474744936186e-05 -1.8855657609339702e-05 0.04205007522883839 0.061263735910064364
0.192 -0.12529647831380578 -0.2277589405368598 0.0005237568068414399 0.00025022474933975703 6.298288019388914e-05 -8.99162527293388e-05 0.04794872569944632 0.05704032022168678
0.193 -0.14456604936096773 -0.2150862922703993 0.0004247354266425363 0.00010650609592765586 -0.00010927846934005642 -1.7873616142068213e-05 0.054439588199788086 0.05258245937668482
0.194 -0.16423809813525073 -0.20253467089885885 0.0004542008360398202 8.418114915872472e-05 7.074870422553335e-05 4.664740699664461e-05 0.059191861100848384 0.04689912354175629
0.195 -0.18085134777849501 -0.18789133057354013 0.0004890694609361802 6.749784178961734e-05 -7.087564471583221e-05 7.379555945513864e-05 0.06443728048002917 0.040641542689477145
0.196 -0.19717143801474352 -0.17196573606467197 0.0005075035262131899 -4.74398977250914e-07 -2.8515655457112378e-05 0.00010163916928610943 0.0682986327046366 0.03411205530624487
0.197 -0.21217123109910463 -0.15543697083012437 0.00042577774483725027 2.404818663681207e-05 6.791614194923608e-05 2.1723539139051727e-05 0.07165538131053045 0.026997065770418594
0.198 -0.2253354502638053 -0.13724187987062506 0.00045770807117041936 -0.0003220043958300038 -0.00012191618577103459 2.120584138201413e-05 0.07450800863088274 0.019655028355184727
0.199 -0.2367675779647121 -0.11724286270320167 0.00045822969336644395 -0.00018167536839134113 -0.00011419912752576607 -0.00019117943159811937 0.07661927428052392 0.011996786430348584
0.2 -0.24623802594452857 -0.09610477465630189 0.0004264837255756819 -0.0003079965949799822 -1.6864347054048785e-05 4.673053647223256e-05 0.07770928742371139 0.004146286234229348
0.201 -0.2552574851309053 -0.0752322719468665 0.00039775725850727835 -0.00035113313607717454 2.6531341181865767e-05 9.735046224246747e-06 0.07817322574431086 -0.0035699864098691025
0.202 -0.2615831546487224 -0.052811231738346225 0.0004642988704308533 -0.00028407660425216943 0.000104926743400312 1.0913440494521037e-05 0.0777651128407258 -0.011748801560516269
0.203 -0.26477555155257015 -0.03166777997920505 0.00027121107621141293 -0.00027700451805753065 3.537550134788732e-05 -5.286512084834713e-05 0.076358222681352 -0.019664984189112517
0.204 -0.2680390463721248 -0.008482001584619451 0.0002441438591008143 -0.00043442055149795855 2.9388471830417036e-05 -0.0001000397737238646 0.0740736196604968 -0.027368805060457867
0.205 -0.2686684723925753 0.014190524164155933 0.00020007760485672837 -0.00040990066089855457 -4.66128350143697e-05 -1.687217298835176e-05 0.07145594669311094 -0.03492982464964572
0.206 -0.2674528510021991 0.03714188669501336 0.00025947268650967925 -0.0006679068327266019 5.0121092620335985e-05 7.012550399442822e-05 0.06761428385759748 -0.04215240987020477
0.207 -0.26440181032452903 0.05990382245575165 7.340351152596948e-05 -0.00045013414173132295 9.97620201111226e-05 -1.0079431105932292e-05 0.06322524993077078 -0.04913718491784162
0.208 -0.2590783245825151 0.08234781603709367 0.00020668956848962105 -0.0003842594837536781 -1.768104545757426e-06 -4.2351323866472725e-05 0.05809528593121706 -0.05542846875900829
0.209 -0.2515785007836177 0.10464958426875373 9.621550247377878e-05 -0.0004819903832937908 -3.328503958979034e-05 -4.28854523129601e-05 0.05240734033168114 -0.06124687468004255
0.21 -0.2424617259110258 0.12542028509782316 -2.4395017934294108e-05 -0.0005950399535646348 -8.979241408486625e-06 -2.837056761100469e-05 0.04623772583220198 -0.06642874916858985
0.211 -0.23295068164974733 0.14653722641520625 6.747654024573986e-05 -0.0006353289868357753 -7.244857817109003e-05 1.5116515986774398e-06 0.039334218704165744 -0.07094940089167669
0.212 -0.2200425622213198 0.16637915374688328 1.922204536114924e-05 -0.0005461768440910562 4.1403252070767176e-05 -4.7763653253731595e-05 0.032181387183331155 -0.07507349316554077
0.213 -0.2070885221268556 0.1842762702863191 -0.0002350763450994538 -0.0004552845108457417 4.589102232691838e-05 -4.354003565922066e-05 0.02454624325531136 -0.07777677301974269
0.214 -0.19181954975100352 0.2029654126224582 -8.884513384946247e-05 -0.0005204490858188886 4.989528464531792e-05 8.713309768759789e-05 0.01654072445255869 -0.08004250583863695
0.215 -0.1747188883137185 0.21934462788680695 -0.00017870329643960772 -0.00038329867989652435 5.374840647001806e-05 1.84517434512405e-05 0.00867826746618408 -0.08187013123399257
0.216 -0.1556464837100401 0.23359590295786178 -0.00023268986279324644 -0.00048166051354621225 -1.617440235485111e-05 -6.000355089957554e-05 0.00010699142657538762 -0.08259575589901251
0.217 -0.1359735130132728 0.2472071347964671 -0.0001541453505476484 -0.00046500751260494767 8.734867119297893e-05 3.000164055706514e-05 -0.00785800982585203 -0.08261204116456926
0.218 -0.11607199765570417 0.258658554801665 -0.0004114502309851778 -0.00030925907486445436 -2.0036079653195968e-05 -3.7881529557763084e-05 -0.016224826501708114 -0.08148061046611062
0.219 -0.09392523996445176 0.26990613369025185 -0.00040259940858504835 -0.0004518180534448086 -8.456546761364425e-06 4.6929747607019623e-05 -0.024759314675163065 -0.07998828335219775
0.22 -0.07049435112634855 0.2800517167042044 -0.00033998322409444545 -0.0002772372381724679 9.263129830723413e-06 5.961571272191433e-05 -0.032378201372953545 -0.07730189916815942
0.221 -0.04844895923144216 0.2854531785006398 -0.0005092122497573575 -0.0002832602271015504 2.028469244779327e-05 6.700390298787232e-06 -0.04005069115379509 -0.07433120808253534
0.222 -0.023580652282140444 0.2900127680833218 -0.00043916720064169436 -0.0003085803151730718 2.983720185617204e-05 -0.00020697587052523233 -0.047516106273012074 -0.07001224752395033
0.223 0.0002791658188796473 0.29248033552132235 -0.0005285627400780236 -0.0001391589561131409 0.00010259516854420138 -6.1838334954187e-05 -0.05440248694087615 -0.0650502233939593
0.224 0.02624898436934717 0.29379738966276137 -0.0004138461902694055 -0.00017347376176644135 4.1435894899053955e-05 -4.9914623397105154e-05 -0.06036516423606839 -0.05980803359507625
0.225 0.04941032914013166 0.28956154609316176 -0.0005181881821304618 2.6944543369433857e-05 2.267771442579488e-05 -7.509001111555927e-05 -0.0668843194830784 -0.05324687537196088
0.226 0.07453615156333405 0.28788601596099106 -0.0005103516504190373 -1.8658000124479067e-05 4.189119899904004e-05 2.6053582071013055e-05 -0.07158129668946295 -0.04683312449962254
0.227 0.10026344536250398 0.2836267641055137 -0.0005598805104819925 7.448645796193192e-05 2.9573757899936657e-05 -4.2064568933090197e-05 -0.07652737170899253 -0.03940098455847114
0.228 0.12449088286626653 0.274110707465407 -0.0005292531745427809 9.250332641677344e-05 0.00011089951174626938 -2.9273213192916096e-05 -0.08070993739385052 -0.03202154075700964
0.229 0.1458258980949539 0.2631191882735363 -0.0004933158492793136 0.0001940892099639075 -7.31881217838413e-05 -8.741568352406058e-05 -0.0835665119832979 -0.024233839398131056
0.23 0.1708658176464818 0.24981350321330714 -0.00048205450972004334 0.00013418117492239616 -1.1246086530575388e-09 3.5222891400881393e-10 -0.085954763990206 -0.01596714520603621
0.231 0.1928958507141689 0.23785818235072273 -0.0004949044738758593 0.00035240138968185207 -8.510265842121397e-05 3.998109207860285e-05 -0.08735267631706396 -0.007534362065532734
0.232 0.21169326379510486 0.22017404854129527 -0.00045054081829245645 0.00028469971866128474 4.494415324173923e-05 8.090569481940214e-05 -0.0879032253273368 0.0010668012976069083
0.233 0.23298030978308099 0.2040795195010039 -0.00037652430364052835 0.0003442661171856148 -3.196208285195587e-05 -3.0140943973116453e-05 -0.08789235458252918 0.009722815602036564
0.234 0.24974226632582178 0.18401026499985038 -0.0004492967146707362 0.0003303809259337333 -0.00015755160603078884 -4.772238712946379e-05 -0.0868306374205172 0.018481172397505623
0.235 0.26680981154415867 0.16424029917393554 -0.0002335408013242687 0.0004458040119513371 -3.6968362199450246e-06 -2.3559161176109716e-05 -0.08489914833618097 0.02699786552645761
0.236 0.28048707628692665 0.1391241789007907 -0.00029197978968355134 0.00046324969453488706 7.609531868717024e-05 -9.730304929958332e-06 -0.0822745182625612 0.03552081419007434
0.237 0.2923892785600598 0.11567057313947729 -0.0002848541980736863 0.0005327499755989838 2.9050108926596067e-05 5.059069866166079e-05 -0.0787641458939993 0.0434353149660533
0.238 0.30205072064910116 0.0906262929939004 -7.46207630146756e-05 0.0005252369106077895 -4.559554333165246e-05 5.538871202373164e-05 -0.07435225442251803 0.05139999111672378
0.239 0.3095881090358105 0.06533083332312249 -0.0001533939672427645 0.00045067238901465767 7.980887133351923e-05 -3.177430457922545e-05 -0.06916644666037282 0.058327423480662645
