!Created with skrf (http://scikit-rf.org).
# GHz S RI R 50.0 
!freq ReS11 ImS11 ReS21 ImS21 ReS12 ImS12 ReS22 ImS22
0.13 0.05491321851503358 0.1737493427463726 5.828616152849161e-05 -0.00019247434986834823 2.8667660229006356e-05 -2.5127036040536232e-05 0.03327837649796282 -0.04130799713090006
0.131 0.07271764141152015 0.1677392625302981 8.238286311385283e-05 -0.00035223474799890743 1.7249948513273e-06 9.730419472713181e-05 0.028310345820200915 -0.045059553956612715
0.132 0.0895037587138593 0.1600891679766617 -4.817903929113019e-05 -0.0001895429200427804 -4.918048565365547e-05 -0.00015903767526159556 0.022815940689307104 -0.04854818531748129
0.133 0.10541847551225374 0.1511775294152783 -8.155973876683825e-05 -0.00032475915504519314 -2.7660241189262355e-05 -5.662897788885668e-06 0.017784863050146045 -0.05112952710624463
0.134 0.12282324116894647 0.14008196024599787 -9.492931834988195e-05 -0.00028887518380109984 -4.273035462291518e-06 1.5258497449186498e-05 0.011628942037962116 -0.05301898800683015
0.135 0.13634178398540397 0.12896899727981953 -0.0001213299299430982 -0.00024683830437398574 -3.0311164426637855e-05 -2.2750511383569453e-05 0.005085502982774132 -0.054488843775473854
0.136 0.14924756740662562 0.11536463197582815 1.5405052417998313e-05 -0.00024237751125248775 7.775918640780159e-05 -6.96029990460974e-05 -0.0009301520761315625 -0.055007700329000146
0.137 0.160848389118265 0.09979779871920805 -0.00016074515890296325 -0.000235774779225601 3.6613097991584936e-05 -0.00016078778388032728 -0.0071879592676420195 -0.054655558600565084
0.138 0.1710893406264745 0.08375650984907707 -0.00020984596284359664 -0.0002423996989198767 8.702386779893753e-06 -5.6057258340184953e-05 -0.01299093402081166 -0.053675668421891906
0.139 0.17949582054739457 0.06622298003467572 -0.0002832108070162868 -0.0003117053746649583 -2.7609519839031304e-05 4.709164750975896e-05 -0.01963144922118095 -0.05235430478473593
0.14 0.18580603080762315 0.04774030104772142 -0.00026547800887730653 -6.423355324311901e-05 2.889954975944747e-05 5.361798075511427e-05 -0.025598966051691846 -0.04986203192482202
0.141 0.1907178753134057 0.02894345675497728 -0.00042788207248669723 -0.00021794332017009748 -0.00010013892391695805 -5.935476733049898e-05 -0.031124188157447087 -0.046808273266727506
0.142 0.19368856766343642 0.01029727606131613 -0.0004251079434187092 -0.00016598310211412334 3.710963870514459e-05 -2.7822096508971276e-06 -0.03671701355086321 -0.04299009938497642
0.143 0.19486509971207708 -0.009390835328700425 -0.0004500120961124353 -0.00015591312706656743 0.00010415658577405383 1.9518284339210107e-05 -0.041624480115965846 -0.03835115833748824
0.144 0.1939803784043059 -0.029715991424268732 -0.0003731379901771796 -4.3441672199278966e-05 -4.424856682999677e-05 -2.5154244662719477e-05 -0.045909747651529074 -0.03422396659889917
0.145 0.19125596843391926 -0.04958216019023118 -0.00043338397499447065 -1.0225084711602837e-05 8.299770932378194e-05 -3.503360195078243e-05 -0.04983547798684392 -0.028492338033324092
0.146 0.18631589350237496 -0.06894128136392887 -0.00041602651153200654 3.2856155353211305e-05 3.67246144995077e-05 -2.8533479851292425e-05 -0.052975960125886096 -0.022897306511425373
0.147 0.17919329718164376 -0.08771243041992775 -0.00035315354125616785 0.00012560041339162008 0.00013223193194772674 0.00018125995139259808 -0.055442860353937674 -0.016975386008443026
0.148 0.17060807740631823 -0.10702872874984623 -0.00021945876196395345 4.144856839543383e-05 2.9381689118531182e-05 -2.4562140696839223e-05 -0.05716404904539637 -0.010844858529193318
0.149 0.1592160223604588 -0.12293999540079825 -0.0003852507243333892 5.095747753692097e-06 0.00011486567618741497 6.045625514008785e-05 -0.05833832354494822 -0.003743814552987079
0.15 0.14661274746811534 -0.13969178587705128 -0.0005179156943604726 0.00019808031959855327 1.9973871995550894e-05 0.00011314213243950803 -0.05869804222255644 0.0028916729762569625
0.151 0.13268388572218803 -0.15529926320063792 -0.00048644214219428983 0.0003687490139274642 3.768966435278072e-05 -4.30411876795617e-06 -0.05838197445912967 0.009540798221558521
0.152 0.11724189774715287 -0.1686595383537713 -0.00038187337872549505 0.0003752659241302855 3.298762744513868e-05 -6.967272515422407e-05 -0.05700398267195634 0.016269949326841112
0.153 0.09901242736070644 -0.18166351789192497 -0.000385376516751723 0.0004394376964651854 5.8624694946097785e-05 2.593395347655146e-05 -0.055202881101562164 0.022936362559375607
0.154 0.08117113024247519 -0.19140858444161593 -0.0003291832623813691 0.0005588422840442933 -0.00010591234243343801 3.966485698758992e-05 -0.052456735656796316 0.029198918252038318
0.155 0.060613482353254866 -0.200949675294092 -0.00024374419332819083 0.0005673299754582352 0.0001605597593118235 2.8477957004706143e-07 -0.04907308023455162 0.03533772276170281
0.156 0.03974156601964746 -0.20754834351688245 -0.00014997338886150094 0.0005506877620517176 0.000125493544871379 0.00022071934644458314 -0.04490846913732139 0.04119611306242669
0.157 0.017983364141596868 -0.2111879203801474 8.34553637609768e-05 0.0005926430354504165 -9.865492500174685e-07 3.071221596081013e-05 -0.03989142309452044 0.0462452454855683
0.158 -0.005009502330369918 -0.21418245234595482 3.971455736435033e-20 0.0006485879421234131 -1.310876817949685e-05 -3.113579033308867e-05 -0.034360297696986876 0.05089631424166551
0.159 -0.025454123763794335 -0.21306931055364584 -6.98008579811458e-05 0.00042914656788742436 -8.24242374597907e-05 8.486513953254995e-05 -0.028757846448031303 0.05488650021078499
0.16 -0.048612025167640814 -0.21043090246501223 -0.0002879574323483201 0.0006246279570075587 -2.9871997504700316e-05 2.830105610194144e-05 -0.02216124426908362 0.0582656842199528
0.161 -0.07261669656566645 -0.2039577766840271 -0.00021943748835392247 0.0010926709963535912 5.129682105009838e-06 5.999856874734517e-05 -0.015319655830727212 0.06079010102743943
0.162 -0.0934360680874473 -0.19807780847956258 0.0003826183818490258 0.0013591449389535007 2.2443277070889525e-05 -5.5999226285885765e-05 -0.008332677145185199 0.06266559024080222
0.163 -0.11473865494419258 -0.18792599222396075 0.0008191993407653595 0.0010357319739510776 -7.643805032139835e-05 -4.046919547563193e-05 -0.0003682891905684161 0.06355178931730097
0.164 -0.13404717141943448 -0.17484171651359445 0.0011182455794940557 0.0007823792516144136 -1.9932800021985455e-05 -7.359774435714961e-06 0.007238474192089284 0.06391868503130885
0.165 -0.15350172890958164 -0.16109590118800166 0.001104727405269699 0.0005048638314744123 5.815928334224561e-05 2.7956240145015715e-05 0.014780024832112654 0.0628453361027882
0.166 -0.17115311129593858 -0.14353499283234367 0.0011989264009492151 0.000270161819360444 -3.92641854276644e-05 3.6584428434293516e-05 0.021789286635084004 0.061067555416490296
0.167 -0.18687918864451045 -0.12590335931056576 0.0009029941171621906 3.325924276059865e-05 3.0183158918788372e-05 -3.214487373040543e-05 0.029435167229349794 0.058383445986030444
0.168 -0.20094411385960254 -0.10596682307315225 0.0007071519448856805 5.698525745916738e-05 -2.5634148317664508e-05 -6.690190859768993e-05 0.036201130634774197 0.05479534507014309
0.169 -0.211184177253846 -0.08398702623526952 0.0006304965658278861 0.0002394269396349733 1.2205678435327408e-05 8.75402441120257e-06 0.04342399144513595 0.050427300030728074
0.17 -0.221751596804776 -0.06139948509265171 0.0007826887079893795 0.0004216375246632045 2.267276995966276e-05 -5.573380682228885e-05 0.049289051932117675 0.04528888874825434
0.171 -0.22715090893713816 -0.03782101035587019 0.0010067920309563575 0.000630832745975898 4.240661911077578e-05 -2.0875801776066047e-05 0.05484991091327847 0.03929074270850636
0.172 -0.23124142116046914 -0.013383913866746363 0.0014794409131759392 0.0006628029507383828 3.278625313189152e-05 6.758393502673145e-05 0.059489367735646066 0.03265677449992651
0.173 -0.23191949276787538 0.011108196211849896 0.0022022745651160344 0.00028025053425593784 1.6867210389112253e-05 -3.361203710489268e-05 0.06349912370767336 0.025129313998130367
0.174 -0.23063312665288344 0.03685113451939881 0.00257181548753426 -0.0003966255777962823 -9.354898530250913e-06 -6.863343442406082e-05 0.06651178942488581 0.01775193411888707
0.175 -0.22655545245251654 0.06106970318782022 0.0025896538992195143 -0.0014424005417268226 0.0001179256101927283 4.853819223058535e-05 0.06851705958587546 0.009242109040929548
0.176 -0.21983837022667 0.08462888170013365 0.0019981295959246616 -0.002340155228503959 -3.383069915428648e-05 -8.983027600401521e-05 0.0697893663871237 0.0007778576687258805
0.177 -0.21076971086478166 0.11037810085198403 0.001047012297417602 -0.002742078553890347 -4.624506368151793e-05 9.283962638252117e-06 0.06973882371669146 -0.007534511001986847
0.178 -0.1989411137088039 0.13167625069204758 -0.00017225234953502255 -0.0024585059095960935 2.4827231316626828e-05 7.033845757769662e-05 0.06862173689729727 -0.015707120813204727
0.179 -0.18343714303669528 0.15222485880425793 -0.0012432745552932785 -0.0010996542270252218 2.285358028386094e-05 -8.319977308373749e-05 0.06648962954574722 -0.024228484544958448
0.18 -0.1684180222584549 0.17203912487241374 0.00036776592380676767 0.0007229994048378421 -0.0001280648119003405 1.3442499339856492e-05 0.06345484371779656 -0.03242318665913166
0.181 -0.14916570016244143 0.19033425792247122 0.002696528117834122 -0.0003251802934668281 2.5562287459285444e-05 -6.583959745948184e-05 0.059304196247363286 -0.040116000520597175
0.182 -0.12822879834994508 0.20524010876572354 0.0025012963212801575 -0.002949142052483584 7.990931510353463e-06 -8.51174104978508e-05 0.05437429780039324 -0.04703629393139345
0.183 -0.10545255524344221 0.21870197830836957 0.0010545257358823999 -0.004042285175890203 4.614968936105432e-06 -6.982723991889822e-05 0.04835998984019156 -0.05348879639266176
0.184 -0.08251181690166177 0.23040696956834072 -0.00020307733192432157 -0.0040327471033074404 9.63039554469625e-05 2.0524942799886804e-05 0.04166178229935417 -0.05921090509461945
0.185 -0.05767841868473885 0.23795966092855905 -0.0011410275539607874 -0.0036043055164392407 3.1033181355841815e-05 1.9618955136071032e-05 0.03438778228214219 -0.06411404919633276
0.186 -0.03164596441470115 0.24488908384453947 -0.0016991844905464009 -0.0032619308393773286 -5.114332663782918e-05 -5.247145716746052e-05 0.02601838955965836 -0.0686037698457102
0.187 -0.007540691602335641 0.2495962009444997 -0.0018518977964676107 -0.0029200598034894686 6.922579962657326e-05 4.112912927205196e-05 0.017889078842665582 -0.07133466476044985
0.188 0.01995793785772397 0.24860508535659015 -0.0019604670003157674 -0.0026216535527011048 -9.75813081463821e-05 -4.315933379430136e-05 0.009327194894813177 -0.07299968245621753
0.189 0.04632250699928374 0.2447159541291319 -0.0023398983546020443 -0.0027328707610184207 -3.008489949675654e-06 6.484715898718828e-05 0.00018660417072916853 -0.07397437401605575
0.19 0.07415212373501029 0.24077821948113987 -0.0026753880248679583 -0.00252157141814547 -4.673279545658161e-05 -4.3460054404985034e-05 -0.008689550552275091 -0.07415385823998472
0.191 0.09902010326119742 0.23358662298580513 -0.0031716822323589965 -0.0025805736340639963 0.00011074198935673617 -8.226651879467213e-05 -0.01788764878905001 -0.07267144758866781
0.192 0.12366797718635937 0.22101942122917248 -0.003745468959236184 -0.0024556370536164235 -4.239876718563743e-05 2.100947366766471e-05 -0.026534255786930663 -0.07003597096162975
0.193 0.14837309450544947 0.21085677136167089 -0.004319079505085698 -0.002099270488264717 -4.4632654229338146e-05 2.9725850732537826e-05 -0.03499218433811616 -0.06729775665284639
0.194 0.17049717617940954 0.195111364063905 -0.005077842982754114 -0.0016606145878536524 -5.485860185195715e-05 -1.2791231920356893e-05 -0.04254367018084895 -0.06251122815419649
0.195 0.1926057210182402 0.17448395458003196 -0.005704109293516026 -0.0011192632948065539 -1.8568372312180054e-05 -1.2282856718697154e-05 -0.05077543968056527 -0.05681106108716165
0.196 0.2102656644767422 0.1546034081458887 -0.006246566589890303 -0.0003453071622218771 2.2920917613833778e-05 -3.0318054574448422e-05 -0.05696531104840947 -0.05020511409878321
0.197 0.22827837602938233 0.13073005832878026 -0.0065944187681808 0.0005887174636688924 -3.206965856783996e-05 -1.604944509394182e-05 -0.06301692580929037 -0.04329768300471957
0.198 0.24230110769398033 0.10643762812775164 -0.007095132635015027 0.0015688935371512291 -8.866866874876996e-06 -2.0704321702809886e-05 -0.06825017150938671 -0.035351558128561895
0.199 0.25421722511874895 0.07903632234119323 -0.007345486855725957 0.002628257222819384 -5.8766613179250396e-05 5.2783255134950634e-05 -0.07182936820456708 -0.02751653878832762
0.2 0.2634675123503107 0.05066785514559573 -0.007204449425932257 0.0037479022175475308 -3.3220849835248387e-06 9.019517426865746e-05 -0.07521080370330466 -0.017969768110120358
0.201 0.2686891547753117 0.022048544666199786 -0.007289336326898976 0.004833287285439355 3.5764818173932947e-05 2.803712028726222e-06 -0.07699119919017304 -0.009091219396769504
0.202 0.2711234198238571 -0.008463675011204874 -0.007090104982335815 0.006281417638924447 -7.967971494423503e-05 2.366130841246286e-05 -0.07785900355024762 0.0006582309138218326
0.203 0.26930633675971166 -0.03853217205707969 -0.006688907651982734 0.007747892515216744 6.533464636811011e-05 1.1808700871357332e-06 -0.07761325111128595 0.010293351890687759
0.204 0.2647503936723285 -0.0692254736001352 -0.006041892740159047 0.009237377701560525 3.941205415216749e-05 7.072549465885893e-05 -0.07604735133061359 0.019966166148542866
0.205 0.2561267602212169 -0.09883911633673143 -0.005226525195087042 0.010725242382722483 -9.815573695782223e-05 -0.00019917705674879705 -0.07309428732052528 0.02926569231668657
0.206 0.2447998009362605 -0.12879007845577103 -0.004016343797474352 0.012213533909955446 -1.73113605635731e-05 6.443113637265981e-05 -0.06927910302443259 0.038711344074513016
0.207 0.22952556406491997 -0.15633565762355076 -0.002624617874065427 0.013671608691597566 2.220184822427776e-05 -1.3640005754697599e-06 -0.06431024613455577 0.04703298209128912
0.208 0.20965597156728233 -0.18218842771111857 -0.0011887808462457375 0.015264544013497383 5.7391008673606145e-05 3.0243596650966408e-05 -0.05791457375353502 0.05489887632880151
0.209 0.18913561568236487 -0.20588336760894216 0.000725601918597451 0.016697383943957415 -6.988237879868402e-05 1.5382619266657376e-05 -0.050700472969836194 0.062244592084410376
0.21 0.16415791389003462 -0.22737522551857806 0.0035890549329537754 0.018166350106632805 8.38594975366254e-06 5.120556485959467e-05 -0.04280954237216648 0.06849919654220646
0.211 0.1372412673597018 -0.2461038188665696 0.006746235531608832 0.01914614094328783 1.5478637106779412e-05 5.136642451360314e-05 -0.03365664148585591 0.07394625845085419
0.212 0.10719304846427086 -0.25993903773281973 0.010352826615428348 0.019143720642918364 -4.9528373653445605e-05 -0.00011348404958518336 -0.023622584341677706 0.07802639942982416
0.213 0.07506743866953895 -0.27357941010188896 0.013892887272774945 0.019243046539123634 -8.207220880941557e-05 5.945813803093366e-05 -0.01359910050201171 0.08089230252552129
0.214 0.04283955231638807 -0.27972813761402193 0.017768759929217712 0.01895078484918477 2.0820486812289072e-05 3.109347554114989e-05 -0.0031570524615051106 0.08235604511017604
0.215 0.008993944497976115 -0.2848311816960988 0.022330703441765794 0.017854800070213554 -1.1351327910237404e-05 0.000120822999286358 0.007858783786101706 0.0825008412215219
0.216 -0.025586131683162427 -0.28397540941884836 0.02667066118858044 0.015956134916354073 -3.9617029545949695e-06 -9.203374984021072e-05 0.0191655254610249 0.08070223358443336
0.217 -0.059643611342275374 -0.277990657316509 0.031312368360787046 0.013156730424273707 8.574488948498342e-06 7.512071742401662e-05 0.02921915034687251 0.07792335072036834
0.218 -0.09321465535595123 -0.26987794227516526 0.036258134923985344 0.009557205216782584 -0.00010025522165401751 7.514129929919143e-05 0.040267675982708355 0.0732620107293992
0.219 -0.12692785766082265 -0.2566780086022848 0.0409772259682201 0.005105827391958493 -3.951100365740902e-05 3.831181593618251e-05 0.05049142779029767 0.06800710458342332
0.22 -0.15576412716102922 -0.24161901663542892 0.045677044961376374 -0.0006010842629996284 -3.550072652325811e-05 5.0575431948432e-05 0.059422591159653 0.06058443021549421
0.221 -0.18495569164697578 -0.21859934418426205 0.050554716307471596 -0.00780184519226758 1.815408525605729e-05 1.388396515872107e-05 0.06774958363381088 0.05153256164216751
0.222 -0.21038588890942356 -0.19501138541330187 0.054309341261901886 -0.017372311887382554 5.9707735289748375e-05 -6.187319922212421e-06 0.07412756808034006 0.04182601887479987
0.223 -0.23571734338020986 -0.1664440068116427 0.05622049878147309 -0.02867354165611094 5.326848333499372e-05 9.973190903011328e-05 0.08008359923176606 0.03115380869746877
0.224 -0.25522873341877755 -0.13593080726746762 0.05630879757767953 -0.039740462911559714 7.408469201835423e-05 7.513254598714219e-05 0.08389877822065726 0.019112169923245888
0.225 -0.27034135961317013 -0.10246533436488994 0.05598403717430473 -0.051843204804860744 0.00010201243151172147 -4.3278172894006825e-07 0.08597083729372687 0.00726204201455581
0.226 -0.2823087897878913 -0.06757281424512529 0.05376145711528542 -0.06687323584924657 6.484980676004642e-05 2.9835881622867963e-05 0.08626850855427665 -0.0048850361694966205
0.227 -0.2891975969465684 -0.029917548267058346 0.04853992506038285 -0.08376998495141112 0.00015102634671464822 0.0001153313722171683 0.08497171077971624 -0.017831336718549813
0.228 -0.2913348960402067 0.007350616494771423 0.039574373342258586 -0.100990005455303 0.00016522564987453357 8.901861621217545e-05 0.08132391646844221 -0.03054803615398368
0.229 -0.2883946534804397 0.0455966089020771 0.026409522739191796 -0.1187807004443526 0.00018757760327141679 0.00012067204900899971 0.07621362502997088 -0.04230875507140123
0.23 -0.2803701249073886 0.0846737606202956 0.00794948292547401 -0.13670142833732987 0.0001607564513469981 0.00010935093807495571 0.06876832980472622 -0.054087255679905695
0.231 -0.26767856521914396 0.12256164563876963 -0.013940816538644136 -0.15425567059044346 0.00019655886824001206 5.8256188158705785e-05 0.0596765804870044 -0.06389478802029996
0.232 -0.24881294796630207 0.15808240074361937 -0.042706148347556656 -0.17113588323629636 0.00012583878039229866 2.1164038971498903e-05 0.04908681214811081 -0.07256057656551959
0.233 -0.22595974009689704 0.19405604638617716 -0.08004822903252377 -0.18396111558005748 0.0003519618470172312 1.7518541452747178e-05 0.036947847960793125 -0.07968835306730841
0.234 -0.19520000464739282 0.22258294593364134 -0.12365057128312076 -0.19284261547407597 0.0004255016723178111 -9.703241698049218e-05 0.024104442944135357 -0.08445319775138035
0.235 -0.16146482256658193 0.25125101575895914 -0.17799617303908008 -0.19547597694641314 0.00035568359317550636 -0.0001394706070338399 0.009447660706813417 -0.08764611261907089
0.236 -0.12286081386694234 0.2730390930235847 -0.23841605042386546 -0.1874781056279999 0.0002941066194872566 -0.00018209576663044308 -0.005194164956615193 -0.08777140059428662
0.237 -0.08047858854776176 0.29081225129859656 -0.3086241513623651 -0.16480076609608985 0.00037595522007528365 -0.0003196360564595522 -0.020321566059272118 -0.0852855305224727
0.238 -0.032914646443128324 0.29809987134517385 -0.3870140806425755 -0.1252236282993657 0.0004443795164989168 -0.00045979191572484147 -0.03516954884867416 -0.08046402657313997
0.239 0.01530070756547186 0.304257240055133 -0.47142473058392015 -0.060299433404362224 0.0005018314357194367 -0.0005125861990294804 -0.04858279638090731 -0.07299983195586462
0.24 0.0647164544285708 0.2953456616466255 -0.5577770393070487 0.03862145360995082 0.0004938479959914258 -0.0007043677717276003 -0.060991044230321215 -0.06269451714918847
