!Created with skrf (http://scikit-rf.org).
# GHz S RI R 50.0 
!freq ReS11 ImS11 ReS21 ImS21 ReS12 ImS12 ReS22 ImS22
0.13 -0.09843750960278871 -0.15470207361255664 0.00024195670860887537 0.003718738555088773 -0.00014349114744262342 -9.129846050185409e-06 -0.015539613491909401 0.0505564512834295
0.131 -0.11183867768589038 -0.14697131801316693 0.0006247180761758242 0.003670116789566991 1.4064913565432238e-05 -7.043299855790053e-05 -0.011248737157679559 0.05216865166021566
0.132 -0.12453364551372878 -0.13926037180570275 0.0009253772420459385 0.0036646185443217996 -3.618567797169957e-05 -4.052037802951822e-05 -0.006671942901242409 0.05337566695635315
0.133 -0.13674774434941273 -0.1294501972361464 0.001390868175432051 0.0034663106057879855 -2.960951519814752e-05 3.0552982148082414e-05 -0.001523311616826814 0.05434953658953815
0.134 -0.14737654653070661 -0.11964292833197732 0.0017623575490525504 0.003349690732608919 1.158945487094145e-05 2.6044676728245598e-05 0.0032105159098929034 0.05437727521846829
0.135 -0.15782960894213532 -0.10821998612759424 0.001951676251874927 0.003275134918735304 -5.6931900632711964e-05 -1.2507524748381833e-05 0.008770265261999853 0.0544124772842837
0.136 -0.16656310047216702 -0.09662001893878358 0.0023019917703646954 0.003029415612931155 -9.904161321861447e-05 -3.640035812763838e-05 0.013584431705881245 0.053920051718932965
0.137 -0.1754566572301486 -0.0833950524476626 0.0026052591570721105 0.002817582628262792 6.561298156049363e-05 -9.302175506891965e-05 0.01884945623017725 0.052590255125296
0.138 -0.18231057406429543 -0.07032494869792268 0.0030692430804720133 0.0026035190513402895 2.232399612443683e-06 5.0812372769960476e-05 0.02371691131802094 0.05138144839752329
0.139 -0.18887476820919233 -0.056283580542724976 0.0031084627882315796 0.0023067073670715865 -0.0001215711236000061 -1.4888168738549474e-20 0.028977983300494427 0.049271637538600754
0.14 -0.19348905604260705 -0.0417620178775713 0.0034414122262498323 0.0019632733978438557 -1.8158245492399946e-05 0.00021086078928160662 0.03402862213986225 0.04667224061338942
0.141 -0.19798069222100734 -0.026201981573523086 0.0035493592517497935 0.0016211906373723084 -5.682313442647037e-05 6.83792690047972e-05 0.038345050670135515 0.043983594589950686
0.142 -0.2006527726193818 -0.010652945759202654 0.00386373884642032 0.0014463944815225345 3.9558280443755786e-05 -4.813160207563284e-05 0.04252246611465638 0.04000933939550447
0.143 -0.20274136435776965 0.0056409462393060186 0.004056219859636445 0.0010444748236654088 1.4455855588736025e-05 5.449952754885336e-05 0.046319557845137395 0.036433537534820634
0.144 -0.2027813944422735 0.021648707035919416 0.00404654765975012 0.0005437580314096323 5.825249979718889e-05 -0.00011275461868556063 0.04982434710000642 0.03228873912265813
0.145 -0.20197202466389802 0.03731937099735762 0.004121190425359756 0.0003507033305450402 6.471039008033833e-05 -0.00012302475156007232 0.05315396431100463 0.027563203277967383
0.146 -0.19983725364767113 0.05380916176780668 0.0041079404506366764 -0.00012557901431395113 6.0099659023172664e-05 -0.00014310251130545432 0.05587338855895961 0.02303202281818947
0.147 -0.1959371518731244 0.07025815674496753 0.004097998886480322 -0.0007302242123145083 6.203159894486445e-06 -0.00017798316297003248 0.05786785681387721 0.017707079470673036
0.148 -0.19189020562610715 0.08540367426511626 0.004143509152879492 -0.0008148385513037569 4.814764986966079e-05 7.86872337866431e-06 0.05994811720045513 0.012263632964881442
0.149 -0.1853778262925165 0.10039027300185427 0.0039016097575142335 -0.001304499151275258 -6.573193178390929e-05 -1.736329017484008e-05 0.061259607196294565 0.006678905305853395
0.15 -0.17776745315637427 0.11592659730092073 0.004060733657072476 -0.0016491832041173266 4.442962809435253e-05 3.829621378252607e-05 0.06199176254982965 0.00090494475960394
0.151 -0.16978793088957175 0.12940229032806996 0.0037952932774875936 -0.00211426363619819 3.534938183089147e-05 0.0001071512458339044 0.06220098707001376 -0.004795329967123562
0.152 -0.1599382388544939 0.14408803389358252 0.0034389681582660697 -0.0026191248100448585 8.844387665822666e-05 -1.122735634295242e-05 0.061702216431906313 -0.01055907621897701
0.153 -0.14852889765868135 0.15570691327199285 0.003219272715666372 -0.0029336085151146518 -0.00011032161652877625 -2.608845526208297e-05 0.06102542146284193 -0.016501746692896828
0.154 -0.13550872388347945 0.1677598633936377 0.002986392664500217 -0.003175279491359485 2.5610311393082324e-05 -6.656788365760957e-05 0.05942641549145689 -0.022092876558819335
0.155 -0.12268414521296421 0.1794747485362757 0.002623987732281248 -0.0035007351353959844 1.2698329869383632e-05 1.826067139703558e-05 0.057730395458346594 -0.027888300733152134
0.156 -0.110140571982212 0.1887428618861089 0.002225108248945621 -0.0037074948072780512 2.9725673809434783e-05 1.3434345176098134e-05 0.055102388275341564 -0.033229126747140826
0.157 -0.09466824724975585 0.19865035009090973 0.0020475418133645814 -0.0039007678214548038 3.1233000737995145e-05 -2.43231204793576e-05 0.05206586044700351 -0.03839777036303451
0.158 -0.0783006782820884 0.20531797730349666 0.001549457611187195 -0.004139050334956858 -0.00017433946718511294 1.7939352523239433e-05 0.048520331689488015 -0.04318733316308185
0.159 -0.06320274786823858 0.21315542443856997 0.0011790817104523 -0.004208149723495947 -5.131305357771786e-05 -4.389814190781906e-05 0.0445966344653965 -0.047788096791053204
0.16 -0.04773380621627429 0.2186977605078489 0.00076068719699039 -0.004434183505640351 6.27790921327934e-06 2.7509022435955173e-05 0.04015136608218189 -0.05193662344198455
0.161 -0.030168038176157208 0.22121904268364884 0.0004145023532655069 -0.004500893265028407 -5.072777589750628e-05 -2.887413928682219e-05 0.03553925800619485 -0.05568906083506698
0.162 -0.014508401905341747 0.2258375513703645 -5.385255499134788e-05 -0.004539408740292599 4.553452034496528e-05 5.2262619365108275e-05 0.030191334146628158 -0.058876250311848705
0.163 0.0036692578069108324 0.22611311376109347 -0.00048494382774548895 -0.004375608185704755 5.93594717047343e-05 7.05462867650771e-05 0.025093033994990233 -0.06149099951340527
0.164 0.021797352937878878 0.2268605057420158 -0.0008742849803862471 -0.004445998386469763 9.116211091749897e-06 -6.902629505473947e-05 0.019026455365270863 -0.0641038256817657
0.165 0.03888646320073401 0.22547687026849703 -0.0014139749882557857 -0.004387362173100661 -5.09600184070457e-05 8.035663311740988e-06 0.01354148023478078 -0.06575497974545985
0.166 0.0553315969333662 0.22452965383692294 -0.0017012698985236115 -0.004319788892178832 3.017048119357981e-05 -1.6133070277672536e-05 0.007006454070694553 -0.0668372870041141
0.167 0.07293348216499014 0.22016788841490736 -0.002185533078744652 -0.003944708585085275 -2.073567898597158e-05 -4.5246633271515075e-05 0.0006888660028358851 -0.0678103743859305
0.168 0.09139499823581948 0.2137313012002905 -0.0024046768422888803 -0.003949416071404172 -1.5959590362738922e-06 4.448487431621158e-05 -0.0052450454862843585 -0.06794742771056783
0.169 0.10685682943012523 0.20742324110059387 -0.002846498511965549 -0.0035131735391569887 3.5068669091497706e-05 -1.7627369263684357e-05 -0.011864098402018032 -0.06785257189170708
0.17 0.12269769017729515 0.19906497220666003 -0.0033044418179618094 -0.0032801999947525053 -1.775281314237029e-05 -4.604113295824166e-05 -0.018442784746875163 -0.0664146103193187
0.171 0.1389966341498065 0.19045099704888144 -0.003504145369343502 -0.002981272943837508 -1.6888907225953598e-06 5.108109083876203e-07 -0.02378033019050106 -0.06470382122834768
0.172 0.15325800041209428 0.18008749131418605 -0.0038725716995384467 -0.0027678592491382366 4.585253654616647e-06 5.75092048699989e-05 -0.029918550844582375 -0.06269254395810576
0.173 0.16767928363126755 0.17029460511225086 -0.003937582487842721 -0.0021365426914640696 -0.0001556754669844085 -4.924769575906948e-05 -0.03584500131271732 -0.05996126276404125
0.174 0.18158074645461225 0.15683785972138525 -0.004269145673229799 -0.0019231099001112174 8.284365572208878e-05 -5.4480387054360344e-05 -0.041079184836654424 -0.05641922391609837
0.175 0.19302029448159755 0.14423760366533392 -0.00448929574759233 -0.0016582752897589996 -6.508829627903434e-05 0.00018074330028375958 -0.04643257951232588 -0.053033671670658165
0.176 0.20545687311835845 0.1288028380742334 -0.004616077061949241 -0.0010491441302119214 8.027644592301988e-06 -9.826029854470201e-06 -0.05090581637688305 -0.0487450215621247
0.177 0.21545408830988608 0.11504932020149637 -0.004678323334295277 -0.0005511288483839977 6.8341830010066765e-06 7.860885420279514e-05 -0.055571158723789094 -0.04393176606773376
0.178 0.22431518081965834 0.09824958984575598 -0.004710716409259892 -0.0002056743202028874 1.9726054691083656e-05 -0.00015338849868165447 -0.05948512953026387 -0.03897696893377007
0.179 0.231184437065051 0.08060945520908915 -0.004921527340461903 0.00016514496222834216 3.8752635315860695e-05 -4.8348899487272946e-05 -0.06304288434031438 -0.033575648188434164
0.18 0.23962177663423334 0.06272698271032005 -0.004744206186426202 0.0008425358854085145 -6.079323378215623e-07 2.9522254839187858e-05 -0.06622761317302468 -0.027930954617149888
0.181 0.2448070230780959 0.044322185576546214 -0.004734913123341565 0.0011265145403788971 2.0635218487559362e-05 -8.657568845500609e-05 -0.06893942339314658 -0.022212859176876973
0.182 0.24887656685704582 0.026561193824949026 -0.004562823459250259 0.0016522820052841203 -2.6362231444442143e-05 -1.4169570644869522e-05 -0.07060518386866281 -0.0162396600150958
0.183 0.2510944116510793 0.007964804844923122 -0.004399043655042786 0.0020221713785794583 -0.00010910559479857532 -9.21605818413199e-05 -0.0724836688243864 -0.009391875468479445
0.184 0.25269033257683066 -0.01200754517082511 -0.0042836214350267235 0.002399710603879719 5.4671269081108156e-05 -1.322466005544512e-06 -0.0733088687016945 -0.002850279645347802
0.185 0.2522643386596852 -0.03140306415507272 -0.00408139396955188 0.0028727771643084826 7.335794906724344e-05 -7.0654599816114756e-06 -0.07342692349514343 0.0035570540770130175
0.186 0.2512497712065314 -0.05155676657294226 -0.0038626279833340084 0.003393028345021915 -8.811040565031698e-06 -4.631111740115224e-06 -0.0731315184102548 0.01043053956297301
0.187 0.24761280154534074 -0.07086254393046966 -0.0033588772980333538 0.003584277177157287 -8.655988742542521e-06 -4.8644385330111166e-05 -0.07224574314092327 0.016949243291940107
0.188 0.24272239920094962 -0.08994003548356547 -0.0032758613385843807 0.0038482734689573943 7.608964974199883e-05 5.7978717709759455e-05 -0.07055945465129151 0.02357677315695059
0.189 0.23681905768759554 -0.1094296856352252 -0.0028297369395401087 0.004146902988935136 -6.901802294096538e-05 -5.2556825568111814e-05 -0.06847357177006673 0.03001771647967071
0.19 0.22889262138571426 -0.12825265862271426 -0.0024535936678437616 0.004437809822835464 6.0822980599324466e-05 -0.00012846340093433843 -0.0659797039778062 0.03626796310202459
0.191 0.21938685199835922 -0.14689269017110326 -0.0019757365639605077 0.004858619012113848 1.7983600402033016e-05 2.4118956950017626e-05 -0.06274342953664097 0.042296086884500386
0.192 0.20849422568588002 -0.1634206838626398 -0.0016616690548569672 0.005089287173577934 -4.236009525653942e-05 5.371277354776338e-06 -0.05891032760869031 0.04774455609569902
0.193 0.19562063189692022 -0.18018784306508898 -0.0010333281332562689 0.005105690561474954 -5.2795945480442356e-05 5.228015025880155e-05 -0.05490082228253602 0.05335086036349659
0.194 0.18145479424179883 -0.19509249747872284 -0.0005133716872212613 0.005126345710155354 3.6096664333179825e-05 -3.2853085719747285e-05 -0.049797727438547844 0.05827346064276995
0.195 0.1661742364087078 -0.2115315878629448 -0.00020966822537767072 0.005281341224673246 -5.962640015923215e-06 1.6518747060545363e-05 -0.04494874448520919 0.06301581566989164
0.196 0.15077725302197997 -0.2244430207189144 0.0004443295247632049 0.0053739753257314735 1.7272934256734773e-05 -6.404411625017993e-05 -0.038642595291675755 0.06660544728345265
0.197 0.13241685611727932 -0.2363717034486457 0.0010192102707470097 0.0051792561960021955 -2.068063628860291e-05 5.784823622633535e-05 -0.03286060485695919 0.07044471499399224
0.198 0.11488301077989882 -0.24693858299302465 0.0014230636289467766 0.0052964991634786305 -3.800647690769573e-05 -1.079730083679891e-05 -0.026422703103401064 0.07371972328215784
0.199 0.09343451924326109 -0.2564915730770766 0.0019183970461141482 0.005106560899856956 -3.75064292324347e-05 4.744347697801782e-05 -0.019887053634053537 0.07578809864692697
0.2 0.07481665092860208 -0.26397050058535815 0.0024982504849823603 0.004731548922985347 1.7433799473997933e-05 -3.44069072021611e-05 -0.012296962779863639 0.07781163014941762
0.201 0.05438067228608586 -0.26964115439735437 0.0028431961048819994 0.0045517910683924336 -1.941374154107631e-05 -6.77909708178026e-05 -0.005263760760611457 0.07915179715259826
0.202 0.03376402290329568 -0.2752962232102667 0.003383128594502119 0.0043718335212038365 8.02830262984748e-05 -3.185216445117154e-05 0.0020669416263907974 0.07997512566051931
0.203 0.010021674401043257 -0.27618542388920464 0.0036493911337389905 0.004047784161690672 -2.3898908038059536e-05 -3.6982985762494486e-05 0.009185354224781625 0.07927308862763717
0.204 -0.013916631539263853 -0.2767346467398527 0.00417318912441426 0.003611495009423257 -9.041093225154149e-05 -6.044632369809263e-05 0.017342802894138747 0.07873624560191267
0.205 -0.03414969443767195 -0.276878407761661 0.004537623032782117 0.0031876623716166896 1.0848731300030032e-05 4.831159435736799e-05 0.023917665393408706 0.07684244477793163
0.206 -0.05506527384592103 -0.2759468147944179 0.004694311334272595 0.002966366335554429 -0.00013447036983285 1.0380131082152508e-05 0.031294408085515105 0.07546405765262569
0.207 -0.07382648758072127 -0.27181450443992045 0.005047645552051585 0.00223623224943382 -5.856400058228335e-05 -7.731052300936255e-05 0.03802936219735495 0.07237770154508572
0.208 -0.09850382566871557 -0.26307763873809265 0.0052998225096946945 0.0018612260768402205 6.8996482868082295e-06 -3.159083243046666e-05 0.044764724923512945 0.06852180795725263
0.209 -0.11733239787337815 -0.25342219081399664 0.005572817685447184 0.0014411273110746937 -1.3203958383378156e-06 -5.832496467361708e-05 0.051500078510528124 0.06437879534976136
0.21 -0.13904444540474895 -0.24638694256668225 0.005637506917568601 0.000889594014010842 1.5191954821082594e-05 -4.5883603536861565e-06 0.05775541921816794 0.05975854840257358
0.211 -0.15730073722362437 -0.2349314558560711 0.005629830524317249 0.00012456538319285284 -6.40069447446345e-05 -4.6530441882140806e-05 0.06314129777660678 0.05476708364795107
0.212 -0.17489593563716868 -0.22241529521606568 0.005814478847289779 -0.00019211351611537672 4.665137112094535e-06 -4.548934872346692e-05 0.06805107456375453 0.048334154205734246
0.213 -0.191990788261023 -0.20883413001995288 0.005795532766666952 -0.0007864234873557646 8.513831346141214e-05 -3.724488486992012e-06 0.07268123741252788 0.04253598893994746
0.214 -0.2097738728883946 -0.19290752261242888 0.005602368841031646 -0.0013236683727489728 -1.4614528621676098e-05 -9.126545659078622e-05 0.07659116782250189 0.03571028032956134
0.215 -0.223708303753246 -0.1770508997673407 0.005434102594032517 -0.001918481483302591 -4.0106297593843196e-05 -8.329403623159495e-05 0.07973571702375758 0.028643390815482932
0.216 -0.23839539627921655 -0.15821153426475112 0.005196074822721381 -0.002553838277810199 7.673644132290242e-06 -1.7016267124946133e-05 0.08240364824112793 0.02073510043222346
0.217 -0.2512240334449753 -0.1401527261262266 0.004949930183945492 -0.002921530376857785 4.510725018556159e-05 -5.762929346400536e-05 0.08436243309648284 0.01329390284588509
0.218 -0.26196881381016 -0.1205527853058444 0.004754978117845759 -0.0034319616229319164 6.109555112600337e-05 -3.3833153600667944e-05 0.08577105470215063 0.0050301282156540615
0.219 -0.2726256655562906 -0.10045023827827014 0.004347449898311858 -0.0038399625915683643 -6.093185040317456e-05 -1.801269306994871e-05 0.08593157107608333 -0.002752628700506909
0.22 -0.2799759411558616 -0.07900259573096906 0.004025165710889599 -0.004232672666341904 -3.795036469776604e-05 2.621229232445076e-05 0.08558352044860906 -0.011243912231858067
0.221 -0.28519458637003475 -0.057375828216821544 0.003677006736523337 -0.00469446791510967 1.801084268778322e-05 -1.9948299815577902e-05 0.08462987848292855 -0.018817237098549724
0.222 -0.29058421837872855 -0.035960826108619726 0.0031037734106426633 -0.004988618748072215 7.009477101323879e-05 -6.598813662432075e-05 0.08284809221575097 -0.026995494552767136
0.223 -0.2935910654721297 -0.012778354402461747 0.002737994210584469 -0.005218308408527006 -5.3151994902824465e-05 -5.916456064711519e-06 0.08032838135966164 -0.034802490720472715
0.224 -0.29499721925557576 0.010422350799499158 0.0021353077562891857 -0.005571748166262604 -3.707602327415479e-07 0.00011822150624349231 0.07683651784183795 -0.04215906870628641
0.225 -0.29334137061588017 0.03317894537858921 0.0016427904704394 -0.005651932912373362 2.783760140957521e-05 -5.267938487590167e-05 0.07302513170743437 -0.049285053469594886
0.226 -0.29107731500121947 0.05633260294042554 0.001129996352282552 -0.005931997348577046 0.00010287920510616139 3.4360518025490427e-05 0.06822695756558167 -0.056261497216856
0.227 -0.2876765873252522 0.07847178258355617 0.0004721932418438117 -0.005856821948586506 2.5151997979911594e-05 2.1658905879200776e-05 0.06297723028870043 -0.06271586417163001
0.228 -0.2810032532649138 0.10071749053764624 1.0809365989835224e-05 -0.006098022417336962 5.726553033938009e-05 1.909893530330805e-05 0.05732845175437883 -0.0683119295079436
0.229 -0.2751285565170466 0.1228999090299002 -0.0005621147646590429 -0.005943957875923742 -3.874340514259739e-05 -2.5220389976445236e-05 0.05081742447961469 -0.07356314437754091
0.23 -0.26496737519723895 0.14442740957421898 -0.0011643119430384532 -0.00590810518445946 7.021838233413405e-05 -3.527598809419615e-05 0.0437415511610126 -0.07826253150715576
0.231 -0.25487829172650256 0.16468118402932688 -0.001788951291371261 -0.005771088386194545 1.0169575601617106e-05 2.633689256184521e-05 0.036676738211519185 -0.08212101873787325
0.232 -0.24162707145669282 0.184831833523414 -0.0023262622942100265 -0.005619344497924216 -6.509369861777573e-05 -5.306548186176133e-05 0.028984141008967127 -0.08549941397474987
0.233 -0.2276367021968753 0.2045158209117684 -0.0028293799105877826 -0.0055660981033213595 -2.852361315614237e-05 -4.996921417675047e-05 0.021043688919009935 -0.08791728475075494
0.234 -0.21170378496727427 0.2209676370440104 -0.0033370227184151553 -0.005092833898594241 1.4019740164834863e-05 -2.6406371709641438e-05 0.012939696533504491 -0.08945826444846193
0.235 -0.1973055820955961 0.24081903683714753 -0.003854449705825686 -0.004803886517382343 5.908047377395316e-05 1.889959770494769e-05 0.004329352008870028 -0.09156488266456281
0.236 -0.17778347522031157 0.2544545580716978 -0.004148545319000486 -0.004305333054648467 -6.392388706138326e-06 -5.682853584547014e-05 -0.003349442685188735 -0.09093794053785353
0.237 -0.15705662648606433 0.26825773717029244 -0.0046281353299597455 -0.004090130334664415 1.2566908783277289e-05 -7.766424488589049e-05 -0.012119081872411643 -0.09029292109087655
0.238 -0.13845882756712163 0.2820745079952564 -0.004984198891053428 -0.003550070040152437 3.2300751074767293e-05 -2.659180170540462e-06 -0.020159981388035476 -0.08954798020756877
0.239 -0.11305420282934768 0.29373785882163134 -0.005441901420655968 -0.0031093185650817815 -2.7198832500683064e-05 -0.00011675741162758741 -0.028544163662902213 -0.0871418246232364
0.24 -0.09463303373777912 0.3047681750240723 -0.005691343580665468 -0.002749005608971819 8.792907524939511e-05 2.4894046550550835e-05 -0.03650681491983312 -0.08465346789578529
