!Created with skrf (http://scikit-rf.org).
# GHz S RI R 50.0 
!freq ReS11 ImS11 ReS21 ImS21 ReS12 ImS12 ReS22 ImS22
0.13 0.012090503606446978 0.02261417818044138 0.028895774149778407 -4.606842972303112 -0.00036913774970460483 -0.002002353317656983 0.00312335234827074 -0.006518483032756113
0.131 0.014140489596183203 0.021635321831970557 -0.4964650771591804 -4.550389570293423 -0.00041824302243426864 -0.0020046107194005586 0.002607155132720601 -0.006863102424207313
0.132 0.016183827225939806 0.020800448991267238 -0.9590764239734911 -4.4925172760355885 -0.0006583700201019044 -0.002030493013805388 0.0020627816102929846 -0.007321714141298197
0.133 0.018408117494844497 0.019491044506568512 -1.4398254646789932 -4.330640747902516 -0.0007376650053010945 -0.0019502434023292306 0.0012315233143063474 -0.007513398182477209
0.134 0.02002815821298174 0.01816614838857396 -1.8757642560244039 -4.153451281067822 -0.0008837976157362659 -0.001999700562250131 0.0005831110442257826 -0.007642228316247165
0.135 0.02193268762324362 0.01667800321820765 -2.312646581925335 -3.9414412563658887 -0.0011287234905500267 -0.001966445465298727 -0.00010932990100997936 -0.007860377092694134
0.136 0.02368294743178246 0.014931542338942009 -2.7365065162474083 -3.6479985081800095 -0.0013252222015977576 -0.0018097025985252002 -0.0010320652335692872 -0.007935448669162832
0.137 0.02529447786006687 0.012951781986218942 -3.1172044311830747 -3.3482802982995308 -0.0014966867951289658 -0.0016764356883334042 -0.0017165931891302358 -0.008051639842803904
0.138 0.026822101697035857 0.010569731846347463 -3.4509825994228867 -2.9702787168662743 -0.0017522003264639912 -0.001639769695172377 -0.0025078292070926053 -0.007808778445517522
0.139 0.0280095402062587 0.008328490220463653 -3.760922236294807 -2.5916114076889847 -0.0019086166564281873 -0.0014472427695824467 -0.0033627265264142593 -0.007530688730338831
0.14 0.02891639565207788 0.005771044593373918 -3.9785525730012945 -2.176361014083094 -0.0019752710212752153 -0.0012089662212967439 -0.00422354078933869 -0.007259273897995711
0.141 0.029753943665580786 0.003070875653945337 -4.1883755796463955 -1.7576748460281837 -0.0022254745763411656 -0.00117553222599187 -0.0049288802237358416 -0.006894115552126518
0.142 0.030137577490398543 0.000162530553685589 -4.366745527272323 -1.2714983385090397 -0.0020401887904653872 -0.0009892189774628986 -0.005778481217572848 -0.00650810254861364
0.143 0.03039727901583881 -0.002540687460379572 -4.473528803818968 -0.8051667715092831 -0.0023730735866663985 -0.0007775027981451304 -0.006527555515771185 -0.005879049234881035
0.144 0.030160385229977302 -0.00564175560046513 -4.521305067926369 -0.3248347838045732 -0.0024161584553697435 -0.0007278998049067783 -0.007206889279429638 -0.005188217889388056
0.145 0.02991109760038158 -0.008604462462337762 -4.526071274997811 0.15743599481548493 -0.002508164557127992 -0.0004397890809925361 -0.0076442020558750495 -0.004506992060113781
0.146 0.029133828849106917 -0.011565123259849082 -4.484165035842648 0.6308318190503728 -0.002480442089778237 -0.00026959912645642116 -0.008123537883096938 -0.003650063872412477
0.147 0.0279732852448643 -0.014181108013733647 -4.389578096878953 1.11927188919688 -0.002634271612391326 -7.976522627693025e-05 -0.00867205655620977 -0.002765521780449056
0.148 0.02647992712115758 -0.017155227946901403 -4.239971725232182 1.564865006624598 -0.002543985879040667 0.00015873069791294425 -0.008899078803832328 -0.0018459479416904274
0.149 0.02496104702092729 -0.01979663101002654 -4.042661004684965 2.0162847310531484 -0.0025311145980567123 0.0004530681951839001 -0.00918573082658359 -0.0008491026841411546
0.15 0.022779717031861928 -0.022181939069304286 -3.797870765050687 2.431905352682326 -0.0025896910505413748 0.0006206095225424433 -0.009160463990516742 9.867991331906905e-05
0.151 0.02042051723379466 -0.024284062754909175 -3.518270575348497 2.8166189529608827 -0.0024812014157840866 0.0011323833813828134 -0.00920586650724135 0.0013181300028945896
0.152 0.017969940381787758 -0.02659261942060057 -3.2018979144137814 3.1844817224976896 -0.0024103808088488062 0.001249756335265392 -0.008939967459144164 0.002168225946766458
0.153 0.015185035764686515 -0.028063096838156068 -2.8356936951762015 3.4978875107279808 -0.0023732994610877497 0.0013975443627679879 -0.00869913533933911 0.0031139384789017595
0.154 0.012512407478854928 -0.0295782525207111 -2.4526853624368936 3.7734240793417833 -0.002421926962862995 0.0016747752596060774 -0.008310548353865358 0.004023908755713138
0.155 0.00944808148148291 -0.030369297444325254 -2.037227082423442 4.003680100831824 -0.002242200054489276 0.001912377545495229 -0.007784768123350522 0.00507966810907496
0.156 0.006333521782228998 -0.03141518943242819 -1.5863877032077935 4.213188340770961 -0.002045160578440547 0.00197606674301274 -0.007254522196661088 0.005799635438608982
0.157 0.0032093866976786603 -0.03154875654739678 -1.1557302973113897 4.348803315149603 -0.001961158407819653 0.002203332539282159 -0.006505501907390727 0.006589423599844224
0.158 -0.0001470772256863763 -0.031724588881683675 -0.6670121934686453 4.423874967205468 -0.0017104497701197847 0.0024212810141969587 -0.005850344754383204 0.007344607704094234
0.159 -0.0032517984002810884 -0.031623027973163506 -0.2005904373359837 4.488928686931928 -0.001497887174909349 0.002552847613946256 -0.004919710670744918 0.007980530061631044
0.16 -0.006524943262830764 -0.030625569116849667 0.25984895222710797 4.489556761819069 -0.0012020511777450494 0.0027920747204618008 -0.003929604396390047 0.008388211611903848
0.161 -0.009479235614475133 -0.030035730890435243 0.7589479812506532 4.420428321725596 -0.0010209542349974017 0.002893111484840735 -0.003044486474850522 0.008708531797079226
0.162 -0.012396621970535822 -0.028729623442517463 1.253379387940051 4.313282042900323 -0.0008705390122061004 0.0028953453581255094 -0.001951028028414041 0.009102549323523532
0.163 -0.015005939484201957 -0.027378768405434867 1.6731087140123526 4.164778002510757 -0.0006194697584271989 0.0030911486400369355 -0.0009512091300113009 0.009225574835496509
0.164 -0.01773424297859983 -0.025541490427191702 2.1520339079399755 3.939820524613892 -0.00029720919705630996 0.003203342966682116 2.5054229063906143e-05 0.009187187364673069
0.165 -0.020223027897192925 -0.023599821024200614 2.5299007763137955 3.706144279499427 2.1602256287445246e-05 0.0031685092772053758 0.001188078392588578 0.009139890776834582
0.166 -0.02229345845375552 -0.021528542580419568 2.9102031356024276 3.3963762512704414 0.0002549000198495324 0.0032331754772894046 0.00207167224051381 0.008978983917965543
0.167 -0.024099370164525482 -0.019142693230398296 3.241829572329639 3.089218334035604 0.00047233978266666553 0.0032405554533351207 0.002992371026493512 0.008488799904212257
0.168 -0.025812531885159244 -0.016923437474643716 3.572233657527439 2.7100529150942383 0.0009220433242765939 0.003213066792917355 0.0038678189028212907 0.008215462419705005
0.169 -0.0271933319494779 -0.014245615481026989 3.833794329400149 2.2946028236479736 0.0010806641731037248 0.0032644906847422877 0.004775647214745637 0.007754527630469149
0.17 -0.028253492981901666 -0.0119429153516392 4.090249723654993 1.8802236510965509 0.0012736231330724883 0.0031071034126445136 0.00566846297867722 0.007151720209339288
0.171 -0.029131288245760778 -0.009032441670340861 4.23941157022871 1.4361859036940037 0.0017869924459129173 0.0030917532401048063 0.006320781151915765 0.006627152663493872
0.172 -0.02983706642739196 -0.00643141529251633 4.375879104923486 0.9726133181965693 0.001915668522955374 0.002934735577142101 0.007084302670663838 0.005849589306816992
0.173 -0.030490795692169684 -0.003680511517670001 4.45240748647248 0.4940699787749426 0.0021762499700201904 0.002705122521566415 0.007694722078898257 0.005146762338021026
0.174 -0.03062609288695301 -0.0009733321500984781 4.479718411092768 0.012669918679366954 0.002325636483356491 0.0025983364026625506 0.008198013413355439 0.004217305359576698
0.175 -0.03068097006002556 0.0016708527184448932 4.4550808381343385 -0.45993886970938147 0.002665123350669598 0.0024463172074310736 0.008459546972341003 0.0033456360790166772
0.176 -0.030525023155177352 0.004069518673998793 4.377388714637885 -0.9265054190583756 0.002945671239606798 0.0021435324663518925 0.008693389496760724 0.0025525509435969365
0.177 -0.03022830679448066 0.006835634850181553 4.254770027067738 -1.3947358434411086 0.0032629174308064584 0.0018920118134512452 0.009139225808404828 0.0016944998784863285
0.178 -0.02972526035667374 0.009318893021458422 4.081289607368447 -1.8415838826943751 0.003157331798275529 0.0016473665982902979 0.009201867222406986 0.0008081804321850343
0.179 -0.028984620440536072 0.011964171798935403 3.846790591104347 -2.2660211429336825 0.003469339781179854 0.0012959199616665424 0.009303764346834307 -7.247542880507481e-05
0.18 -0.028416777890638924 0.014415679857158345 3.5907522501101936 -2.669539759754896 0.003502352113914034 0.0009629040422695227 0.009324316890506617 -0.0010236717493364268
0.181 -0.027311479791069567 0.016900856514690085 3.2793583660711945 -3.0299568344768426 0.003797054779268194 0.0006595848585375021 0.00929239511951021 -0.002102154877574739
0.182 -0.026066037028228437 0.01915069117683792 2.9339309924619337 -3.3648950478178907 0.003869065602557956 0.00041695914962094725 0.009116844703001151 -0.002958635145858061
0.183 -0.024909362262190052 0.021623580541444695 2.5561212857853506 -3.652109106618192 0.0038444831319615516 -5.36326260588342e-05 0.00891325361578355 -0.003782555261580887
0.184 -0.023315852037501278 0.0238691895307514 2.1486149010134503 -3.899369143422645 0.003938949587703352 -0.0003092758798924155 0.00857247505073455 -0.004727190800745726
0.185 -0.021762756777148815 0.02613786015428461 1.7242377195587957 -4.110268628000113 0.004040767214431022 -0.0005734070576707776 0.008162309912144092 -0.0056512750498726545
0.186 -0.01977052179757065 0.028424544852378112 1.2755108522269663 -4.273932779628533 0.004000243958635797 -0.0009250373294694735 0.0077378039087154914 -0.006712952234162291
0.187 -0.017511687728012773 0.030321583982303956 0.7892199366947327 -4.372955990585592 0.003943942521727366 -0.0013064077583761632 0.006987425359398198 -0.007344133782298507
0.188 -0.015281816328669241 0.032259457890744685 0.32599374851014745 -4.419389423626686 0.003920665766101447 -0.001686905451966931 0.00644873303214308 -0.008073784516600074
0.189 -0.01287437563931719 0.0341428336714145 -0.11525653799830697 -4.424524459069678 0.003694088241270667 -0.002020343393824824 0.005755247868399229 -0.008855033520844722
0.19 -0.010231441129254318 0.035589681629182905 -0.5942093627491459 -4.395318598096798 0.003609027072743893 -0.002277298506529468 0.0049671671690430085 -0.009431666915618713
0.191 -0.007261803489328818 0.037142381794402705 -1.0859073379510435 -4.301574765695802 0.0033751999961328097 -0.0026249724462794185 0.004021022970708901 -0.010181489275268147
0.192 -0.0041471659472940145 0.03835063711046345 -1.4998401237759658 -4.163116228788494 0.0031407869496334275 -0.0029076847469008274 0.0030981528714587687 -0.01052503084144853
0.193 -0.0007887502387404748 0.039479960509368105 -1.9762795686335572 -3.9583954740796776 0.0029104249017397246 -0.0032581717932862147 0.0021322485663472965 -0.010945561434211404
0.194 0.0023252774141216187 0.04008038714941426 -2.359348095297742 -3.7303175568268627 0.002597107163841031 -0.003321344232972639 0.0009912305774739624 -0.011356569440870892
0.195 0.006236541380157431 0.04048274572840705 -2.7434806759731667 -3.4713181665650605 0.00244769830154757 -0.0037261538184856407 -0.00016901403198122557 -0.011583525790996313
0.196 0.009993918446186889 0.04050669251825406 -3.077826746223913 -3.119232009858954 0.0021033139642655935 -0.00390838423285527 -0.0013105225410659786 -0.01171529581700138
0.197 0.013897102590726308 0.039908794802641485 -3.413128089268665 -2.777794626438865 0.0017555516330482789 -0.004095391934927819 -0.002657484509497296 -0.011887379507510414
0.198 0.017578952576149023 0.03938176894317964 -3.6922183364346353 -2.414969689744082 0.0013896983900972511 -0.004369099574399055 -0.0037343326541892908 -0.01162781590387179
0.199 0.021095487842873413 0.03811546654391053 -3.8993202677339656 -2.00962753793848 0.0010137495749077002 -0.004407479902079378 -0.0049843101882592 -0.011384508560043787
0.2 0.0249432471870383 0.036728183635372905 -4.094684541175479 -1.5724427599278157 0.0005826129728801288 -0.0046199621714449425 -0.006197046561485947 -0.010988174656378873
0.201 0.028787408013686903 0.0348129766639415 -4.25268957917406 -1.1295664775222503 0.00027179103896656697 -0.004608730143455706 -0.007318988608158054 -0.010291980296364833
0.202 0.031908038918286294 0.032503084072744964 -4.344673833866615 -0.6887360207370415 -0.000186700401549887 -0.004638969530043852 -0.008688474335344209 -0.009628385971573445
0.203 0.035635467865296505 0.029621269350254935 -4.378967456635454 -0.2055494057939674 -0.0005008682904251502 -0.004646563837571475 -0.00960301362284323 -0.008809181041931857
0.204 0.03827407858696143 0.0267803590957675 -4.3677248292431825 0.25219995244371857 -0.000953752983734387 -0.004700968243221059 -0.01061053032353352 -0.007941301776802566
0.205 0.04097547871471856 0.023422195206971506 -4.327602291861276 0.7102475080008842 -0.0015110458232267668 -0.004637607486719426 -0.011494053432867283 -0.006844610723453827
0.206 0.043542164744945135 0.019822697037532776 -4.212637098087619 1.1862264574673922 -0.001793307449460425 -0.00461148245602272 -0.012293904144516483 -0.00563102219831886
0.207 0.0453164063416852 0.015872007742426794 -4.0714268773414295 1.6185457878568594 -0.0022374650271112665 -0.004371361131872547 -0.012901040996431013 -0.004398940476921579
0.208 0.04709323661202352 0.011476437104340315 -3.8711411188696223 2.0346844337988124 -0.002502506442058409 -0.004375015732426996 -0.013446912009722842 -0.00310446425190932
0.209 0.048411905406953226 0.007265157321383071 -3.631190709672169 2.43416997885078 -0.0028947172314659165 -0.0040541499305472945 -0.013795773967868592 -0.0017512211506340914
0.21 0.04884805940747048 0.0027836082717499523 -3.3554954283089518 2.804696906609352 -0.003294287181262042 -0.0038095320230737547 -0.014000328110742607 -0.00020618675458796866
0.211 0.0491456006959897 -0.0017618063881025211 -3.0350839483278373 3.152369950077564 -0.003633025177923017 -0.0035517094110180257 -0.013947087015134764 0.0012317106010092988
0.212 0.04883119703775996 -0.006288034670245247 -2.681097768027431 3.4408264956085404 -0.004032417961730845 -0.0032626574131277095 -0.013742130286010729 0.0027140056272731477
0.213 0.048157250264948284 -0.01083994094318351 -2.284736110029031 3.713558621836859 -0.004150511247834002 -0.002967367264613377 -0.013516041223882325 0.004146379214757884
0.214 0.04691693109882017 -0.015158524654147684 -1.898784000437787 3.9468965999775554 -0.004525256749595017 -0.002577400410261637 -0.013118883983660403 0.005627843359148317
0.215 0.04518364333104857 -0.01948453652577195 -1.4526005365898862 4.12344707231583 -0.00470222304169993 -0.002185661380239452 -0.012520872792411101 0.006694741139039681
0.216 0.04317703902264282 -0.023504239219676655 -1.0156611157452509 4.250955735058943 -0.005013846827776462 -0.001720290504174957 -0.011746377886999936 0.008084858473226493
0.217 0.040757305207472776 -0.027227132145186798 -0.5713727744101836 4.330880208663431 -0.005224776481628999 -0.0012543578541804655 -0.01073397350858466 0.009325762801412495
0.218 0.03797464042130629 -0.03060578155341769 -0.09104114758273875 4.363308121530509 -0.005312628138626912 -0.0008823282796545004 -0.009651865647927055 0.01043847361829768
0.219 0.03479533276311524 -0.034128056097784173 0.370386189075398 4.342631806974274 -0.0054805548733458 -0.0004486275887447418 -0.008578461727896796 0.011426087248889919
0.22 0.03156180604002734 -0.036601516018693936 0.8457403398670791 4.270078492599017 -0.005500352088130923 4.7250795073849555e-05 -0.007262537768104595 0.01216754939118924
0.221 0.02766590480024069 -0.038710754727638595 1.281882644552145 4.169454292854093 -0.005507222314227265 0.0004757666650372997 -0.006062554429424295 0.012672589863674514
0.222 0.023837601835277597 -0.04112589827943574 1.7410792980108525 4.006448939792922 -0.005461369193311367 0.000956077746977567 -0.004604872603572056 0.01315175150070585
0.223 0.01981619716942308 -0.04267815143313904 2.146208168100515 3.8149241671851892 -0.005443718138906353 0.001359636857530332 -0.0033319384665926664 0.013512715974833191
0.224 0.01612333856094521 -0.04392542326108829 2.5552910425445665 3.5385726148826433 -0.005399445284247817 0.0019070739412521136 -0.0017487334169741283 0.013701395800401153
0.225 0.012079539207058605 -0.044594645010686745 2.9074195858601364 3.2429954338517706 -0.00524816425655879 0.002396048735366263 -0.0003014778880531074 0.013773480152610202
0.226 0.007677461070275248 -0.04529046681728829 3.252483363695569 2.92754553242693 -0.005020729230463083 0.0027946813794334393 0.0010341981347704778 0.01365230975354134
0.227 0.0034670694864680426 -0.045155178629459405 3.527871807275548 2.5725315279263326 -0.004739529033714642 0.003339886925502831 0.002486290489739264 0.01340462224813992
0.228 -0.0001522212077333003 -0.0446545867418126 3.782381873088754 2.1546309246747546 -0.004675109122284292 0.003753219966207622 0.003720845143832911 0.012762402513488117
0.229 -0.0036174335448633794 -0.043970329259011204 3.997167691018826 1.7519693786828903 -0.004273298324868612 0.004069629221277518 0.004898985118977251 0.012257545325975212
0.23 -0.007560528437043483 -0.04329199166331717 4.157578018846617 1.3101781811489872 -0.003854891337425678 0.0045548408222780955 0.006117643855953533 0.011694399005326449
0.231 -0.011410834354461151 -0.041955884608560604 4.272499175425924 0.8647384836701913 -0.003507968224823765 0.004988875323627563 0.00725513182803423 0.010838865317162265
0.232 -0.014535683161887875 -0.04030370245754809 4.337289053604734 0.4028465260826528 -0.0030362032994652854 0.005201373391614073 0.00814589093132609 0.010062142565668763
0.233 -0.018117134978936147 -0.03865947354161716 4.35296385777385 -0.05175200080305836 -0.002604222225233071 0.005481007023687191 0.009095701197289906 0.009032052370246074
0.234 -0.02091043844726458 -0.03659146972546184 4.323011505673849 -0.5123906112372054 -0.0021531901623221853 0.005875923085103121 0.009775427370352457 0.008067199196894538
0.235 -0.023783672508251544 -0.034459304045717794 4.247397535621526 -0.9860425563799857 -0.001776059788123202 0.006051895450972848 0.010619799854002167 0.006966787609583134
0.236 -0.026411615161709322 -0.03201316131466634 4.112147136844414 -1.422749939229037 -0.0011570092233249556 0.006264111336837743 0.011031310350797166 0.005821389423316013
0.237 -0.028833075204703636 -0.029630295163255587 3.9316199693439895 -1.8421630005011318 -0.000578673704338009 0.006307098649960243 0.011557982160259703 0.004833466210908331
0.238 -0.031052784845389224 -0.026830656303302818 3.7065053240125834 -2.26822222631553 -0.00010700917150186028 0.006458588133252671 0.011873578382470926 0.003413017967159409
0.239 -0.03294694792428102 -0.023909914338319967 3.4350971891836894 -2.6310089500375424 0.0003803319959217531 0.0063317137326741125 0.012074419708935958 0.0023424378988624183
0.24 -0.034816218720484265 -0.021088047046222205 3.1396955930054617 -2.9861795469208 0.0009608140879310071 0.0063695336452806945 0.012201228607976644 0.0012879729008150795
0.241 -0.03634978008480038 -0.017981217587376173 2.800375018157923 -3.298804837791363 0.001434377660385489 0.006395732074950699 0.012274131224793634 -5.7367837886416386e-05
0.242 -0.03763819415299634 -0.014737223835578048 2.4388895653988567 -3.591191762350492 0.0021284423895187913 0.0062603718601188015 0.012175656884876651 -0.0011406064015836068
0.243 -0.03881179165204062 -0.011398783227165006 2.058077324315548 -3.829955030275836 0.002588926990219308 0.006002182431417175 0.01190466244748788 -0.0025358224832538706
