!Created with skrf (http://scikit-rf.org).
# GHz S RI R 50.0 
!freq ReS11 ImS11 ReS21 ImS21 ReS12 ImS12 ReS22 ImS22
0.13 0.06353872869304973 -0.17233780095965412 2.6273175207826577e-05 5.4995988174048866e-05 0.00010185582945444405 6.711072745220805e-06 -0.05253499567051881 0.00826199164355188
0.131 0.05217009532071782 -0.17754475650696133 6.482362447338835e-05 -0.00010201343034636336 -2.6778910998164238e-05 -5.148465179021938e-05 -0.05194732136183855 0.012591375106885646
0.132 0.03985474360060589 -0.18141129824312055 0.0001226701482707818 0.00014116444958179843 0.00011469799485563189 4.426186645758589e-05 -0.051348460361780444 0.016924420370330092
0.133 0.02699173861186161 -0.1873277832222772 -4.895511424810925e-05 4.175416891892013e-06 2.964047886091483e-06 0.00011031818771329952 -0.05002194541144046 0.02129748296608762
0.134 0.013615881232611694 -0.18825947810184543 8.508622711944938e-05 -3.213682260298097e-05 -3.0985206242608714e-05 -6.664955888552886e-05 -0.04838872389020965 0.02550910716949953
0.135 -0.0006222548004315339 -0.19014638173939882 -0.00011081998953903548 -4.29390486988783e-05 1.0777220385642912e-05 -1.942231687946089e-05 -0.04637807675204299 0.02989400133587512
0.136 -0.014229102342649212 -0.19218484475725625 -6.292657180789513e-05 3.603757079656247e-07 -4.750349155664835e-05 -6.365109006750915e-05 -0.04415756796360793 0.033768643126065
0.137 -0.028173233368942435 -0.19182026798143037 -1.692494993712709e-05 0.00010795526899475565 4.08436488087248e-05 -3.871157326692451e-05 -0.04137444467356481 0.037726297910200254
0.138 -0.041849372440137936 -0.19154951361864486 -4.8109122493634054e-05 -2.2890534070538204e-05 -2.012047831365182e-05 -0.00010725398090053972 -0.03832810918041571 0.04147445886168125
0.139 -0.055302906979776106 -0.18773303014058915 -6.8204200926903534e-06 -5.4831460997043194e-06 1.0977115966898165e-05 -7.157910394119472e-05 -0.03506733288750704 0.04477078256988043
0.14 -0.06929330430905759 -0.18387969818624997 -0.000147158171704777 1.3238695731737132e-05 -4.1750875845830396e-05 4.8374188984162596e-05 -0.03140191557418997 0.04762633081048516
0.141 -0.08315120275020871 -0.18153949320560572 -4.278039039867724e-05 4.2640620471747656e-05 0.00012105134537159114 2.0159494527085072e-05 -0.027495951195095174 0.05059187905358798
0.142 -0.09697374287067358 -0.1758205904993035 -6.944426086100816e-05 -2.9053614043222107e-05 4.5918316229384566e-05 -4.3619499879983364e-05 -0.023248263459177878 0.053189447974086486
0.143 -0.10942414965749561 -0.17001697095423318 -6.316057944350746e-05 2.5378386208732024e-05 7.29086333586295e-05 2.9364527289338568e-05 -0.018767881411690408 0.054857987185163624
0.144 -0.1226486191916969 -0.16361731778433333 0.00010685609935373071 -6.681669385526684e-05 -0.0001193170232931991 -0.00011291882249079501 -0.014441503868175946 0.05747081990284546
0.145 -0.13483490374891124 -0.15400372088452083 -0.00011863480842751424 -5.082468154448278e-06 -7.613420587333296e-05 8.370249349301827e-05 -0.00937709709365466 0.058481897208913135
0.146 -0.14657589452015857 -0.14443312501998315 3.214790683145856e-05 8.50103537951778e-05 -3.822295259831283e-05 -5.308739704716013e-05 -0.004777492269845667 0.05940904403887588
0.147 -0.1568611354218672 -0.13677090672573386 7.671137656830845e-05 5.6585710838658106e-06 -3.4577661126736836e-05 -2.8251134113037283e-05 0.0004481226631292818 0.06030106930379093
0.148 -0.16769467547464928 -0.1245836351508654 -5.942338217175959e-05 -0.00012716213637349488 4.643134815781666e-05 -2.1846227485316148e-05 0.005840382184085533 0.06022429148266917
0.149 -0.1782777690934094 -0.11268891818354676 1.5579191340833468e-05 -6.239410681231388e-05 -4.2363087035003486e-05 6.956601294574995e-05 0.010490768295081386 0.06011907197116298
0.15 -0.18665524653341542 -0.10081888599399712 1.5071026444501979e-05 -8.009634231931382e-05 2.3136296923702917e-05 5.732059363880204e-05 0.015886357002304327 0.05920795178144073
0.151 -0.19443798673545604 -0.08825853105615562 7.152450069379518e-05 -6.839976054005175e-05 -4.3361402731110505e-05 -9.079753002302531e-05 0.02085008948551211 0.05861201409510732
0.152 -0.20135564990948085 -0.07459610196502954 6.26534459813e-06 2.4691019532710608e-05 -1.4032879676469162e-05 -3.6978265122614716e-05 0.025777772296659406 0.05618811866794711
0.153 -0.20748086719293185 -0.06007633746369269 4.7858154239301915e-05 5.0297881949728875e-05 2.8526038824457295e-05 7.39359624599806e-05 0.030741723407323077 0.05420208815483177
0.154 -0.2125382548044727 -0.045206691294865334 1.575403163888305e-05 -0.00012723049662969677 0.0001396437287474385 6.0554745453408396e-05 0.03554200214961922 0.05217365609378041
0.155 -0.2167341659281564 -0.02979728047351949 -3.410078533575471e-05 -4.103587028916483e-05 -2.877919611679817e-05 0.00010575973507715903 0.040026317138572465 0.04942838522099333
0.156 -0.21964861666177818 -0.013975482745791619 2.510310107020373e-05 7.963579594420835e-05 -4.206651011845479e-05 -4.932375302839556e-06 0.04449159149132408 0.046009576264225256
0.157 -0.22176810450758744 0.0011793295572657902 -8.978571818383056e-05 -5.443307175345677e-05 -3.0161553327471283e-05 -0.0001597568486873164 0.048894427829391005 0.04268797464370837
0.158 -0.22254318491153233 0.01678193281083886 3.587361806376446e-05 -9.018579367556354e-05 -3.3903328635443434e-05 6.77103007899213e-05 0.05226613433184381 0.03844104258820731
0.159 -0.2217905452434025 0.03302315927442506 -6.426958366031182e-05 4.194928170399153e-05 -3.303174936835578e-05 -5.779357484022708e-05 0.05540973339025782 0.03389150650449769
0.16 -0.21927692508968175 0.04917747008485907 3.593284047139973e-05 -3.026412348009127e-05 5.804134596961034e-06 -0.0001834159881797162 0.05881897638892939 0.02916975871039686
0.161 -0.2169392521515201 0.06535582919521268 -2.950652558972461e-05 4.276964840216266e-05 -7.115633159251767e-05 4.128158994747837e-06 0.06131465282174381 0.02473626567913963
0.162 -0.2126694454229172 0.08180255123554879 6.586741163348351e-06 2.1095910136202766e-05 -7.907598667940555e-06 -4.022696995370008e-05 0.06373098832494407 0.019326653098918945
0.163 -0.20781721281007745 0.09728650483590465 1.346552169579212e-05 3.169273934387688e-05 -1.6051305224887986e-05 -0.00013459467973561218 0.06542698838130294 0.013750829429263764
0.164 -0.20071362926869526 0.11222534422198926 -0.0001678663860929623 -1.3556892242943803e-05 2.3339587028179313e-05 -6.931465978292872e-05 0.06702535167438226 0.008284475773844478
0.165 -0.19371119309113427 0.1279109831083716 -2.1608062835090775e-05 2.204858139047317e-05 -6.029970790437296e-05 9.118394107926818e-05 0.06794273866494746 0.0025171193484911565
0.166 -0.18565075519222127 0.1407331457821712 -7.932957591057743e-06 4.358130582343149e-05 -1.0441590284507675e-05 9.422294606278538e-06 0.06828283435290271 -0.0029823132240861428
0.167 -0.17607289505457122 0.15436931717049682 -2.6707135610957383e-05 -4.617084055813391e-05 -0.00012283896945052678 -3.175044834578347e-05 0.06795270850041962 -0.009230853351772336
0.168 -0.16410772490205577 0.1674076821876829 4.2858432259514324e-05 -2.8417829336446427e-05 5.737090644699285e-05 -0.00010480197802199538 0.06771447456381029 -0.015136099521198675
0.169 -0.15232321973987342 0.18047968684171964 4.648135607240644e-07 -2.103903097873767e-05 0.000129427261361161 0.000121777961157444 0.06641778111394006 -0.020763607338913272
0.17 -0.1420457199698607 0.1904388588050477 -2.4453464332402136e-05 -0.00011119904500421114 -6.459987615246256e-05 -2.038763261493024e-05 0.06481280319678188 -0.026504012391734444
0.171 -0.1264042863941848 0.2017378283423047 0.0001149898822428028 -0.0001439668111844715 -1.5953363466001907e-06 -3.3789858840222347e-05 0.06268786073680796 -0.032121615759898275
0.172 -0.11480798473576735 0.21072995882973808 -4.1695486120107973e-05 -1.1612177264724653e-05 4.1491762956273605e-05 1.5192329765939432e-05 0.06006887513984261 -0.03751242546555229
0.173 -0.09926162213338555 0.2198321318926573 8.511670192373783e-05 -5.398902930528891e-05 -2.4116765208391264e-06 -2.385249591193486e-05 0.05669950892544406 -0.042599007940396484
0.174 -0.08311376679689554 0.22724384859973204 2.189365626844091e-05 -6.0848412902970425e-05 2.574794595609132e-05 8.12369836502169e-05 0.05339973769307265 -0.047315537684512264
0.175 -0.06751054668687526 0.23345365920649142 -5.806409410211711e-05 0.00013878542240861852 0.0001554009956666624 -1.608496397595927e-05 0.04942543652401968 -0.05232235437779904
0.176 -0.05053492965607202 0.23830732375798402 -3.359056042913349e-06 8.905306572325436e-05 4.426538482694863e-06 0.0001001311403337585 0.04506506518578722 -0.05646861168311465
0.177 -0.03347208730992027 0.2404256336962544 6.128999609353783e-05 4.898807924146623e-05 8.284489380051951e-05 -1.3340720887114118e-05 0.04029492216010495 -0.0604705816976751
0.178 -0.017893629313114976 0.24462384047378993 0.00016141197200622088 -1.0013910251846068e-05 4.848980104247758e-05 -6.195956349751775e-05 0.03514644146105022 -0.06372310595324897
0.179 -0.0007431248593337342 0.24772532582157794 -2.6526545114020447e-05 -0.0001189624459968034 4.9192331724690325e-05 -0.00010309768791741976 0.029740831760675143 -0.06637231286582629
0.18 0.015255797501210895 0.2483187373623731 5.049114310667208e-05 -0.00014426835280384232 3.189494320643062e-05 -3.815332373961797e-05 0.024085968878087314 -0.06936641806977728
0.181 0.033666830910236395 0.2472530375019985 4.0964245337832904e-05 2.9299647850881216e-05 2.054121666520737e-05 3.3589574430257775e-05 0.018285597165802393 -0.07152939455350633
0.182 0.050777693893556256 0.24429024457892584 1.976360356139267e-05 4.4324702222895614e-05 1.7114096879012153e-05 2.9554008008618747e-05 0.012750619070640852 -0.07301072922412995
0.183 0.06845978220809229 0.24382141527898807 7.089258156481094e-05 -3.837271118522121e-05 2.5014773093035998e-05 4.860988370766983e-05 0.006310896019287889 -0.07435194355916382
0.184 0.08488527945892543 0.23851934214785847 -8.475787942647468e-05 4.560164378359172e-05 -4.089000288407671e-05 1.7633817071713282e-05 0.00030654875219490783 -0.07493910079580028
0.185 0.10187245042638023 0.2332895370592984 7.812715869625616e-05 -4.6938095976781166e-05 0.0001389776749439284 6.710596792135918e-06 -0.0061345115516806175 -0.07494083739751582
0.186 0.11867742832845857 0.2272391080176763 9.112453757506899e-05 -1.1849462377086398e-05 -2.448467156580584e-05 -6.980737767890564e-05 -0.01216477272045078 -0.07472661721630715
0.187 0.13399024520947211 0.2197942073795429 4.700894437257888e-05 8.176266893046422e-05 -5.13851642046864e-05 5.21668311284088e-06 -0.018192275975599786 -0.07373573569954467
0.188 0.14992169813416942 0.2124721942206284 -9.162517822061112e-06 8.01753862469967e-05 4.243154205755948e-05 4.727386560731402e-05 -0.024680258843381476 -0.07230060574824577
0.189 0.16386183210561642 0.20211291434987416 4.673673168368959e-05 7.989652733264352e-05 8.853308763484812e-05 -2.749356338442077e-05 -0.0305149271839499 -0.07017952786346425
0.19 0.17965188737302643 0.19019461010337724 2.8329599535611822e-05 -1.8737068180648827e-05 2.4379951355839862e-05 -8.932862390836789e-05 -0.03632518192334488 -0.06684831033225337
0.191 0.19336042210419901 0.17696403940111974 1.0568021554946629e-06 -5.5953194353519685e-05 6.257807948374243e-05 -6.653609043291856e-05 -0.04260645324635518 -0.06424753603548644
0.192 0.20628376637634782 0.16539842785090642 7.733546272791319e-05 -1.7727307273718068e-05 0.0001374301987072675 2.482119210260575e-05 -0.046949159729760735 -0.06115079982629832
0.193 0.2182337402907591 0.1514823046378916 7.093437365363273e-05 -4.3510226931345055e-05 -2.4291610199132782e-06 2.854991446766136e-05 -0.05257946554479485 -0.05738041773071347
0.194 0.22954028486084066 0.13599065609069705 6.413481059481143e-06 4.3729032566288785e-05 -4.656726572208662e-06 -5.259135401721494e-06 -0.056997228356327964 -0.052730950611598194
0.195 0.2403244383772425 0.12233277105223545 8.978192197831725e-05 4.120833507785726e-05 -6.326058319352167e-06 -9.28312784108619e-05 -0.06167807708673498 -0.048025879322836106
0.196 0.24894863507587597 0.10574754920145096 1.2850757080078178e-05 7.021777062466434e-05 2.175654968494122e-05 -7.320897147865426e-06 -0.06575319637066178 -0.043289384085443146
0.197 0.258440162756351 0.08733088847994688 -0.00011901925991424257 9.737242604289038e-08 -6.238217338550226e-05 4.7470003325249575e-06 -0.06912248815187697 -0.03819210317179599
0.198 0.2654327826065089 0.070170539032562 9.073188674441441e-05 6.283987725630939e-06 7.422837929452296e-05 -4.3337893624773126e-05 -0.07202990375753773 -0.03263632479799312
0.199 0.27018891875919976 0.051752755734687725 -5.48445479803329e-05 -8.299624223220088e-05 -3.369732904651525e-05 5.7287063564162576e-05 -0.07518550798380368 -0.025945796520459783
0.2 0.27481992581296827 0.03274558877862086 -4.877955306986612e-06 -8.580017175394607e-05 6.653034844951303e-07 1.1242349663929408e-05 -0.07721681758266975 -0.020138211380939314
0.201 0.2774042794917666 0.01334778602695084 -9.708913457935614e-05 -2.477026911828372e-05 2.279285101346574e-05 -6.997058997880338e-05 -0.07869249849229988 -0.013676550992725961
0.202 0.2790899761241476 -0.005506201306155064 -6.157732736930172e-05 -4.87345397246783e-05 -4.06217988977524e-05 3.883387293194153e-05 -0.0803698181086691 -0.007163978444730045
0.203 0.27977550255519706 -0.025938598031845356 1.413131165008727e-05 -6.629167487767915e-06 8.832586406952798e-05 -0.00013318919323935808 -0.08077441166970703 -0.0005396892206107833
0.204 0.27870878339176813 -0.04575885129713865 2.6220948379525157e-06 -0.00011868486461310558 -1.9208247723647574e-05 1.0223287420618064e-05 -0.08110435944144806 0.005993736145126067
0.205 0.27640988288847945 -0.06593177675590534 -3.521749335027258e-05 4.1623595800865286e-05 -3.341381043214811e-05 -2.6817418089467514e-05 -0.08043869902567002 0.012852695366792575
0.206 0.27206230972100615 -0.08465048587084746 -1.9882242253812717e-05 -0.00012575348262228476 -5.7736878609293275e-05 9.556660597580005e-06 -0.07935028013080568 0.019176238972894277
0.207 0.26673862788011793 -0.10464072950460877 6.39774678442608e-05 -5.80851841913418e-05 7.613281706923137e-05 -8.372389855024706e-05 -0.07806867707491207 0.025814022800492192
0.208 0.25987986631857196 -0.1237552225583629 2.6781050757069978e-05 5.982163807947086e-05 -1.6165108396687827e-05 -4.9134842401879767e-05 -0.07604126209414629 0.032118643002406
0.209 0.2514339941154484 -0.1432291813500142 6.220400548280991e-06 6.306862476147991e-05 -3.552077808691735e-05 1.3219983750227597e-05 -0.07346133898125315 0.038509307026451646
0.21 0.24224838937712528 -0.16269068258541877 -7.711473987800196e-05 8.711563160846534e-06 -5.9416355131174774e-05 -6.717642754185908e-05 -0.07030100437823146 0.044544484076164924
0.211 0.23091393766675428 -0.17808864116381407 -5.47945508777367e-05 -5.524468157107914e-05 2.694740453430933e-05 -0.00011675834932910512 -0.06694428872045446 0.05034603170537308
0.212 0.21755857299377418 -0.19536752227564047 -9.772916264395988e-05 -9.43714735536554e-06 -9.518616186153123e-06 -5.270019154418746e-05 -0.0625454910796121 0.05605423761174563
0.213 0.20522303722542898 -0.21153120993406743 -1.6121745563331894e-05 8.880860040528869e-05 -9.400383538233049e-05 -9.339058638200629e-05 -0.05785020182988906 0.06116150762589474
0.214 0.1898146549411381 -0.22554007464334289 -0.00011165922177560523 -5.821278322172317e-06 -4.736324178753442e-05 9.687253902054231e-08 -0.05292010091121748 0.06632524590033673
0.215 0.17432632665113065 -0.2413381374842 -7.422781975456606e-06 9.942697837653789e-05 4.55152848016676e-05 -1.2225721688652998e-05 -0.047515643967930066 0.0708087195778053
0.216 0.1556234898398948 -0.2531208816459199 1.3507154885908565e-05 3.005039901566692e-05 1.639051380988014e-05 -2.78262252052743e-06 -0.041533500814541255 0.07486821891082952
0.217 0.13932975801530575 -0.26466902624079747 6.354082362464328e-05 -3.5422563028318494e-05 1.84001899490851e-05 5.214122145747762e-05 -0.03526379994470481 0.07851131943146693
0.218 0.12076321857701709 -0.2745568399474535 7.782998275009241e-05 -8.253816651542473e-05 4.8121338996070997e-05 6.326486743514716e-05 -0.028695424020446673 0.08133283322341266
0.219 0.10046564646685914 -0.2832152283924184 0.00012548203400495874 1.2328129602827298e-05 -4.833636893720766e-05 5.096373226378507e-05 -0.022187706735158443 0.08467327973805085
0.22 0.08065145908789471 -0.29005172299264503 -4.712627194810331e-05 -6.414364569187578e-05 -0.0001571994784142598 -3.8421034256002207e-05 -0.015154073183007696 0.08594301973594773
0.221 0.05964007258606501 -0.297392957404418 1.4570111725872895e-06 -7.686500797497416e-05 -3.419519682946744e-05 1.4520502965054525e-05 -0.007969490238964524 0.08751707069153847
0.222 0.03845270669250656 -0.2996516227645448 -5.528942855270683e-05 -4.775877054899309e-05 -2.358796663615881e-05 4.7407230377000126e-05 -0.0008314573144375607 0.08837118017594
0.223 0.017687887458656067 -0.30203378839497574 -3.2406841698765866e-06 0.0001431485803259887 9.260760044795774e-05 -8.712843321810989e-05 0.007184595116842962 0.08821269562223866
0.224 -0.0050896153719590725 -0.3059269039979548 8.003473391181227e-07 -3.493219299663917e-05 3.944996014722719e-05 3.313454279872191e-05 0.014343730095429504 0.08811166907321107
0.225 -0.02698922007968536 -0.3030149011911049 -9.939039479007999e-05 9.139915551173634e-05 8.06334311675918e-05 -2.686958357545397e-05 0.02177514462372702 0.08683077846016268
0.226 -0.04805085291583827 -0.3011219370758541 2.646987896995441e-05 8.586668261051277e-05 3.8632672081334344e-05 -5.158487918815822e-05 0.028961697917121543 0.0849187839038204
0.227 -0.06732811835468148 -0.29660789098089224 -0.0001468826750002385 1.5377246041684407e-05 -5.967339757400265e-05 -2.4204318924690026e-05 0.036227108349657956 0.08316155244769426
0.228 -0.09121554291957173 -0.29242397951393756 1.398823798335227e-05 -1.5357011365767145e-06 -2.9440403727716627e-06 -1.385991346967649e-05 0.04284339386595602 0.07979413818748239
0.229 -0.11164065705063302 -0.2864473398160651 3.479036170644469e-05 3.667891636180053e-05 1.4217196690207127e-05 3.670012585938449e-05 0.050023853016061694 0.0759710514698268
0.23 -0.13078044935553024 -0.27812929435959466 5.5993682933735134e-05 -2.726637775967411e-06 1.7421929381050452e-05 -2.283013362330553e-05 0.056616738681685076 0.07190869953255985
0.231 -0.1519205582582076 -0.2707971126705344 -6.145028351623284e-06 -3.675202556956223e-05 4.0618833448984886e-05 -1.779509168709564e-05 0.062249523805217366 0.0668366156883392
0.232 -0.1695304461322965 -0.25719797997316923 7.618056058871811e-05 3.9991050841084974e-05 5.626498845983969e-05 -1.1181537269486373e-06 0.06822358763971145 0.0619529681307491
0.233 -0.18833639917166495 -0.24735977779879859 0.00018896518958223926 2.069928401404067e-06 -4.5769459098065115e-05 -6.074674009586675e-05 0.07416747337089623 0.05599233047961412
0.234 -0.20468031516182786 -0.23403614163721398 1.4080024322256293e-05 -1.2062879442072926e-05 0.0001141880952229035 -0.0001262723246325478 0.07789125411616872 0.049726784321173764
0.235 -0.2227094099262731 -0.21760589311127412 2.9952313779879904e-05 -9.370299781838013e-05 -4.424406445939254e-05 -7.02612514892127e-06 0.08262089027235231 0.043327010625089805
0.236 -0.2377294054147773 -0.2032083347119557 -0.00010439252361824512 -4.304081590369221e-05 3.904195999168794e-05 -5.129921712115765e-05 0.08634490809259537 0.0366946680673538
0.237 -0.2509045362464928 -0.18677378258982688 -4.955228479224981e-05 5.512401417418917e-05 -5.736460816509756e-05 -5.866618304486681e-07 0.08910779659707756 0.029073822774537426
0.238 -0.26476495089088803 -0.17035358175390528 6.307897783184594e-05 -2.398089616110044e-05 -0.00011400575167387044 -5.3540743931815136e-05 0.09189116843148358 0.021055612677012725
0.239 -0.27616337064908636 -0.15209681867098698 0.0001442180575729598 0.00010205599324753505 6.132486102613059e-05 6.808948502591004e-05 0.09353040417591593 0.013671963254679391
