!Created with skrf (http://scikit-rf.org).
# GHz S RI R 50.0 
!freq ReS11 ImS11 ReS21 ImS21 ReS12 ImS12 ReS22 ImS22
0.13 0.05408514961129673 0.1742245884286734 8.335011445736914e-05 -0.00033615347504905153 -2.276069655637913e-05 -2.7741701725778465e-05 0.03280880501184389 -0.041417027599671474
0.131 0.07279781309264848 0.16890148626062002 0.00020818566343723844 -0.00011765934091239631 -2.7414838984339842e-05 5.543925822380438e-05 0.028206807973500024 -0.045263837696840344
0.132 0.08927551380444834 0.1603475588342236 5.609159254550143e-05 -0.00024108393172496358 9.171902767747867e-05 -2.5934959058632708e-05 0.023169490222626 -0.048363533478823044
0.133 0.1065195667195082 0.15160814791724628 -5.4077034593857114e-05 -0.00022578950706441878 -8.62004969896698e-05 7.021342451219628e-05 0.017403675702480827 -0.051006665638525614
0.134 0.12228602463789648 0.14214513449083177 -1.3464722210963962e-05 -0.00011097464804693347 4.041749638712652e-05 4.2364985507110823e-05 0.011356580246741367 -0.053001921585789494
0.135 0.13614779388664022 0.12878549734466796 -2.7383611917118456e-05 -0.00011661472283755707 2.210267857871499e-05 4.010044182696026e-06 0.005135595137011899 -0.0542657399828689
0.136 0.14925597827076006 0.11540364831669403 -5.6887057523372404e-05 -0.00036350014120947494 0.00010771237912651623 -4.852972275995031e-05 -0.0008652904962648983 -0.05470163752234811
0.137 0.16064208192660553 0.09944999306337939 -4.005277450257941e-05 -0.00023540053179206896 3.195736502831326e-05 -6.423907612244416e-05 -0.007308899430882878 -0.05445477524796479
0.138 0.17088635904450356 0.08375465033117305 -0.0001926890911218775 -0.00013728528773681228 -2.4096298169361127e-05 9.260027986901036e-05 -0.01355093816754372 -0.05360195733684926
0.139 0.18024497563195038 0.06720881251865739 -0.0003344742262217048 -0.00018444932270983387 -3.9757995442307995e-05 3.7400587520588116e-05 -0.01955375781284467 -0.052039164903517156
0.14 0.18662337124650735 0.048753074779051594 -0.0002787567654034454 -9.116224205120824e-05 -5.7199768590305765e-05 3.85363563997795e-05 -0.025443650033751364 -0.049609440794758555
0.141 0.19150785213800076 0.029430769936364797 -0.0003118694050834137 -0.0002261318984304559 5.917112236212903e-05 -7.158619533472066e-05 -0.031329220534563246 -0.046756265423960615
0.142 0.19437672093622005 0.010571841106804715 -0.0004298375971381752 -0.00018038371153686054 9.15449554229518e-06 5.0922369350700955e-05 -0.03636388942537254 -0.04285986742385357
0.143 0.19528164341918217 -0.008979339235027412 -0.00028364860753309464 -3.3925041953816795e-05 0.00012106550169477692 -7.231167111390416e-05 -0.04148073524201755 -0.038702565732343354
0.144 0.19456878042256373 -0.029348086350032138 -0.00046840478017602 -9.038602125462694e-05 -8.318634260626835e-05 4.154906631927367e-06 -0.045854546028267426 -0.034202273870713416
0.145 0.19221001517955516 -0.0487488704658085 -0.0003778131676734359 5.9681311571344754e-05 1.2775426881245364e-05 -0.0001662389207933616 -0.04968014154148053 -0.028800380864875606
0.146 0.18682372414029116 -0.06846744682172856 -0.0005131616764210109 6.272424425270936e-05 7.03998335832301e-05 0.00019391542713506396 -0.052911571758507144 -0.02304092920206289
0.147 0.17973467549486238 -0.08747292828182376 -0.00035245410343104485 0.00013977999104033143 -6.253927888753732e-06 -4.467579943091952e-05 -0.05523639092412682 -0.016887459438550273
0.148 0.17129193407511661 -0.10632194111870794 -0.00022233205135391423 9.775608211879227e-05 -4.832250283604643e-06 -5.371174499978713e-06 -0.05728134813337432 -0.010390422015543906
0.149 0.16018475505159122 -0.12384497524931963 -0.0003636925315812824 -2.5730876615477452e-05 0.00013605013646275454 -3.2496022583328445e-05 -0.05837573531165245 -0.0036662969963681064
0.15 0.14714208569899334 -0.14004310672391584 -0.0004992784156510126 0.00015562741020255157 6.727386661421837e-05 -1.1856286462134344e-05 -0.05869850303925281 0.0028034470305965415
0.151 0.13352326941845144 -0.15378084494932562 -0.00035159700711528827 0.000358960703838403 6.97223972874306e-05 6.624091671478523e-05 -0.058249154004245754 0.009478324152121157
0.152 0.11692502169241886 -0.168730876466333 -0.0005835219047623201 0.00045628179821638785 -5.3380936550626514e-05 0.00010846945312595955 -0.05704112333883739 0.016230093423608826
0.153 0.10012703945081998 -0.18139151051410846 -0.0004135149195466038 0.00047425597553458294 2.107386922699951e-05 -0.0001223927044513696 -0.05508157914157791 0.02293001086146633
0.154 0.08172948000460142 -0.19145292038203846 -0.00013501040934209678 0.000601036972398451 -0.00010679255998412713 8.976420428967357e-06 -0.052399150897010624 0.029204310483534564
0.155 0.06110284028143334 -0.20034680995875825 -4.25745234217137e-05 0.0005249430073308344 -0.00010272054111436147 -2.47351003588991e-05 -0.0492246288982082 0.035273870230775294
0.156 0.040616129611981994 -0.20617381580884073 -0.0001232771561417241 0.0005285439401070787 -3.517829942412543e-05 2.704664428263917e-05 -0.04480746686680229 0.04081188168277086
0.157 0.019441665545451153 -0.2117405481597624 -2.6199679457016818e-05 0.0005252685869594158 -3.72521927643292e-05 -5.179867694547162e-05 -0.04024708806684748 0.04615896818063377
0.158 -0.002385316639826383 -0.2133274240072319 8.117673411137255e-05 0.0005259825918887429 6.110699363981954e-06 -5.126964833163052e-05 -0.03464244011898447 0.05082707968847238
0.159 -0.0252797517831052 -0.21371237131086826 3.008969471152317e-06 0.000544867551930671 -3.11897629880626e-05 -3.906855605799659e-05 -0.028908972682735495 0.0547294087827194
0.16 -0.04707025298474495 -0.21035115733957818 -0.00018436150552024355 0.0005870917623950555 0.00010915683749619175 2.131546108869502e-05 -0.022329643584720362 0.05817071032106511
0.161 -0.0698506933032046 -0.2057274259072441 -0.00020697711749618203 0.0010248332318999018 -4.013570682540223e-06 -0.00011793029220905424 -0.015528158345915392 0.0608119835556167
0.162 -0.09195869801459543 -0.1990453673935858 0.00042123726580612703 0.001238151045897122 -8.500365851232499e-05 -1.379399595292291e-06 -0.008158925603968685 0.0624999476442442
0.163 -0.11313518528565639 -0.1890468191992438 0.0009329575426318284 0.0010578545380094827 -0.00011459338204101676 5.551299678443824e-06 -0.000673189861390938 0.06370188736175524
0.164 -0.1333778466942624 -0.17627218179798604 0.0010154741090140336 0.0006938462790245484 3.137548525218892e-05 -6.317836330198163e-07 0.007222305534194047 0.06365945726178103
0.165 -0.15333562319998137 -0.16197967286799886 0.0011696643336584856 0.0005029525990742866 -4.288726522175069e-05 9.465421138769464e-05 0.014629946081357936 0.0628412762799409
0.166 -0.1710512828216201 -0.14597062838653763 0.00105211125548602 0.00028892979319238287 -5.0659311763618445e-05 -0.00010834981691050078 0.021983458361926042 0.061229003006676275
0.167 -0.18649963879176212 -0.12761680951219462 0.0009107597009132051 9.124220565296345e-05 -3.7515625253900694e-06 -6.175204340617061e-05 0.029373124518281488 0.058389064703948036
0.168 -0.20046502157061902 -0.10729140184701837 0.000644806636688782 0.00012152107043003132 -8.119688135108878e-05 -2.762437782179856e-05 0.03610119591736875 0.05469676734126782
0.169 -0.21200389525403823 -0.08585695842040798 0.0006546448552157071 0.0001220931305271482 6.336039392522315e-05 6.173138269427478e-05 0.04332953013060318 0.05054366594715434
0.17 -0.22077252850920845 -0.06268697321034175 0.0008295449575672323 0.00032394413853275786 8.217356735811424e-05 -3.600687872683675e-05 0.04947317753459927 0.045268704503517054
0.171 -0.2281135085091884 -0.03881290686879663 0.0011582275728248088 0.0007444947519580561 -0.00010907207829603166 2.7099961163923584e-05 0.05440899755175087 0.03933525449965316
0.172 -0.23193510835263073 -0.013804874106409196 0.0016188566713556537 0.0006907487513706126 7.841757348681506e-05 0.00010156348189848695 0.059438508094797254 0.032384062639319346
0.173 -0.23265259322107745 0.011111513715947006 0.0022455473830157308 0.00029785161510540955 0.00013901351739756894 -6.795400538854938e-05 0.06341162305010302 0.02519474584906661
0.174 -0.23148074648000871 0.03608078225631791 0.002691844477263965 -0.0005090189560937953 -9.97955438167828e-06 -0.0001704082877866175 0.06640132800450506 0.017483826046634978
0.175 -0.2275522885342577 0.061005708477606536 0.0023848802289431928 -0.0013671728332689532 -7.964821783316066e-05 3.396257540209886e-05 0.06860483057467187 0.00916169377732395
0.176 -0.21985233655775674 0.08615227227564906 0.0019524114966861276 -0.002347194147626404 3.4286611431936227e-05 -1.0149165079934315e-05 0.06956003475291446 0.0010938036474072543
0.177 -0.21113268390568782 0.10906851242118282 0.0009496435017459199 -0.002699830997165089 -3.583486743618661e-05 1.1014617825335134e-05 0.06957916741871543 -0.007591355902078663
0.178 -0.1990909984602925 0.13146336530539304 -0.0003086662877572989 -0.0025281332433457087 7.859286546284243e-06 -7.637866679744001e-05 0.06842171833814543 -0.015929117123938023
0.179 -0.1849666782630874 0.1514608713235218 -0.001067625023544874 -0.0011718271796837022 2.0577832500903476e-05 -5.988170068198491e-05 0.0661119025173316 -0.02440533193981193
0.18 -0.1680364614911107 0.17263548194750492 0.0002781310227353255 0.0005653049749337254 -1.5084474431469879e-05 -7.957062382590035e-05 0.06327083139890616 -0.03238085835097688
0.181 -0.1487710241073356 0.19073967351098228 0.0027719135770086774 -0.0004746968967352553 7.843951213437467e-06 6.749503038246849e-05 0.059124887535388616 -0.04002703115821792
0.182 -0.128838251231202 0.20712577652606526 0.0026010895614594584 -0.0030079144391614828 -3.861410060326544e-05 -4.307391383644711e-05 0.05413938009677592 -0.04706264511171909
0.183 -0.1071476237622461 0.21953321622508778 0.0009082755673625891 -0.003962511562449097 -8.765365007286775e-05 5.537219744523606e-05 0.04812230506861475 -0.053636127981457594
0.184 -0.08273167275953108 0.2308225618944197 -0.0003793228530097245 -0.003964917240848552 2.4894975912825154e-05 4.22962459234002e-05 0.04173476715012027 -0.059383427669141675
0.185 -0.057531373163402205 0.23963541541050531 -0.001123266142296042 -0.0036615347266424785 2.6119369800782615e-05 -1.4528293367533447e-05 0.034152879882757975 -0.06415306793929944
0.186 -0.03320228364339051 0.24660762815119394 -0.0016245811519503264 -0.003094986309684429 6.318261139493112e-05 2.216710714201219e-05 0.025857298709956237 -0.06827727202118498
0.187 -0.006880221939704619 0.24850096363546217 -0.0018449770548967731 -0.0028670490734814882 7.641891745194394e-06 5.173614526125971e-05 0.017616295295512497 -0.07148502670822522
0.188 0.02068949493916514 0.2481701373610265 -0.0021043640339803524 -0.002560613104131673 9.059759607220355e-05 -2.353807029560957e-05 0.00885930810151362 -0.07314247924798296
0.189 0.047299404821586455 0.24683655710385416 -0.002306682094442138 -0.0026681952534057633 7.6064982193696955e-06 -5.985715513659768e-05 -1.5124622276738252e-05 -0.07394790494741528
0.19 0.07276996113737158 0.24131111107922565 -0.0026892356458761684 -0.0026040604632276117 2.581770807766584e-06 -2.5208492582713564e-05 -0.00862575835947451 -0.07382717969747174
0.191 0.09946757551827837 0.23424211483466834 -0.0032349737511201643 -0.0026350031984204475 -5.232183831854597e-05 -6.74225295246263e-05 -0.01819865310896484 -0.07202774304533928
0.192 0.12280606940169496 0.22442609832167054 -0.003700182809274985 -0.0024782256891082927 5.647081116653617e-05 -5.979116000873281e-06 -0.02640619022679535 -0.06985602739226565
0.193 0.14781292867117013 0.21024339038440892 -0.004424037040090733 -0.0022162982015485797 -1.2544978796813334e-05 -4.10427844287236e-05 -0.03488978725936345 -0.06649049348518618
0.194 0.1708519784777285 0.19465865655228182 -0.005202143582993027 -0.001616086273986168 7.026338646016064e-05 -6.176779589414552e-05 -0.04307211628194678 -0.06179987833136871
0.195 0.19202179571562084 0.17607601445442383 -0.005665169254173217 -0.0010260250149142583 -5.0597363191739545e-05 -5.240940265945156e-05 -0.05053232475576949 -0.056772321387206906
0.196 0.21058176441695295 0.15440493793405127 -0.006195628642649977 -0.0002806646218694158 -4.2164384222930935e-05 6.807901423294012e-06 -0.05685731701986915 -0.05020643899501865
0.197 0.22861219939962696 0.13183350008342273 -0.006466813589064625 0.0006654284916055532 -5.235764746271941e-05 4.379962732198456e-05 -0.0630799337659758 -0.04305038211648801
0.198 0.24259172193370085 0.106116721792652 -0.00698555981109521 0.0015187086521606158 -6.680810213349711e-05 -2.74063848530202e-05 -0.06820679036803076 -0.03521121662281688
0.199 0.2539463665498094 0.08005470620370972 -0.0070681875879983844 0.002707695512153581 -1.926792834124404e-05 -0.00012518574057483623 -0.07201475784718842 -0.026612279543749923
0.2 0.2631826611681321 0.051891110971031905 -0.007220632449049109 0.003748818076551044 2.7215683205369302e-05 -4.611315306411988e-05 -0.07490793142963675 -0.01766003848472631
0.201 0.2688861971622631 0.022258505720952847 -0.007230916678420518 0.004857257141730144 -9.243912787804303e-05 -5.434898959775366e-05 -0.07697495586301946 -0.008493864765469752
0.202 0.2710231426798076 -0.007732342411250981 -0.007038551355532606 0.006318449898850987 3.82037237840027e-05 -2.875795539193681e-05 -0.07787919395036311 0.0009239074546575388
0.203 0.2701282660780696 -0.038497087800897084 -0.006682677818431698 0.007798535475455412 -9.067675867543816e-06 -4.29045160895081e-05 -0.07767720067178692 0.010646927192257512
0.204 0.2651386237852758 -0.06839837980073898 -0.006025857361037601 0.009144660285899551 3.722421919591131e-05 2.7522878523289013e-05 -0.07592725844757375 0.020300268930104365
0.205 0.2579072027223519 -0.09785810296956239 -0.005154768101773274 0.010638705928779382 -1.247811173229535e-05 -4.114491967014185e-05 -0.07310376785486529 0.02964024736603848
0.206 0.2457196257529919 -0.127557109157396 -0.004020341257785814 0.012097707038518774 6.76082207270908e-05 3.1394724387392983e-06 -0.06930196251056883 0.03851358938217319
0.207 0.2301933122032363 -0.15505052145542766 -0.002662175366166204 0.013426710718745995 5.660810426699674e-05 0.00015305724562461113 -0.06436389518554235 0.04743690206721988
0.208 0.21203458365456954 -0.1825873671816344 -0.0011265144961394803 0.015089481655107704 -2.163894153653736e-05 1.1710811094875254e-05 -0.05800242597533278 0.05507231690436667
0.209 0.19002560530374377 -0.20554042700729583 0.0008621369044436933 0.016667972450181583 5.6651947784693356e-05 -7.914884269278488e-05 -0.0507352052523118 0.06233929337802597
0.21 0.16531414894910207 -0.22789461822781582 0.003433906029405458 0.018120610020363588 -8.005895642267593e-05 3.3970203429548625e-06 -0.042652010324322316 0.06861087240469291
0.211 0.13831361530478173 -0.2470952638466067 0.006975118037817061 0.019050746489876383 -8.866567507691928e-05 2.3978318011108013e-05 -0.033721684475107094 0.07400885398828803
0.212 0.10857638731341737 -0.26278510411889217 0.010317679558903248 0.019091170024075583 -5.193423426093188e-05 -4.058812920399603e-06 -0.023838027381426936 0.07800871605486508
0.213 0.07601541145468763 -0.27403016903790656 0.013958166999296659 0.0190883411065826 2.0077113761712003e-05 -1.0845662319406017e-05 -0.013672466526156408 0.0809573098338113
0.214 0.04385068094196651 -0.2814555955466185 0.017705232228915763 0.018638325855155485 -5.626927821580992e-05 5.4531699735385286e-05 -0.0030026098939454414 0.08243816510673484
0.215 0.010469094017366263 -0.28476550829957115 0.02202607928196383 0.017524012570389248 -0.00010299451371170727 1.6874650728384197e-05 0.007648849690717917 0.08237881959775419
0.216 -0.02411504344335544 -0.28549763326431865 0.02648157584179889 0.01571640625969743 8.242391806332987e-05 2.6959882622696454e-05 0.018938145015898255 0.0808225025181392
0.217 -0.057355449368797884 -0.2793752821415187 0.03119613341014397 0.0131673625168671 1.664128539003879e-05 -1.7118913047502928e-05 0.03000937744244221 0.07785961369173813
0.218 -0.09225478539669187 -0.27128762755886743 0.035983986334441366 0.009474776731772272 1.3800034658246649e-05 7.233695634840758e-05 0.040030628494461255 0.07373923443673404
0.219 -0.1250664250681799 -0.25865831971560577 0.04075678871083583 0.005146803684872216 2.2326551399632008e-05 6.761438777164526e-05 0.04995673998935758 0.0679136823882153
0.22 -0.15659007503983105 -0.24030178919624254 0.04537835202362767 -0.0005384113958622639 -3.2006034025991915e-05 6.548606322958726e-05 0.0592458632010403 0.06052794429672623
0.221 -0.18524672827376815 -0.22076845393658656 0.050517637625369705 -0.007804497879901234 -6.368565317367016e-05 1.8855104566754918e-05 0.06716791339978569 0.051652615292709786
0.222 -0.21171512884486798 -0.19613617221009366 0.05405600368168402 -0.017443742438735962 3.1649929138268834e-05 5.454412690564774e-05 0.07427804894890244 0.04219513477150378
0.223 -0.23492653112569814 -0.16902565266172556 0.056001591940468914 -0.02849817643440735 2.831205497916834e-05 5.70097731054147e-07 0.08008560566370614 0.030884586780063464
0.224 -0.254456748995421 -0.13820367011980997 0.05587440632060745 -0.03967405738586229 -6.450459774336364e-05 9.069343597458276e-05 0.08360191706120082 0.01976686855636062
0.225 -0.2708890893297599 -0.10436617398258766 0.05548356043634845 -0.051810022880632134 -8.694380830823264e-05 3.1309732343657425e-05 0.0857933940819043 0.007187043531262951
0.226 -0.28198618486931026 -0.06839060270157324 0.05366170917287128 -0.0664146928058627 6.830671083471605e-05 0.00012250861101612475 0.08640648799137285 -0.005572609382221281
0.227 -0.2893118598880681 -0.03200421559457305 0.04864699649693044 -0.08314261835099376 7.726972390880758e-05 0.00010160765638234178 0.08494623249777507 -0.01806268887491867
0.228 -0.2920259684909592 0.00653138250384015 0.03942685636498699 -0.10037174691292493 9.808663196572752e-05 1.7484999472555236e-05 0.08142136450734523 -0.030505487306043782
0.229 -0.28852498980702135 0.04545592993394879 0.026249971895221623 -0.11859727853779042 0.00013794235262836558 0.00014917417989322113 0.07605435835129759 -0.042539714659465114
0.23 -0.2816568674181248 0.08351412132097032 0.008118194338073197 -0.13639344110748222 0.00031724472627545324 6.803456498717806e-05 0.06875377206903115 -0.0540378805867677
0.231 -0.2689086665471552 0.12277021810133232 -0.014413123098414318 -0.15363754917689712 0.00015862442238558707 3.945762848748881e-05 0.059740560769109594 -0.06366244912058552
0.232 -0.2502918849198578 0.15839997747516554 -0.043418584931225614 -0.16994089973440796 0.0002976914945494966 8.5586843327975e-05 0.0488621188527179 -0.07263852664691578
0.233 -0.22657835443054347 0.19394404450069602 -0.07962495859666377 -0.1821730728470421 0.00024152994750709843 -9.562922443107703e-06 0.036867249362532446 -0.0796710335368329
0.234 -0.19767653118813017 0.22275853253194522 -0.12439023578935883 -0.19142985603659035 0.0002531706995948347 1.213621934317657e-07 0.023607938384249037 -0.08436756502144888
0.235 -0.16382854492421375 0.25077397688456865 -0.1760572726477495 -0.19265954483493977 0.0003513741567763956 -0.00019034657750617722 0.00982447830965466 -0.08750103115431604
0.236 -0.12406188935038155 0.2746567814460553 -0.23866914593201768 -0.18479739736391412 0.00045217964189255304 -0.00013573768451222328 -0.005288281976105978 -0.08744094073837048
0.237 -0.08167956412767542 0.2912855200077703 -0.3069193031361423 -0.1619592733289097 0.00045631016808850966 -0.0002755885879726838 -0.01994565940798602 -0.08543690334415271
0.238 -0.034784046839383014 0.29948516353705107 -0.3885306054552843 -0.12064195971677663 0.0004891019446936764 -0.0004772099729751079 -0.034310810914427295 -0.08055620593509535
0.239 0.014042266131597852 0.30447066705831555 -0.4661093022657994 -0.05903827307380316 0.00047004381891855673 -0.0006440466311811595 -0.048480711814215476 -0.07282490996425924
0.24 0.0651245658115216 0.2988644332190997 -0.5523278312105661 0.036428391447443274 0.00033435811582043125 -0.0007158861326999188 -0.061357858364287005 -0.06242118267679616
