!Created with skrf (http://scikit-rf.org).
# GHz S RI R 50.0 
!freq ReS11 ImS11 ReS21 ImS21 ReS12 ImS12 ReS22 ImS22
0.13 0.001567223433630529 0.0010387829390174498 4.656678320777891 -0.5914768079023642 0.001940615767288578 -0.0005620152057186845 0.00022987573398798583 -0.0008743396289272955
0.131 0.001294537389211255 0.0007361761075217657 4.578742649960568 -1.0375404524131209 0.0019308402835439755 -0.00070709475698756 0.0001423208316824595 -0.001078193786460031
0.132 0.0012673893212060692 0.0004831621887203181 4.456281002298734 -1.4618857761841777 0.0019515612159198877 -0.0010044467893827883 -3.32980674718743e-05 -0.0008579291641936035
0.133 0.0010650943173404238 0.0002992023498558456 4.284212257328472 -1.8919008689118575 0.0018701893300345329 -0.0010319175879004404 7.313433339289305e-05 -0.0009602213677622145
0.134 0.0007174991019074894 0.0001180576151542531 4.094197709815712 -2.288096496447412 0.0019300664047899759 -0.0012262606643169078 -0.0002482692026755032 -0.0008234839728250553
0.135 0.0005887476061650306 -0.00010671681993726592 3.856995534061354 -2.6758877675146935 0.0018471362422553055 -0.0013223053803147024 -0.00019692086584849967 -0.0007144220304734232
0.136 0.00022717636965162669 -6.26410390099583e-05 3.566509104440843 -3.0282583847192934 0.0017925239155259889 -0.0015038979137909862 -0.0002699296142012159 -0.0006485390229974831
0.137 -9.692689287763529e-05 -0.00013832556642609997 3.2701906696927074 -3.3617559961890433 0.0017191138769723994 -0.001730166497103438 -0.000271773940568465 -0.0005236408307573997
0.138 -0.0003476381881923742 -6.541202975885054e-05 2.9219123627863257 -3.665390073947987 0.0014893133340137883 -0.0018704904701781204 -0.0003899951425231505 -0.00040231202550249345
0.139 -0.000706585346262318 5.6966871832506006e-05 2.5472896874235564 -3.916341566305294 0.0014194807770282764 -0.0018956532379530242 -0.00023368014396871623 -0.0005229340480026491
0.14 -0.0010115550106190982 0.0002652880376371312 2.161860098910117 -4.148750189417428 0.0012537669089129806 -0.002095021505014648 -0.00038306958485327886 -0.0003244717162841569
0.141 -0.001326455468073165 0.0005718195367756971 1.759476132297651 -4.335271592017855 0.0010864957590042423 -0.002062187728144209 -0.00020426013160048482 -0.0001958570390545552
0.142 -0.0014348195747530168 0.0007533969485220228 1.3339555423906073 -4.489866367340996 0.0009691218764955081 -0.002297465685694315 -0.0002400619416307585 -0.00016479729301013856
0.143 -0.001710334664106329 0.001075232210986897 0.8903499935762635 -4.590478225926841 0.0008071846956935885 -0.002490034127804244 -4.099796716501002e-05 -0.00011485311603340328
0.144 -0.001825030574989741 0.0016320343521313363 0.4100485843188145 -4.646737761230875 0.0006168391556669222 -0.0025208135676186923 8.880966169879639e-05 -0.00018691430202306272
0.145 -0.001960770527360045 0.001863752867720407 0.011481475143304434 -4.6779644257280975 0.00040996897366005024 -0.0024799893307740238 0.00015542119743157978 -0.00021436424368875256
0.146 -0.0017607280051672375 0.002439135794943841 -0.4708496729435972 -4.653731350020368 0.00031669759284777 -0.0026525218310665395 0.0002726077391098692 -0.00024717883026225464
0.147 -0.0017682583692420002 0.002967568867360552 -0.8855496779271015 -4.5757413841468075 0.00015428165318797526 -0.0026468411621591633 0.00021117419585433704 -0.0002678168525943916
0.148 -0.0016444241159662963 0.003385030599760353 -1.344051474195409 -4.450397347909967 -8.75476226807264e-05 -0.0027196625020030874 0.00036648583950122006 -0.00021719127719948365
0.149 -0.0013593350617006122 0.003780388046423165 -1.7253636866075208 -4.312693658797257 -0.0003661682594045592 -0.002736617784735814 0.0004302454183103631 -0.00041409656830309943
0.15 -0.0010766912879195617 0.004077138804431203 -2.164687260656638 -4.1486526990276795 -0.00044722036779753263 -0.002703040381777273 0.0004846540563755799 -0.0005793908644255443
0.151 -0.000767472959936574 0.004448257107025799 -2.524252719760895 -3.8783195039935405 -0.0007558200084869185 -0.002718201235454784 0.0005190294346127934 -0.0006036937434619348
0.152 -0.0003167571204660053 0.0047927246646788345 -2.9128017594847657 -3.6242112681009724 -0.000913394318333631 -0.002648582868798482 0.0003394353327727561 -0.0006794094097513332
0.153 0.00023346971465483182 0.00495933602808671 -3.2277513487200955 -3.323337613152154 -0.0011411314280847672 -0.0026495780832517697 0.00038793235842594817 -0.0008674875100401274
0.154 0.0008726687101304733 0.005116242836629519 -3.529222372726237 -2.995977831996759 -0.001487511717093069 -0.002589884907692903 0.0003147935612862578 -0.0008920408342431785
0.155 0.00146210784135831 0.005380291051736099 -3.7985130153464044 -2.6543478671622744 -0.0015329745961535904 -0.00250695511661768 0.00027914649179662846 -0.001009241143906591
0.156 0.001963057803738951 0.00526575304790054 -4.035201771953258 -2.2997428534190187 -0.0017298793140059908 -0.002528421358495539 6.738903373238207e-05 -0.001144035459308882
0.157 0.0025419509627769726 0.0051123228167090865 -4.227645162421022 -1.867093155745317 -0.0019415334710546207 -0.002280160017608449 -4.76220865796514e-05 -0.001179270409414712
0.158 0.003199917466733589 0.004783012302563729 -4.397384126042244 -1.4773471657175967 -0.0022028333521554146 -0.002141226971138023 7.882936341765486e-05 -0.0012128392256765676
0.159 0.0035697082753841807 0.004630199749211732 -4.486393951893386 -1.0415663873626777 -0.002356895312742205 -0.002084631976322816 -0.0002141164505146557 -0.0013548670801569445
0.16 0.004169471211715821 0.004224985922742885 -4.571778636082604 -0.6082290610449423 -0.0025470628991027438 -0.0018809678050539774 -0.00031025201899869645 -0.0012023604970835223
0.161 0.004528274534457685 0.003830553417807539 -4.603991972615041 -0.1777477153855486 -0.002568045454273848 -0.0016597540800208678 -0.0006049177330774147 -0.0011493791314635387
0.162 0.004700205904118435 0.003288016447171529 -4.607864714964869 0.26921814203593963 -0.002851872366566288 -0.0015328674681191186 -0.0008038021683291902 -0.0011380120920250131
0.163 0.005102212213373585 0.0027203726900074756 -4.554204433087915 0.7251349824164294 -0.0029248232885126305 -0.0012344599189484382 -0.0007705596216111799 -0.0010944275555763597
0.164 0.005258568425820583 0.002071715802318743 -4.466470576488662 1.1408242902296777 -0.0030677243506415496 -0.0011799893391871983 -0.0009285618430270185 -0.0008879345226473852
0.165 0.005311689179498161 0.0014884289561678814 -4.329374128604587 1.5777692044913199 -0.0032901798920604913 -0.0009293798046947147 -0.0009518465607388572 -0.0008379669120212812
0.166 0.005377860527192842 0.0009128124136671498 -4.156746734972952 1.9868425346293699 -0.00333515204649159 -0.0006818600902656632 -0.001148082914317243 -0.0007089407108991768
0.167 0.00517844235625713 0.00042794035836971636 -3.9526414904512106 2.369854776324971 -0.0032465073001580395 -0.00038245407633328237 -0.0010901944993154799 -0.0005852080513113696
0.168 0.005044058658204453 -0.00019426395384394482 -3.6990105391712422 2.755118066695972 -0.003392344456240864 -0.00019495162190514827 -0.001051887807686425 -0.00031767755732486984
0.169 0.004642936644723413 -0.0006871375773758492 -3.4121262385766724 3.0942662729311503 -0.0035055804440852077 0.00010040731390560523 -0.0012493233405576718 -0.00016673000033593923
0.17 0.004224159369468986 -0.0010835361303470935 -3.1001054548712745 3.399886782691931 -0.003467183717863688 0.0003677619348133897 -0.0011141040097039326 -0.0001887803738850097
0.171 0.0038148752056637028 -0.0015676183434160198 -2.742939243451621 3.6873800346408308 -0.0034497815308521104 0.0007495135745125234 -0.0011796908855835138 -3.5720807976965265e-05
0.172 0.0032385512131138257 -0.0018226778019861463 -2.388058544090791 3.9402427240239257 -0.003527056267400391 0.0009968097889510074 -0.0010448105523880589 0.00027051038734135507
0.173 0.0027447406015752725 -0.0019158983892646583 -2.0037578795841515 4.146992354812547 -0.0033086528405289555 0.0012375688463772282 -0.0008528743992637209 0.00038994197045168005
0.174 0.0021104005615693536 -0.0021228107120053533 -1.5879663875663155 4.315239956505764 -0.0033091864522259862 0.0014587705998498628 -0.0007372853984335143 0.0004826670839873209
0.175 0.001623249024381801 -0.0019068896721797424 -1.1745462088500174 4.450146854331263 -0.0032428107703727786 0.001721965018397161 -0.0006043537307562388 0.0004524486056766548
0.176 0.00113753146045916 -0.001949640981916465 -0.7502328778368079 4.524896860840644 -0.0032792225743062484 0.0019243893232696525 -0.0004064519110288544 0.0006103680190922839
0.177 0.0005553532975304367 -0.0015812767117353117 -0.2932261921499685 4.583892627142507 -0.003026325031179422 0.002194973236738659 -0.00035576754128619983 0.0006508968693504971
0.178 9.919023640493365e-05 -0.0014526397096702392 0.13468081773781593 4.57150284598837 -0.002812307707250473 0.0025218169976580587 -8.740265402424449e-05 0.00043231265572738755
0.179 -0.0003587257879966699 -0.0011437115932649298 0.5863062878416935 4.546826857572347 -0.002747556751993902 0.0028250663065833973 8.507697086976316e-05 0.0005933156474744526
0.18 -0.0006698943420522188 -0.0004410327568912352 1.017982629106 4.490301932386139 -0.0024927604432888476 0.002938874771184514 0.00010384136981824556 0.00046007842636494806
0.181 -0.0006986113308475513 -6.698020683577022e-05 1.4252151718079982 4.369124503511323 -0.002358409615547452 0.00305151146654029 0.00028418842830347276 0.0004045116316822699
0.182 -0.0010978918772007397 0.0005216476488996739 1.8414263658418923 4.198930308731403 -0.0020632173348672407 0.0033169147248012453 0.00031742307968287033 0.00016788958055642772
0.183 -0.0010606117050766706 0.000952363631492861 2.21091564969772 4.024759952979058 -0.0018497464842249394 0.003566975037317031 0.0004579543382526446 0.0001252217266979382
0.184 -0.0009678125992077319 0.0016997706006362963 2.59768602640688 3.78933406987473 -0.0016137896100772893 0.0037696531370170704 0.000520805222227813 5.1935757065784605e-05
0.185 -0.0007456983733167901 0.0020711683019076226 2.9658627272395304 3.5192011637710774 -0.0011538836682501521 0.003921942410059532 0.0006150199229305119 -0.00021224919803938653
0.186 -0.0006831006331623699 0.0026889467647425833 3.2756353041835022 3.2060333428409886 -0.0009877171411952072 0.004002176850322389 0.000659271463429698 -0.0003436235702260895
0.187 -0.00022543977215865274 0.003134857247183606 3.583331475399893 2.8896096442717734 -0.0006373855904958575 0.003983853002853299 0.0004481052413494012 -0.0005061083075071002
0.188 0.00017698678073672938 0.0034308111916727868 3.8343988430780045 2.5111395727086876 -0.00036166532347061623 0.004176483801719399 0.0005754038274588835 -0.0007041611220883216
0.189 0.0007733844872877038 0.0039300589021154875 4.031022459071873 2.1397206805071303 -0.00014810600634843665 0.004175898415230004 0.00037463765784375314 -0.0010208547441104801
0.19 0.0012697264168723534 0.004018458422622307 4.239645091145574 1.7533253799817439 0.0003299905861010679 0.004332630069004143 0.00023218198808744504 -0.00107894017302619
0.191 0.0017646967101451957 0.004221229828089241 4.380455287818126 1.3606586964358371 0.000562112641946076 0.004319726394182483 0.00016743817924457863 -0.0011676919231470655
0.192 0.00240149071600957 0.004195759347830446 4.455795163576613 0.903062376956128 0.0009649236734608093 0.0041860533880955465 -9.987108160946523e-05 -0.0012949396850350662
0.193 0.003000638853025204 0.004214636874166205 4.5532001071608725 0.47236290391867275 0.001141949633471619 0.004220353478769104 -0.00023579095114944243 -0.0013869481367852618
0.194 0.0036168805675474373 0.004024119551398652 4.5448369852355786 0.027778183675229908 0.0016722434420788105 0.00421487100016926 -0.0002679620730445151 -0.0013074910621781774
0.195 0.004247090732833951 0.003726648081828045 4.555821995995051 -0.40157581395543224 0.001935302490079375 0.004112872705138727 -0.0005803978637315437 -0.0013862113665571683
0.196 0.004625413880350208 0.0033430056554219927 4.465134825913284 -0.8158795041687169 0.0021766085096181246 0.004098997042602371 -0.0008640187288662691 -0.0013280921651755994
0.197 0.005104323644213979 0.0028243707322526375 4.3723295570623435 -1.2601191792424626 0.0025922490530935318 0.003930710579262741 -0.0009102992616289109 -0.0012590465003777369
0.198 0.005545885472038875 0.00246714884233151 4.229607883020364 -1.6720022968513182 0.00274169897365132 0.003683614602546087 -0.0011293105979662608 -0.0011978715967377403
0.199 0.005795656125261656 0.0018841057779209276 4.053381389668274 -2.0558244476959624 0.0031209231569698215 0.0036250072027061435 -0.001230093971325874 -0.00107048282769403
0.2 0.005992587663949651 0.0012231950167826352 3.829456327397384 -2.43596391099259 0.003406648828577612 0.003238974348093367 -0.0013453329792432532 -0.0009257025079626797
0.201 0.005925027405155076 0.000544280776375062 3.5746945348915244 -2.789326875924416 0.003667989114051441 0.003124982013477782 -0.0013923600046438242 -0.0007396005212596862
0.202 0.00593815155525847 -6.703947138770897e-05 3.2911376051088155 -3.1238126951281995 0.003844359457105432 0.002810145628854474 -0.001567626830932627 -0.0005863552999404814
0.203 0.005804694829908764 -0.0006482358175508282 2.9927441617448416 -3.4224427794732457 0.0042269265412476645 0.0025150496749482866 -0.001560669723971101 -0.00035806824246311546
0.204 0.0056488753983423 -0.0012229628486989468 2.6411741267969435 -3.6876124085351427 0.004506998433532233 0.0023115457261428268 -0.0015633759669202527 -0.00018136404511922164
0.205 0.005249827073804286 -0.0018031576520157228 2.300193463540995 -3.915628977465525 0.004567040832782865 0.001991176579600405 -0.001530759509842451 7.415528386902495e-05
0.206 0.004815971724262945 -0.0023132431929004846 1.891134434255471 -4.113985106291312 0.004811281067939612 0.0014602921486211921 -0.0014820884594181271 0.00011949008532192843
0.207 0.004331017282111256 -0.002595109215996642 1.4633886473910833 -4.275540085193414 0.004962476281923305 0.0012019909225927609 -0.001346568208349532 0.00031978900875313213
0.208 0.0037145197021079745 -0.002980800896852686 1.048809582505914 -4.388371860499162 0.0049979545832771945 0.0008472335226508894 -0.001339824122362757 0.0003966752740891227
0.209 0.003055557000168841 -0.003015819367352998 0.621485043787314 -4.457370425488246 0.005112307549509312 0.0005334711925020153 -0.0012525136622013305 0.0005809408643437405
0.21 0.0026469111631074807 -0.0031262255184655555 0.2141855440160271 -4.503943270026639 0.005203675083318806 7.396632776526006e-05 -0.001121460419902601 0.0005235041861338712
0.211 0.002040253331622745 -0.003008623153600989 -0.23877612289853128 -4.509063125344738 0.005244856012739672 -0.0002574168256801978 -0.000821908839339906 0.0007239729915898719
0.212 0.0013648147746248783 -0.002814337740224514 -0.6706610998294056 -4.458384348812971 0.005245818968438861 -0.0006503461546882167 -0.0007379250851187523 0.0006721226030058857
0.213 0.000876194702944299 -0.0026015648577457163 -1.0978295195527734 -4.395493131799678 0.00522521655448927 -0.001049687176913326 -0.0007871920906159034 0.0007552198151647015
0.214 0.00043536686245468766 -0.0023365806829615337 -1.4861140429337272 -4.270537884202812 0.005237619496019266 -0.0013469714164658178 -0.0004772603982762505 0.0006129300296086711
0.215 -0.00014075342649359313 -0.0019572495788313803 -1.8640589369548868 -4.09844640031721 0.005070211407568574 -0.0018174657084611392 -0.00038562222230133756 0.0005644574518895154
0.216 -0.0004716328441800412 -0.001386589786893429 -2.293162659725473 -3.867049097976147 0.005108861891342957 -0.0021528773656785583 -0.0004733624583614161 0.0004954266587703694
0.217 -0.0008114352979257599 -0.0007795414634915773 -2.611756057673138 -3.668419935274264 0.004862544018347757 -0.002737544681307208 -0.0002573491230749911 0.0003491296214893989
0.218 -0.0008305677257113683 -0.000286620943126572 -2.9486691644867515 -3.3967301700462267 0.004665410185038866 -0.003082253124917806 -0.00028225671719326906 0.00027421321454244705
0.219 -0.0008995231887794489 0.00033617814710851744 -3.29779415974318 -3.081132881077663 0.00447397078308281 -0.0033893469398432363 -0.0001457900271355639 0.000226079642632887
0.22 -0.0007433464261233738 0.0009800440234511805 -3.5449724624341075 -2.7587543175166975 0.0041642325054523826 -0.0037062762435060314 -0.0001464074568566128 8.154687973804948e-05
0.221 -0.0006192933377388473 0.0016389798498567803 -3.813366097902322 -2.4038744847694247 0.003980181547525517 -0.0041387870040113265 -0.0002167150903443729 -0.00011801127482660016
0.222 -0.0003336381124993353 0.002192529979205407 -4.024450957152018 -2.029178485030201 0.0038422542035010665 -0.004329180472972415 -0.00034108180189444307 -5.478510708043493e-05
0.223 5.9813893847582496e-05 0.002715763469121101 -4.206727829777261 -1.629307002487818 0.00332904035363755 -0.004787284043692681 -0.00037963060730890975 -0.000337348157001917
0.224 0.000559948736054572 0.003049047454200207 -4.342926245092183 -1.2216361081454727 0.00303438112584374 -0.005071179792644999 -0.00047740747360781145 -0.00034944943903079495
0.225 0.001062849202694724 0.0034386558029672496 -4.419574274724801 -0.794833648935707 0.0026609854724749388 -0.005308982435384379 -0.0006059066728725268 -0.00041959856484736395
0.226 0.0016076274738196217 0.003736234356538386 -4.481597832336362 -0.36377918558940214 0.002272792782423842 -0.005426218599153203 -0.0007079005556968751 -0.000552140457717163
0.227 0.0023484313674405092 0.00393849234151005 -4.507056055496281 0.04916630497206858 0.0019354864465315252 -0.005805597651490027 -0.001027296560433993 -0.0004166850655377159
0.228 0.003052344823099708 0.0039443796010550786 -4.475054902393509 0.5024521339130543 0.0014539881691089335 -0.005956027803257576 -0.0009771833476058562 -0.0003944977482750722
0.229 0.0037125749435710045 0.0039031676900798257 -4.40255592287305 0.9050913494634089 0.0011172892332195418 -0.005953568777350693 -0.0012449261062810065 -0.00022406766061418748
0.23 0.004393916798169519 0.0037530185192113943 -4.286676850132906 1.3374598617619626 0.0005760306405065371 -0.0060822600066994335 -0.0013876116004147565 -0.00023863007844069457
0.231 0.005013623714492897 0.0035133795620479803 -4.134335043264359 1.7356594875202134 0.0001460005453546019 -0.0061525667280553755 -0.0015569245894275733 5.095041992484669e-06
0.232 0.005650381028803369 0.003173733854758208 -3.9642657620920465 2.119639223525204 -0.000375357159064743 -0.006248893346319269 -0.0015801842182622831 5.474979904167816e-05
0.233 0.0062773576936216826 0.0026203710240484184 -3.72191978056309 2.489110122768091 -0.0007710752155949481 -0.006384229998781928 -0.0016257072995835046 0.0002905432345372283
0.234 0.0066392656193044 0.0021908071618088015 -3.4809096133366992 2.833748126786405 -0.0013059918898911903 -0.00607291679582515 -0.001646005689589497 0.0004853727068779314
0.235 0.006904443959626708 0.0014922639491068196 -3.198459182295514 3.152561122297744 -0.0017022073085978392 -0.006134712868385104 -0.0018135548119852442 0.000634709232926807
0.236 0.0072830302619555625 0.0009932315282390886 -2.870931962777394 3.4404542695713825 -0.0023710431626805567 -0.0060897516650946955 -0.0017669185261540955 0.0008256881949327018
0.237 0.007450746347901316 0.00014967254782413938 -2.5414007305029025 3.6956015630418717 -0.002717855398557535 -0.005908192598423518 -0.0016526579847589195 0.0010208269004328783
0.238 0.007373085337241284 -0.0005406811525546774 -2.166089433189885 3.920957386314809 -0.0030648280272431564 -0.005814693120277703 -0.001673725610901716 0.0012219705344481998
0.239 0.007383620971922908 -0.001241675714224539 -1.7885990302714763 4.094397951756268 -0.0036385922533690497 -0.0056205414868830735 -0.001530802501732017 0.001385159028067666
0.24 0.007144714752461682 -0.002000827382046966 -1.3612536178630896 4.253553842062112 -0.003905258576906459 -0.005426306651661289 -0.0015433758137185138 0.0015454817020829062
0.241 0.007062795862148786 -0.0025519864676067454 -0.9871376584401538 4.376379701129155 -0.004394852856842183 -0.004994858834551314 -0.001145553499185378 0.0018343817882894974
