!Created with skrf (http://scikit-rf.org).
# GHz S RI R 50.0 
!freq ReS11 ImS11 ReS21 ImS21 ReS12 ImS12 ReS22 ImS22
0.13 -0.15286594404000844 0.10046190392957224 0.002465976946849764 0.0005864304552148682 -2.3017688448307184e-06 -7.165625218716021e-05 0.036658558570872135 0.03905980711402039
0.131 -0.14470144220855258 0.11552010470558013 0.002483236021493119 0.00013792482178340957 4.3115038864827666e-05 9.090240491529416e-05 0.040280024640412755 0.035414610038882584
0.132 -0.13427878748218167 0.12840369433658863 0.002530936281052674 -3.4458496629193954e-05 1.4914083921646897e-05 1.7440653140181357e-06 0.044307063968124574 0.031222634696801504
0.133 -0.1233795072368096 0.14084225112438606 0.0025418939765644165 -0.00040126421900858923 5.9450345305395864e-05 -0.00011531407206428188 0.047333997461475305 0.02724123418498095
0.134 -0.11089410057839229 0.15217399389412306 0.002449335680987409 -0.0005759929968426557 -3.609145018499751e-06 0.00017584882276094435 0.05009780232781444 0.022643466630710436
0.135 -0.0979437266006224 0.16391568213744734 0.00242595319538826 -0.0008246531373625302 -0.0001545494745707132 -0.00010973113375618906 0.052985855537076985 0.017089434329211894
0.136 -0.08450525233426429 0.1727529850085269 0.002297080372845913 -0.0011784214510642665 -0.0001434737601162068 4.20729320290416e-06 0.0546279886291684 0.011931604447169536
0.137 -0.06828354569348152 0.18064011496685173 0.0021001240678256484 -0.0013101142411906953 -6.438716106155087e-05 3.47550307698027e-05 0.05588828410538243 0.006498932182749816
0.138 -0.05238326228545326 0.18656444317259196 0.0019849983248153564 -0.0017151056847534445 -3.42039483903506e-05 8.108126639985702e-06 0.0567489018373645 0.0006950883752134277
0.139 -0.03430497104615057 0.19164844039776502 0.0017809471389206434 -0.0017804615271423848 3.105991485562867e-05 9.165250339798961e-06 0.05711200874173433 -0.005386054232230711
0.14 -0.01751894155934582 0.19488524530819504 0.0016443056408729445 -0.0020486193039917825 -4.222036562219438e-05 -8.763873784715316e-05 0.056616161322261147 -0.010947495123033552
0.141 0.00017385602259624533 0.19615928574866637 0.0014749965797816228 -0.00229313901716728 -9.613120246314419e-06 -7.352237914244962e-05 0.05551858654147856 -0.016673084979604312
0.142 0.01779847372646464 0.19814632470447635 0.0012505048718766563 -0.0022596022482098254 -3.7958377605623654e-05 0.00014469676770314407 0.053963688764965115 -0.02228463456092997
0.143 0.03508792715499707 0.19494949164375852 0.0010498471723884596 -0.002572170934324541 -7.072282113853957e-05 -0.00011926263517776742 0.05195164715656122 -0.027564146306329192
0.144 0.0514681192752521 0.19350573890884035 0.0006359054912022053 -0.002663130211682334 -4.446786170588275e-06 4.422156058077859e-05 0.04891684842457741 -0.03299725708413821
0.145 0.06981020994708921 0.19046755908300167 0.0003983256765567257 -0.0026188300367070727 4.712967568800024e-05 1.666057037388201e-05 0.045694979554245674 -0.038173068422735754
0.146 0.08644962650203687 0.1824604263237551 0.00014049451334891978 -0.002680795013086587 -5.291107774670101e-05 -8.972987955219715e-06 0.04182515002963151 -0.04282943627594941
0.147 0.10257112567373608 0.1763233108506786 -1.1765889981178983e-05 -0.002783512043945953 -0.00011271507191284098 -4.779030389726959e-05 0.037566488321300405 -0.04687885145874018
0.148 0.1192072952530861 0.16575615334705113 -0.00046887649313510785 -0.0028327327198109436 3.514039068533409e-05 -0.00013086018903334245 0.03282254296360404 -0.05078070350394042
0.149 0.13396462839680057 0.15616126251734513 -0.0006464652947790823 -0.002462264063584453 2.050714729201486e-05 -4.878991230538776e-06 0.027734374446459948 -0.054198631016821076
0.15 0.1468075007239573 0.1455120780150902 -0.0010396661913706143 -0.002540788378905586 5.876331136237339e-05 9.444882663017662e-05 0.02240829092484267 -0.056977875008137904
0.151 0.15987573129325341 0.13176392491977593 -0.0011523614718646023 -0.002442492654063903 -8.804276871981761e-05 2.585761678703279e-05 0.01673273409136316 -0.05885339611070917
0.152 0.17194573796769183 0.11771820773251292 -0.0015800481022032822 -0.0023928594369403136 5.9072405937145165e-06 2.5763308178295902e-05 0.010591610605740787 -0.06096692552589355
0.153 0.18308573243868928 0.10311993269112604 -0.001822556311666629 -0.0022569550646283037 4.960090823025284e-05 -3.6348095994243355e-05 0.004484540369187414 -0.06218209578295266
0.154 0.19171256970235778 0.08765273908400735 -0.002162072996927636 -0.0019757581978642404 -8.255279925791197e-06 -9.741736247255865e-05 -0.001532367725561282 -0.06259568723660966
0.155 0.19923528661673762 0.07038862708353506 -0.0020552854328095864 -0.0017356022384864035 8.64252946698705e-05 2.590025321389692e-05 -0.0073703471496956935 -0.06169510293496735
0.156 0.20611510820913237 0.053828165458568965 -0.0022184141148499275 -0.0014963392143497295 4.392109182959365e-05 9.256926086730092e-05 -0.013996862265378893 -0.06117867325741742
0.157 0.21067828718635923 0.03460240311543587 -0.0025868427804807657 -0.0013749962905443365 -8.363960680142597e-06 -0.0001264207465215367 -0.02005033132964574 -0.059748088079386905
0.158 0.21410819693688862 0.016814879857930922 -0.0026221618175521723 -0.0009519601318537574 1.041095561666851e-05 1.3884614212091144e-05 -0.025957638233474252 -0.05785539143502861
0.159 0.21630261414681856 -0.0024264189183158206 -0.0026280028105774246 -0.0007644380866969684 -6.484561495188163e-05 3.2485537190081804e-05 -0.03158069966541541 -0.05505419946007115
0.16 0.2155853526977076 -0.021160958739326732 -0.002833961561755393 -0.0004591602402351356 -1.7402369719480922e-05 -4.3097753268456214e-05 -0.036674683836557725 -0.05206650936525807
0.161 0.21393999848120082 -0.04031184955735331 -0.002865805117921099 -0.00024245866225108988 2.1959238284549103e-05 3.093492221323709e-05 -0.041974133772518595 -0.048206008641405264
0.162 0.2116239387497505 -0.05957121702271407 -0.002968024203946246 0.00027598838877872044 -3.6246170378878986e-05 5.9521194848890605e-05 -0.04668923438344643 -0.04423388966321042
0.163 0.20648031132068095 -0.07811975068066379 -0.0029658489629963746 0.0004345705990977576 5.012712325269306e-05 3.047519423123667e-05 -0.05111824385594451 -0.039669239778104534
0.164 0.19997185333313774 -0.0964297650364548 -0.002703128949036475 0.0007097041615921701 8.384415181927864e-05 -4.34469022056686e-05 -0.055141371913857574 -0.034456153331203374
0.165 0.19135439777162194 -0.1142859415981823 -0.002737963875780223 0.0010066964212219376 4.364262686210929e-06 -1.193498409881217e-05 -0.05838322337861381 -0.02900947190200217
0.166 0.1813496320191525 -0.13193776243580013 -0.0026282000975739006 0.0013135058655315101 6.266848696798754e-05 -7.230563019868492e-05 -0.06141757036503451 -0.02345117041175527
0.167 0.17035258974398032 -0.14812603271472186 -0.002338333044783537 0.0016235766076098915 2.2231420340768144e-05 9.395396521497288e-05 -0.06332987864835517 -0.017200783707827436
0.168 0.15762102584152488 -0.16368970296914837 -0.0023230095500569484 0.0018979784116682 -1.6790565468443907e-06 -3.757489738898218e-05 -0.0653616456522293 -0.010718022564664913
0.169 0.14364716200989058 -0.17813319456567286 -0.0021985018563712017 0.0020361691636170396 3.8395670092792595e-05 -0.00017836397753293612 -0.06649834158916478 -0.004267477086467963
0.17 0.12669854117541646 -0.19082644431539142 -0.0019167209720342183 0.002352488864869229 -4.8302049437267044e-05 4.0350985077874765e-05 -0.0663357725630794 0.0019452619404969073
0.171 0.11015413875298326 -0.20204025985837848 -0.0017313174962722284 0.0025891886362731965 1.2032192591643389e-05 2.069836261677759e-05 -0.06646434312915916 0.008704102170859963
0.172 0.0927182158239128 -0.2147570858104994 -0.0014541019135047367 0.002644489055706555 7.197697335410343e-05 3.0267594073071376e-05 -0.06570471885665483 0.015584921420040173
0.173 0.07372442713679905 -0.22275904140295574 -0.0010387803333885908 0.002791681386196481 7.441491332376938e-05 9.330183510612112e-06 -0.06419070000909773 0.02191677875689548
0.174 0.05459134674408634 -0.22931692131412879 -0.0007168741893951713 0.002902183943238506 -6.490753843137238e-05 -2.9772678250374093e-05 -0.061945911846080295 0.028179390285507637
0.175 0.03254576688069515 -0.23412260528554762 -0.0006281367386396924 0.002986170599454502 -3.230670230218585e-05 4.887523512492704e-05 -0.05922829289566234 0.03429245167567279
0.176 0.010536373903206579 -0.23797181747843046 -0.00016134215223794605 0.0031780799677748202 0.00011987860565397189 -4.435791561604272e-05 -0.055938833505921486 0.0402007561076569
0.177 -0.01071106196994054 -0.23788001045203394 0.0001608678132401724 0.0031475469858836583 -1.1084084355876672e-05 1.513841637754196e-05 -0.051799979898958695 0.04571554838190632
0.178 -0.032148368292409676 -0.23731140925237004 0.0004012663382455633 0.002986536233670934 7.08969387866861e-05 -6.598155343987131e-05 -0.04756339570480317 0.05072743862199548
0.179 -0.05306018373644016 -0.23501325759544148 0.0009674497974829177 0.0031520839070088656 8.608239480535304e-05 -6.522731364683724e-05 -0.04237035280463214 0.055436917950655286
0.18 -0.07441028278239493 -0.23056138528244013 0.0012191547823868277 0.003109293855058625 -8.417223215781272e-05 -5.068518834745224e-05 -0.0371105683776229 0.05986962332831024
0.181 -0.09553018746780723 -0.22214371313269665 0.0014885303033079834 0.0029817108510130025 8.785749013079859e-05 6.635104646689532e-05 -0.030753632004608795 0.06369228228446981
0.182 -0.11727956803486565 -0.214952496146101 0.0017110720444730538 0.0027464056198154433 -6.27068833888256e-05 -5.2457248483315497e-05 -0.02487964400738581 0.06683518314423573
0.183 -0.13640725031934212 -0.20318685809350487 0.001968090736174207 0.0025753928482467915 -9.623718830813073e-05 2.221810558370831e-05 -0.017712716883721932 0.06897476397799851
0.184 -0.1546742113650848 -0.1909002742399353 0.0022936042717860844 0.002364266638512049 -5.112101423871769e-05 -0.00012529752277413324 -0.010978421963336604 0.07129562377220426
0.185 -0.17171729975682865 -0.1777699541271213 0.0025596080459866183 0.0020623485463479186 7.882264492126873e-05 -9.468854608895556e-05 -0.003828964724259759 0.07193491082100179
0.186 -0.18889370886072238 -0.1617317894656574 0.0027151998927228364 0.001849120229062605 0.00011261034629286345 7.361122295401567e-05 0.0041423502292015175 0.07303707559039622
0.187 -0.20402661008844908 -0.14481838230383945 0.0031432981482860597 0.001562778180831314 -0.00012227888776218372 -2.9568257424772314e-05 0.010634303994058186 0.07243906933815188
0.188 -0.21543401720549554 -0.12481209866782894 0.003187097261169425 0.001249974890795716 0.0001292330107586276 8.95412415210849e-05 0.018144837994635135 0.07126216573460441
0.189 -0.22811398099779673 -0.10625771510501915 0.0032260329771011255 0.0009100134764241283 1.4331236121035415e-05 -9.194382792788967e-05 0.024968056246098883 0.0693336459176006
0.19 -0.2376553982254676 -0.08521727533645367 0.0032936783003349765 0.0005837747695309581 -4.0419565924522394e-05 1.2798794715902291e-05 0.031966091306454364 0.06655063001571514
0.191 -0.24523111033177208 -0.064135075791262 0.003434357461638148 0.00015015255208177382 -2.532953767974819e-05 -1.57174134434182e-05 0.03946661232500618 0.06377247648656136
0.192 -0.2502621525801356 -0.04194968438350608 0.003400659925522936 -0.00010730083541786758 -3.697159079155361e-05 -3.270071435201879e-05 0.04484379357169327 0.05938327483043561
0.193 -0.25413640539105764 -0.018467521568210264 0.0034717207809487546 -0.00044012542491445457 3.622278853863234e-05 -7.206103445851638e-08 0.051771811540251934 0.05488116061591258
0.194 -0.25581100043928073 0.00411629129314193 0.003221974392440275 -0.0008585596277771387 9.968071623201652e-05 -6.605055038697874e-05 0.05707370890573368 0.04942585843918893
0.195 -0.2547511517527668 0.027161806499266597 0.003248927062445226 -0.0012182598338753923 4.933694733456556e-05 5.9255463040612425e-05 0.06231519635953519 0.04401136594065326
0.196 -0.2526698046784352 0.04975791959856328 0.0030357022662751945 -0.0015817994228878981 7.006916236046761e-05 -4.138657615806621e-05 0.06647013043386643 0.037759690132220046
0.197 -0.24814016826260865 0.07298750635979183 0.0029586713725828677 -0.0019337388224431402 9.280960709835279e-05 2.5434557608222282e-05 0.07040217740902595 0.03077739122684972
0.198 -0.24170917919341828 0.09582145330776111 0.002637459154944071 -0.0021032194433652177 -4.3901251377731536e-05 -3.309135202110819e-05 0.07366560141618042 0.023602694483789908
0.199 -0.23293978527750708 0.1172918470429825 0.0025180205398626044 -0.00245746794090988 6.526062024286806e-05 -8.852240603762718e-05 0.07631398920662132 0.01573361374820733
0.2 -0.22282706438730285 0.13721818525480528 0.0021943829391375615 -0.002810458923397533 4.519568486270612e-05 7.6233611201595185e-06 0.0780694917520606 0.008235369100637312
0.201 -0.21178588249520586 0.15675800344741264 0.001820497337961397 -0.002961030444008905 0.00010986278111783494 6.984297974272799e-05 0.078000831705693 0.0005720953183057448
0.202 -0.1970920719246671 0.17668543244764193 0.0014739255579350407 -0.003261300032138324 -7.217195718829177e-05 -9.559901627664822e-05 0.07816706360443841 -0.007613707530259192
0.203 -0.1799981341022614 0.19402974991761812 0.0012357567001668236 -0.0033328610544899988 -7.343783243933983e-05 -9.62892164890733e-05 0.0773148290426517 -0.015385040371695621
0.204 -0.1648795336851073 0.20961859909177236 0.0009857468482932792 -0.003324496084805945 1.8123933686161107e-05 -4.4231940953287696e-05 0.0757336327953679 -0.02361644050558114
0.205 -0.14634870466497973 0.22371749114607756 0.0005891627243262229 -0.0036036561566814493 6.53353798935941e-05 5.700340128786117e-07 0.07324753377219928 -0.030997479964575105
0.206 -0.12658592914573838 0.2379560826473503 0.00021998016958931418 -0.003556846441139139 4.1187590339606115e-05 4.9743036428468926e-05 0.06999162960411782 -0.03844063780902437
0.207 -0.10533050726976007 0.24866144274971083 -0.00010730727479976678 -0.003427972128908514 1.1718071050463911e-06 -8.724215477690466e-05 0.06600263646903735 -0.045714376520821304
0.208 -0.0839281385955738 0.2561632567167377 -0.0005397126588350507 -0.0035273596935081544 0.00010676367763774611 8.382984207799994e-05 0.06146615216118137 -0.05190199494289636
0.209 -0.06219078632359682 0.26573844950589276 -0.000931844144012657 -0.0034569411777347595 3.6421911643416426e-05 -0.00011783648847857018 0.055866636601971754 -0.058219834805333666
0.21 -0.038434722580551126 0.2718632332752698 -0.0012366342010459114 -0.0032822639308706615 -8.592328480377991e-05 -2.4169645378017854e-05 0.04992545980998633 -0.06408609419519125
0.211 -0.014085878304840746 0.2763441193661604 -0.0015454186418478325 -0.003118776140541626 3.778508201693207e-05 3.797101582813811e-05 0.043418887914436516 -0.06888239311574819
0.212 0.008340892969536898 0.27796631686816986 -0.0021072279810548577 -0.0032390420234871004 -4.295432477933047e-05 -6.040248017051949e-05 0.03676222753095386 -0.07270046582172005
0.213 0.03402386616111344 0.2764788076440597 -0.0023809371866953533 -0.002783105437187494 7.206554465222758e-05 -9.30542804486319e-05 0.029072570738538275 -0.07675153226137241
0.214 0.05930336873863902 0.2749422780474609 -0.0025544017284696878 -0.0025301361734933405 -6.165997904744899e-05 4.394359099837794e-05 0.021351483759680344 -0.07903783991895985
0.215 0.08390115957058893 0.26845994342618207 -0.002850912563670953 -0.002371736648732833 -0.00010622385888163185 6.808002124955966e-05 0.013429810233984228 -0.08110231814763873
0.216 0.10876237514645147 0.2632861056604022 -0.0030565599313624324 -0.001920397808650322 -3.872425144007372e-06 -7.838882496644644e-05 0.004929451782132066 -0.08301035025407769
0.217 0.13077620248169278 0.25372642573251825 -0.0034597122585496875 -0.0016052569450988228 -4.049741672587621e-05 -5.041647326164081e-05 -0.003331467943462456 -0.08305928317557446
0.218 0.15386814067131271 0.24221641759898993 -0.00349931356177992 -0.001308339729462916 5.352501445222799e-05 -7.80331430577853e-05 -0.010841281163294443 -0.08213134963692642
0.219 0.17661183843461134 0.22975934207183848 -0.0036072841910385254 -0.0010210772950545364 7.059897902225624e-05 2.2641370060318325e-05 -0.019524259841159866 -0.08166771549946036
0.22 0.19574806486608345 0.21350460452291453 -0.0037173763720374647 -0.0005022993215649871 4.458141505796901e-05 3.447488603381885e-05 -0.02782987489102505 -0.07894817762154431
0.221 0.21600071792342837 0.19629532639267933 -0.003699023523495199 -0.00023079868104543245 8.21463703474276e-05 1.152600201746905e-05 -0.03542648217341752 -0.07624358695222193
0.222 0.23327671522287324 0.17844425598929986 -0.003753355158096145 7.0634586485411e-05 5.295649007254626e-05 3.981508297162177e-05 -0.042617167817323595 -0.07239473236933515
0.223 0.2502360059987911 0.1571725208630925 -0.003729420570269578 0.0006350742474069772 -3.929942841891322e-06 1.3631650195658284e-05 -0.05083848220919378 -0.06921611908152953
0.224 0.26566795877017846 0.1347377798338582 -0.0036082791549992854 0.0010453148915054399 -4.910664146711965e-05 3.7025509065737154e-05 -0.05686788233317709 -0.06355790305635176
0.225 0.27752777579551463 0.11166106911089184 -0.003489074532694118 0.0013975173270331924 -4.133105302806433e-05 -8.031644635501672e-05 -0.06329508731605595 -0.05817415206056435
0.226 0.2872628913211003 0.08633885758804657 -0.0034058062794546525 0.0016502140098317622 1.0153934378748566e-05 -1.864056287929881e-05 -0.06873201834778385 -0.05128085252081115
0.227 0.2948861852237576 0.061837344606719906 -0.0033263721798526334 0.0020899174197107993 1.2403764001832406e-05 -9.386974533313663e-05 -0.07396504859747674 -0.04458006345488066
0.228 0.3008804312875777 0.03467326367081212 -0.002966834442281215 0.002535315584185175 -3.4401350229397954e-06 1.5358797381657553e-05 -0.07857093508195327 -0.03680792834176533
0.229 0.30348393687081626 0.008541977018398548 -0.0027831568778839367 0.0026737636275601033 9.031640207596216e-05 4.5168568415393034e-05 -0.08194476321258948 -0.029534750815453495
0.23 0.30466928780314434 -0.019098959852640058 -0.0024813450627047384 0.003034480383865558 4.117145552336955e-05 -0.00013272154787627162 -0.0844478462949411 -0.02158190461926267
0.231 0.30314639644512764 -0.04646300792984794 -0.0019977028126380945 0.0033078554639457618 1.676988319154058e-05 -8.013097632254961e-05 -0.0866061066205203 -0.013414589010577292
0.232 0.298317768785018 -0.0731029886165498 -0.0017730789050671078 0.003491624874440495 -4.891536213124904e-05 3.73331351564176e-05 -0.0884698485950971 -0.004660701318283491
0.233 0.2930494159168801 -0.10015693586996086 -0.0013692189758045014 0.003606568200492137 -2.3649822344842422e-05 8.163584167774876e-05 -0.08828873640464792 0.0038185857508381024
0.234 0.28202112165778603 -0.12452281691607364 -0.0009230492642097315 0.003802494937243274 -1.3227514407063165e-05 5.046550525120435e-06 -0.08812687933592156 0.012630595444870501
0.235 0.2716547474843753 -0.15101072274626665 -0.0005773768923363395 0.003845383390282932 -3.970121441601911e-05 -0.00010421016199070654 -0.08681807214644395 0.02131954301713867
0.236 0.25802389305164397 -0.17444912922744502 -0.0001763101666004336 0.003886159316459816 4.4828358397064974e-05 -2.3793534044624987e-05 -0.08465305355224813 0.029821425825870152
0.237 0.24117879207693355 -0.19565691706639662 0.00030827303445835817 0.0039935515866832486 1.3591266118951617e-05 -9.704290104211842e-05 -0.08148817372411458 0.03818811037241627
0.238 0.22327178223543862 -0.2171163975983399 0.0006407303392768363 0.00394950511952388 4.7694648990563494e-05 1.7569629889268895e-05 -0.07800125704473124 0.045989240421674724
0.239 0.20375446481096723 -0.23730171698426034 0.0010105007211264395 0.004006321224179193 8.163729965446783e-05 8.064105663225691e-06 -0.0730680174274733 0.05371368706455815
0.24 0.18351340907934768 -0.25486123451954584 0.0013052084729500936 0.003720421382056572 2.393641638950555e-05 9.907722970004453e-05 -0.06789029813225159 0.060944564541609285
