!Created with skrf (http://scikit-rf.org).
# GHz S RI R 50.0 
!freq ReS11 ImS11 ReS21 ImS21 ReS12 ImS12 ReS22 ImS22
0.13 -0.18339628408311026 -0.006454414407806846 0.0001680825576811649 9.639042231090058e-05 -6.157179984022188e-05 3.598641254347277e-05 0.036974438883858554 0.03758187321558861
0.131 -0.18476317797414193 0.009001072487589537 0.0003408726758606704 0.00021098662379170994 8.121523753828281e-05 0.00013786536662484047 0.04125186001314322 0.034408842971803986
0.132 -0.18457507090549086 0.02519646997463719 0.0003272929116557439 0.0001535029944381567 5.2437174720476136e-06 2.4819480211354192e-05 0.04505748600387874 0.030177595285712077
0.133 -0.18313401314568564 0.04107166063783851 0.0004804964698904189 9.59447627022305e-06 9.160394695151184e-05 -5.404931891416671e-05 0.04804426170452374 0.0256496688173923
0.134 -0.18124572520945026 0.057472771136113265 0.0003968975297664449 2.375334395068193e-05 8.346387814129397e-05 9.378974710691821e-05 0.050868669446670005 0.020793717928739477
0.135 -0.17631395910207312 0.07351091418468121 0.00034862698469221914 -4.6482601238694356e-05 -4.061372385184476e-05 -0.0001313031435535471 0.053370515847682126 0.015364803841542764
0.136 -0.17080283511453576 0.08852987101677524 0.00036579497042490245 -8.197829600642841e-05 0.00014446010594106105 1.1644916048247498e-05 0.05476329143539577 0.010256980014687478
0.137 -0.163062201203637 0.10378832923112467 0.00032189839023721406 -4.707364882531382e-05 -5.694787474171689e-05 0.00014393711707591942 0.05604758758696145 0.004508616500946029
0.138 -0.1552400442831382 0.11751363860057935 0.00039845584390785953 -0.00016667130632288849 7.154378492041029e-05 5.4239210798193415e-06 0.05694403085983343 -0.0010346778348489924
0.139 -0.14675330873163767 0.13260905962395902 0.0002806322001538113 -0.00013030234027472032 4.310077208347956e-05 8.422770981195797e-05 0.0566780771338751 -0.006739885591604905
0.14 -0.13459046048708936 0.14464661771572573 0.0004091542615009332 -0.0002832623218856888 -8.056748237540343e-05 -1.7030349447993174e-06 0.05599028424876332 -0.012659276506450216
0.141 -0.12305392943474995 0.15697175441200278 0.00018370399932228062 -0.0002816796142812262 7.702902543694058e-05 -6.2373840038791095e-06 0.05478927550504559 -0.01876836942309216
0.142 -0.11038035059968698 0.1677836406133694 0.00012547454254877255 -0.00022112429437344422 2.2954685526984e-05 -6.657676425561563e-05 0.05306667116518169 -0.023924379354359617
0.143 -0.09547941875866155 0.1762808802293202 0.0002356110642565609 -0.0002627333270989309 5.3196136785459584e-05 1.3801478711620244e-05 0.05072990968907437 -0.029415880255149702
0.144 -0.07980584395221316 0.1850223031796728 0.00025900415783373075 -0.0002879097367362576 -3.188596372415379e-05 0.0001162067509001609 0.047870389923635515 -0.034637961229207065
0.145 -0.06351201141772632 0.1936711677751538 0.000253662753842883 -0.0004392184587397448 -5.069419857207844e-06 9.647858531446857e-05 0.04421257920648113 -0.03946935966538763
0.146 -0.04826485993253961 0.1994197348718573 0.00010134713929749151 -0.00040169441379576357 1.295891215900241e-05 -3.262385665661855e-05 0.04042888012528154 -0.04392458736857923
0.147 -0.03253956064083171 0.20580993940957118 0.00014305724532027013 -0.0004207732177292386 0.00011726278555337805 -1.4155173066395026e-05 0.03614252811629567 -0.048133227041424816
0.148 -0.01573604898422472 0.20716688951989587 -4.297347943946535e-05 -0.00028305244287365935 0.00014196822616215692 -7.97764309823641e-05 0.03100082727631202 -0.051741753038761246
0.149 0.003954176575446019 0.207855763536532 9.293395487918786e-05 -0.0005849549806573713 -1.6205928022515793e-05 -2.1460295862453173e-05 0.025624517670457966 -0.05476662550412548
0.15 0.02104272954795171 0.2084053766310601 1.0280266146351937e-05 -0.00043572280642834016 8.756407514386427e-05 0.00012635180368144325 0.020274836955185577 -0.057540962530489945
0.151 0.038540426787923764 0.20684352556834404 4.3803540666803605e-05 -0.0003894148487171321 -9.822027282562806e-05 -5.388548689973632e-05 0.014519187167663556 -0.0594755062582809
0.152 0.056836201057809746 0.20386486627286307 -0.00014805694445942452 -0.00044735543295079493 4.139451573978933e-05 9.86581286950321e-05 0.008141002710939245 -0.06087467471129067
0.153 0.07277075290713902 0.20014826026320445 -0.00021253959959202195 -0.0003464618536817159 2.4286144882880603e-05 -9.609360539335353e-05 0.0024134501371434335 -0.06153334618803814
0.154 0.08991138544902369 0.19405767201609514 -0.000238297519717061 -0.00039775986293538344 0.00011500872680137124 -4.397237514090123e-05 -0.0038429864104782925 -0.06206833859186355
0.155 0.1063213874212438 0.18714760529714777 -0.00024543066789746524 -0.0003470755049312144 -5.0286757569182366e-05 -4.39912476873908e-05 -0.01013372595124658 -0.06171937896414109
0.156 0.12201446837364721 0.17719550479189422 -0.00023920631782700874 -0.0003424163994201852 -7.250812133294103e-05 1.324973468116886e-06 -0.016146845552842442 -0.06042560318331032
0.157 0.13635283293641193 0.16739935484882196 -0.0002647870837948417 -0.00022872194396510436 7.670179408472871e-05 -9.823592672970214e-05 -0.021768981710082982 -0.05884673838094893
0.158 0.15062865219846486 0.15679141007505581 -0.0003002197471121875 -0.0002494132453734802 3.135631626096822e-05 -6.31982603186534e-05 -0.02799522328461448 -0.05657409795893692
0.159 0.16465645741845059 0.14394369894245884 -0.00033517027564527037 -0.0003611994241529038 4.575154871687952e-05 -5.763847074056412e-05 -0.033555952891985596 -0.053864042683433005
0.16 0.17633517928884632 0.13117082555326212 -0.0003721199055478014 -0.0002596547928145776 -0.00014813608195031396 -3.612024402588347e-05 -0.03896469296813364 -0.05025986065449067
0.161 0.18741047280921178 0.11569500364313075 -0.00033527271270057907 -5.211831120854014e-05 6.496675208851998e-05 5.555965991106438e-05 -0.04423350863417401 -0.04675263306396467
0.162 0.19754803895405657 0.10079999662342229 -0.00044239077570819334 -0.00014300824309080017 3.853252695314465e-05 7.527116894706833e-06 -0.047838786557577014 -0.04218483896942668
0.163 0.20643304796987277 0.08448685063700787 -0.00031789593607976324 -4.653538091882438e-05 4.027223063102069e-05 -0.00016560562998731512 -0.05243873008933619 -0.03750136124184833
0.164 0.21392659555310645 0.06779169165456639 -0.00038695946798924396 7.133673462163197e-05 6.783244096013959e-05 1.9780134453792755e-05 -0.05616143134315948 -0.0321497192138317
0.165 0.21984833423943542 0.0490695376147558 -0.00032822068089002714 1.8637720930922593e-05 9.138288339733151e-05 -3.8971843930603064e-05 -0.05896881110220114 -0.026893058996789825
0.166 0.22440618384903155 0.03129449517389991 -0.0002255028239313236 -3.3921699001272624e-05 -9.286148422326926e-05 3.837550943985604e-05 -0.06193151046563723 -0.020750167409353867
0.167 0.22756662353722976 0.012278762649406007 -0.0003230978805698717 3.306836236410193e-05 2.2707345190372598e-05 -9.658220836618295e-05 -0.0638533864977609 -0.014723375550795323
0.168 0.2294248343356132 -0.00695843611782761 -0.00026106053166225006 0.00013391499603740713 4.7400868904674754e-05 -1.8957870352939826e-05 -0.06552160908500947 -0.008135745390983306
0.169 0.2291197243789894 -0.02566489985650899 -0.000257081376560066 9.671856101181334e-05 -4.315555094455113e-05 -2.4900179623590618e-05 -0.06621401992602753 -0.0017971198234994544
0.17 0.2270494139931596 -0.045090526885275095 -0.0002920750753953446 0.00019446780613287365 3.778585703247191e-05 -7.533598427617841e-05 -0.06648675398208213 0.004612767912799158
0.171 0.22398204015177978 -0.06456060042512235 -0.0002991887576906929 0.00020840174905152332 9.560442923505344e-05 -6.044043588264306e-05 -0.06586082507164542 0.011427937228190454
0.172 0.2190390386205216 -0.08343076755850531 -0.00017295501851314113 0.0002847145905840261 -3.245212819155853e-05 0.00010067080401828872 -0.06478378816980183 0.01787104146616294
0.173 0.2119290147032647 -0.10087220778857763 -0.0002852282332940659 0.00022605644750613326 2.178332691715674e-05 5.439550872972696e-05 -0.06299862158946243 0.024271649765359216
0.174 0.2034258811752344 -0.11956561276603753 -0.00023829664992031232 0.00023758288132807483 1.4710203970731635e-06 -8.989412103708597e-05 -0.060673897259420434 0.030696372942243685
0.175 0.19436012211115575 -0.13792720699688918 -0.00022893115889924465 0.0003926162480292419 0.00015171266971717787 -5.312844075334707e-05 -0.05749765575635792 0.036519922460001776
0.176 0.18207583229657723 -0.1532351238916088 -6.362451406059147e-05 0.00033902852468535046 -0.00010825342630270911 4.633459071688265e-05 -0.053951375695458936 0.04225815906386263
0.177 0.16975862582464138 -0.17198370612820474 -0.00017281891599177295 0.0005113979675554552 -4.189672116415801e-05 -4.690267563565704e-05 -0.04991441204697522 0.0477174814385696
0.178 0.15661685982950055 -0.18536178447051976 -6.734998793214242e-05 0.0004536105854451762 -5.4566046639724484e-05 4.623189908484881e-05 -0.04496294262074107 0.05263030856778354
0.179 0.14017743676342923 -0.1979739696616467 -0.0001087080280289637 0.0002737251353805095 7.147838757250924e-05 -0.00018358401761268004 -0.039836273275685966 0.05721527944438634
0.18 0.12456164852101766 -0.21159564724750823 -1.1454970503789997e-05 0.0004329358329601422 3.622650067488647e-05 -6.896361234180124e-05 -0.0341734872049201 0.06138385028361622
0.181 0.10675972248074182 -0.2226533002355667 -3.754978465676374e-05 0.0003701225102659469 -8.380054133271851e-05 -2.365919250400823e-06 -0.028073565301850026 0.06481840231241018
0.182 0.08680109779372047 -0.23119855520881977 1.9549919571258812e-05 0.0004322132991236474 9.250541984321213e-05 1.527513612979672e-05 -0.021144579392784753 0.0677215235388476
0.183 0.06756670604219 -0.23976116541411602 0.00010924711219450646 0.0003411276753735641 0.00010509800651731891 -2.608499067399471e-05 -0.014632453008216001 0.0697517215054314
0.184 0.04695083628797878 -0.2459244976635312 6.588934835834642e-05 0.0003934096781773281 -1.6684270776905507e-05 2.3635037189303713e-05 -0.007488553167688079 0.07115549152189704
0.185 0.02448092958863086 -0.25013237236678715 0.0001691924189364939 0.0003048879617944403 2.6591687411052967e-06 -4.437055202631674e-05 -0.0008084127524097784 0.07229925248780662
0.186 0.002565122007297308 -0.2525046713647441 0.00027299405886524935 0.0004179991784779328 -5.571514446073106e-05 -3.0428150107156445e-05 0.006732933335133089 0.07192830201964448
0.187 -0.017994374157941254 -0.25335959877722114 0.0003342090524895805 0.0002725287252958975 -5.785752849889264e-05 4.50509940136083e-05 0.01408075196219517 0.07129665688420218
0.188 -0.04065244797960458 -0.25069256152287717 0.00023773205714430932 0.00039167998436495633 -3.697413615895413e-05 -2.1535662637933314e-05 0.02113389839229043 0.07004717209424094
0.189 -0.06106227221648033 -0.2485132700843631 0.0004107009256799907 0.00024207222059957666 -7.314786826970616e-07 -7.820173128011416e-06 0.028772943425760988 0.06765652394505295
0.19 -0.08390716930651798 -0.24266252594353646 0.0005196583209024296 0.0003099562269357034 -9.114413808701866e-05 2.3730653120938796e-05 0.03538478847633447 0.06529269959978493
0.191 -0.10454364871757382 -0.2364992249483986 0.00045318811310896543 9.55089750247436e-05 -1.9518376936943828e-05 -0.0001433451814230894 0.04235936997854579 0.06197663042415448
0.192 -0.12539427027669967 -0.22545539748417148 0.0004051227112102191 0.0001952803423465798 -1.8828622405203894e-05 -1.4739495069845025e-05 0.047897751880872697 0.057371653014312955
0.193 -0.14475909057084488 -0.21604094662344062 0.00043194238102735706 6.311734180381556e-05 -4.208533831088517e-05 5.563993418223053e-06 0.05410878406331118 0.052216611429339393
0.194 -0.16235609104228663 -0.20291422563757525 0.0004963303741980897 0.00013801818480512707 -1.8962471932179034e-05 -3.785815557233312e-05 0.05897683281278808 0.04708980430308655
0.195 -0.18185869397746346 -0.1871931593113954 0.000412722153494129 2.2378513417865854e-05 -8.102592941140022e-05 0.00011901995816062825 0.06460335742470269 0.04059254108778979
0.196 -0.19656351044380194 -0.17242899324016886 0.0004925651739492141 1.4596515647827067e-05 2.796026361156894e-05 -4.250335576959713e-06 0.06770955885147904 0.03378035754545433
0.197 -0.2124051031992893 -0.15560830589108463 0.00044958990750578793 -0.00013529448990086892 -7.732413293619165e-06 1.9669189346922728e-05 0.07177118740827108 0.027176283964131336
0.198 -0.22602580616395457 -0.13698721002741032 0.0004716353111133012 -6.288335974887724e-05 9.987407455084573e-05 6.253139790865439e-05 0.07433356644511455 0.019792064250496875
0.199 -0.2360905544407182 -0.11726860188047565 0.000362106464689076 -0.00015472585115203853 -2.63892901717754e-05 4.575269685658325e-06 0.076423798251729 0.011913471489929781
0.2 -0.24691956331149542 -0.09687548506188948 0.0005286298948233523 -0.0003167873335929862 -2.290142125803253e-05 6.659904455795076e-05 0.0780184323914595 0.00422279330330433
0.201 -0.2549573673151803 -0.0753327773213549 0.00034106411360828226 -0.0003447814780056651 0.00010188519496489723 -4.971637820928117e-05 0.07803607227543058 -0.003805668117879312
0.202 -0.26194673157426446 -0.05370294486969785 0.0004327169121059287 -0.00011193574308359131 -0.00012567330251489242 1.9185123156509486e-05 0.07773328929280265 -0.011982608112806666
0.203 -0.26546347105970336 -0.03130956554412878 0.0004207936631843971 -0.00044330292541574227 -1.6187048748473597e-05 9.926423333275277e-05 0.07626622135439728 -0.019670401634455346
0.204 -0.2682475260835704 -0.00815909259661661 0.00034630623079736473 -0.0003691920728433317 3.341653561627215e-05 -3.208994333030842e-05 0.07413020220821269 -0.027468717510042012
0.205 -0.2690661983922968 0.01446907824122728 0.00033691324262836704 -0.00036030897505842186 6.176389614204555e-05 -1.3235086197289941e-05 0.0711839640800564 -0.03501660543779935
0.206 -0.2672763435347219 0.03730312727964526 0.00023861870796715578 -0.00038326378987033034 -2.4615163002025378e-05 -6.240188204417217e-05 0.06758008151966977 -0.04209910355121558
0.207 -0.2644467021726714 0.05949713304771805 0.00018427686302062863 -0.0005836189862067233 6.825422534919808e-05 -3.3324378825795496e-05 0.0630224830607842 -0.04906235454419439
0.208 -0.25857333883990224 0.08257566995750122 -2.4560647315090843e-06 -0.0004503063933839399 9.926907537733666e-05 -3.679539545219037e-05 0.0581762289416723 -0.055282609123538794
0.209 -0.25200094806687445 0.10486561967409432 9.23781203296323e-05 -0.0005214075469545209 9.229238403829421e-05 -8.0238167635633e-06 0.052315369507412966 -0.06108457214094834
0.21 -0.24299387244854062 0.12565355729951305 2.2709419923524906e-05 -0.0005160940624595248 0.00015634166540691143 -1.434764238156788e-05 0.04628239523125971 -0.06615569103102109
0.211 -0.2335624006488704 0.14607886654958105 0.00012825040372071176 -0.0006039781149437036 -3.45797857707363e-05 -6.612965536296468e-05 0.038888820416465804 -0.07094229604277766
0.212 -0.22041367377338947 0.16581106847374913 -5.790941759133246e-05 -0.0005822661865489549 1.0355575171070958e-05 -4.1234411652277e-05 0.032269370349397 -0.07475741867087393
0.213 -0.2070905268400747 0.1844805392369688 -4.4633245230160225e-05 -0.0005042208499850616 -4.676394115282911e-05 -0.00015446328388658818 0.024243037245705635 -0.07788779632797507
0.214 -0.19136470404478303 0.20303800792616603 -0.00010981672580081162 -0.0005464374050317505 2.7034390057984724e-05 -0.00012558607075395642 0.016962584479707735 -0.08066765931934271
0.215 -0.1756082466523205 0.2194155620703252 -0.0002547460088873706 -0.0005583836847625243 -3.214696171436095e-05 -5.75404793083828e-05 0.008936636444923741 -0.08185768108029551
0.216 -0.1547803072609068 0.2346461411973508 -0.00023308416954649058 -0.0005184656216180501 0.00011378923684272697 -1.541295298947429e-05 0.00017437138285598776 -0.08250408819524915
0.217 -0.13762814343986954 0.24780939627158546 -0.00038841197171456777 -0.00045982694937593533 -3.598704492584355e-05 5.396189146596308e-05 -0.0076041284539048 -0.08269325872979884
0.218 -0.11652579370761934 0.25929110556515256 -0.0003047348405635993 -0.0005024191461689908 -3.593678544714486e-05 -5.210549538403676e-05 -0.016581388614195825 -0.08195764096658824
0.219 -0.09611772155689406 0.27290543182533317 -0.00040713427010011667 -0.00047237231415415943 -0.00015413109053546184 -0.00012737386663117263 -0.024760557042974404 -0.08012765312662895
0.22 -0.07239824255189661 0.2796286254883042 -0.0004495920108348272 -0.0004777998230617743 -2.8701245706710964e-05 -3.7308246561266424e-06 -0.03272209431387661 -0.07745520720496334
0.221 -0.049324758799435056 0.28426558932937773 -0.0004837282180644766 -0.0002572028559056829 8.233832574781289e-05 -1.2896569569290603e-05 -0.039830399949667875 -0.0738259088861769
0.222 -0.023760181424895804 0.29074829436770416 -0.000522068200345075 -0.00035245025203223756 1.9097092299218934e-05 -7.534567907168783e-05 -0.04779643583588758 -0.07016761460505956
0.223 -0.0002997148016091504 0.293075408271175 -0.0004909608531883857 -0.00011645413678658315 0.00011966270820283849 -0.00010361368520407585 -0.05492587745614303 -0.06551251724109211
0.224 0.02467563059001695 0.2935662139249538 -0.0005652501399541775 -0.00014003250620109293 -4.955326756982851e-05 2.595057678319289e-05 -0.061259296480388734 -0.059659887008266924
0.225 0.05013462957358435 0.2923634478710882 -0.0005009239264474297 -7.919852912760546e-05 -3.76906083876042e-05 -0.00011922748607608012 -0.06650288719422454 -0.05361317200321044
0.226 0.07695651981466947 0.2879908718685412 -0.0005013409747332532 -4.853695376020866e-06 8.674439436171926e-05 -9.392302433813343e-05 -0.07187803695340668 -0.047083276093155976
0.227 0.09806856794193572 0.28311772887038883 -0.0005534686905495605 0.00012349306160081255 -2.5191543677689477e-05 2.032587899537062e-05 -0.07652156106836235 -0.04014011813177778
0.228 0.12442464997475867 0.2734200696126535 -0.0005509781960886696 9.150718461685958e-05 2.8471633418645466e-05 -7.20776267677122e-05 -0.08009087000142759 -0.03224453826999847
0.229 0.14704524045311695 0.26366337209159807 -0.0004173154042207519 -1.024451815844891e-05 -3.298698768296051e-05 -5.0712204857823974e-05 -0.08299063867362677 -0.024165012255988924
0.23 0.17057450305672808 0.2530545324006233 -0.000362732613789896 0.00013146403024966248 -7.90732373227998e-05 -7.439758235366287e-07 -0.08576291132375773 -0.016100933457152942
0.231 0.18979366635724856 0.23800324044332394 -0.0005783236143464583 0.00022208811719921038 -3.626128405969082e-05 -5.18165501175525e-05 -0.08722858202867788 -0.0077274011904357775
0.232 0.21213260050195334 0.2220356017914761 -0.0004322780720008036 0.0001995688715079087 3.686381141674149e-05 6.89178653647266e-06 -0.0878638478945311 0.0008266839806947251
0.233 0.23448468847715376 0.20460752650434746 -0.00043316846973316463 0.0002338165442593885 7.154007498360922e-05 5.985960860200842e-06 -0.08779806290427405 0.00984570623032325
0.234 0.24779548329820117 0.1849192768550331 -0.0004765082443797748 0.00044132389090490256 8.924034543167163e-06 -0.00010224303031538653 -0.08699393426937756 0.01831763136187066
0.235 0.26705546753600407 0.16305134153053458 -0.0004076441833020442 0.0004049848515111528 3.297015682252914e-05 -1.745780673934826e-05 -0.08519804196296249 0.026837297694349452
0.236 0.2806157123938563 0.14040584473764398 -0.00027938335170044174 0.0004388080461614883 -1.2449564281209833e-05 1.7782400600358265e-05 -0.0822838098241841 0.03521908526172871
0.237 0.2921503670579603 0.11581799602855909 -0.00028284872290862975 0.0005057904586579235 -3.366900750194933e-05 -5.41267952917613e-06 -0.07873950000510398 0.043337752738785575
0.238 0.301902112583417 0.09201385495241939 -0.00018765323353023332 0.00045913213243256693 -4.6619764383766666e-05 -2.55764785690432e-05 -0.07445687642254355 0.051187742861443855
0.239 0.3094000103325814 0.06628879868081233 -0.00013810693144385348 0.0005097186264867418 8.448657415271507e-06 -2.6808463517728748e-05 -0.06882363014702751 0.05829573079592125
