!Created with skrf (http://scikit-rf.org).
# GHz S RI R 50.0 
!freq ReS11 ImS11 ReS21 ImS21 ReS12 ImS12 ReS22 ImS22
0.13 -0.1364394318531858 -0.12124309787437057 0.0002979567961620727 0.0016082429164533322 -3.932425495292172e-05 -1.5289435704822093e-06 -0.01836264490554416 0.04958664606578145
0.131 -0.1482856700215088 -0.11003884259600719 0.0003657997196516013 0.00153891001735258 -4.850181204308428e-05 -1.7585840311379062e-05 -0.013794492299262513 0.05165073575553773
0.132 -0.15850117409548423 -0.09886231202846776 0.0006882518206083215 0.0015670685522205276 9.5970293020236e-05 6.110774743224609e-06 -0.008843760919694627 0.05311514188619709
0.133 -0.1666114192753131 -0.08627094664726084 0.0007640198049200911 0.0014513222492977486 -3.989610448883547e-05 -3.0777902186727256e-05 -0.004500525619044055 0.0539393103243323
0.134 -0.17439697881612562 -0.07279541836875729 0.0009775316334109877 0.0014666564735776174 0.00011300109138606564 -4.020229048347488e-05 0.0008810672699155772 0.05475479836592853
0.135 -0.1817575493091395 -0.058974419264324396 0.0009668076231040499 0.0014284093678009582 3.565519469859881e-05 -5.722505388972779e-05 0.0058180341142682725 0.05470898124416527
0.136 -0.18732321187351905 -0.04429751291069303 0.0013174169182017398 0.0012479647254255623 9.344661526404841e-05 -1.542891669183398e-05 0.011055610574988654 0.05437801370170195
0.137 -0.19135222303724256 -0.029638919568943295 0.0013328108345551535 0.0011316655774019511 8.373109714150301e-05 4.075177964261215e-06 0.016289657175722595 0.054044486320196095
0.138 -0.1947671296636175 -0.01468734657084253 0.0015370845170440681 0.0010662358600650671 0.00012216097712122333 -9.620270585854533e-05 0.02110319673106731 0.052603595695144584
0.139 -0.19699963255931954 0.001611735434363275 0.00162197980346538 0.0008377894800721489 -9.413285573679288e-06 -5.935457282959615e-05 0.026182964593521287 0.0503976328366151
0.14 -0.19708171111190603 0.01754031878339455 0.00159009736939265 0.0008328225355939587 9.362417842670718e-05 4.126611809152639e-05 0.03128985183830703 0.048478276118865474
0.141 -0.19680329201581032 0.03370649196073345 0.0017226779116774418 0.0004802872387076615 1.296369288355772e-06 -1.4171905693277686e-05 0.035787002748777504 0.04580849331489191
0.142 -0.195231561567685 0.04983761815959771 0.0017378919919559491 0.0004730878029493217 8.266944888116647e-05 -3.969452964659403e-05 0.03999693600258727 0.04246865478226577
0.143 -0.19088611009401868 0.06566913620240258 0.0016988287987014506 0.00012526947150044707 5.392473637549459e-06 0.00011674906352926973 0.04442906949515303 0.039006137800270464
0.144 -0.18678128702936486 0.08157847533124893 0.0020077036619491223 -0.00019240468295128005 6.550109111108182e-05 1.4474397933206537e-05 0.04782959417003663 0.03506008240311208
0.145 -0.18081748024465988 0.09687096443526307 0.00182790590797777 -0.0002566571466905078 -3.4056846424079555e-05 -0.00011558139679610656 0.051447795777815185 0.030255480498051157
0.146 -0.17260789632057116 0.11155825130941663 0.001973519223263367 -0.00042972598563764246 4.0217781171009844e-06 -3.508600350823981e-05 0.05440430645551033 0.025944970237080728
0.147 -0.1641364744848992 0.12626667175314943 0.0018691718340499261 -0.0005400126500383234 -1.5194551910629885e-05 7.595506025018997e-05 0.057074817890003744 0.020722872606252173
0.148 -0.15520740951087464 0.14040219406811663 0.0018181747507333356 -0.0007717328203953312 -5.1102169809519906e-05 -6.168281122147278e-05 0.05906375510969245 0.015409790896600892
0.149 -0.1438930768873783 0.15300464377624234 0.0016505069919666704 -0.0008246694112659696 -7.375632407900317e-06 -5.916906928660863e-05 0.06073299520993176 0.010019614692703368
0.15 -0.1327408944269932 0.1650226386601113 0.0016390360678647015 -0.0011360469290338604 -9.732021515157506e-05 4.428728923541516e-05 0.06162992292152302 0.004234249020579858
0.151 -0.11930864003309649 0.17533096862746678 0.001555722142212894 -0.0011531446912940136 2.0910325229561007e-06 1.4863763439143905e-05 0.062197159553025655 -0.0013583400332444105
0.152 -0.10589292691297807 0.18612742439238683 0.0013793696723718516 -0.0014524611952862524 -5.723417735858098e-05 2.3789502034128013e-05 0.062101518697384915 -0.00699543797648556
0.153 -0.08980331094512013 0.19497322291500888 0.0012861788271905956 -0.0014295239092167124 8.777037272835727e-05 1.867336856904394e-05 0.06171516116685963 -0.013068496973148823
0.154 -0.07429237190918367 0.20158988166614425 0.001151458993147848 -0.0016432613562128732 -2.967009754809707e-05 -2.0944495983009507e-05 0.06049475308713483 -0.01880673250190685
0.155 -0.05906088143947339 0.20773254574093264 0.0010040410005970747 -0.0017272001386433918 6.505367698107045e-06 5.187065442318423e-05 0.05892749666777895 -0.024565216397598767
0.156 -0.04281979734196384 0.21427694633306965 0.000792787430633187 -0.0018404173420500099 5.792198664283256e-06 1.555657099643168e-05 0.056706869157907805 -0.03002894925137968
0.157 -0.025504159040658805 0.2177728134846402 0.0006318193715831548 -0.0018292629119457812 -2.0664710504223094e-05 -9.76452873805374e-05 0.054174505519863816 -0.03522073151098933
0.158 -0.008027416805020195 0.22039676658870602 0.0004565638140451994 -0.0020561091053550597 -2.683641202341781e-05 -4.212472889474133e-05 0.05074857125180761 -0.04035593949485219
0.159 0.008857152187901073 0.22007482994971247 0.00026415796964999295 -0.0019824524132768593 1.9380135325134657e-05 -3.185417180632911e-05 0.04688299048362053 -0.04543215870312817
0.16 0.02620720535899115 0.22000986541568535 0.00011205343077444039 -0.002004712892718851 -0.00012670320301923625 -5.860897911372242e-06 0.04292483081024144 -0.049648774348309506
0.161 0.041788297700439576 0.2191268593278949 6.987274386692025e-06 -0.0021351461522328597 0.0001336408335776153 0.0001370365386138211 0.03837866788497029 -0.053499570021275596
0.162 0.061858626706162184 0.21701039083123216 -0.0002070043775880158 -0.0018771341649142076 4.050685783473018e-06 -2.7883544618107008e-05 0.033505985178172805 -0.05703292732867922
0.163 0.07770232835530247 0.21048878869028959 -0.0003924465925075999 -0.001994270960746103 -3.8989290554969814e-06 -5.850816536830595e-05 0.028314709456906687 -0.06038754772153544
0.164 0.09407546005854943 0.20605735585054039 -0.000731316775043541 -0.0018741446928815565 2.6526874693112536e-05 5.6796054404333574e-05 0.022641437268239615 -0.06279228281610244
0.165 0.11220543228807113 0.19868573720468055 -0.0009668670841094083 -0.0017964885225080485 0.00012657647085350404 -0.00015928440604611358 0.016581237978719455 -0.0651770183994086
0.166 0.12743003816586687 0.1901367211062315 -0.0009789016481503625 -0.001759190695219805 2.0153214407962384e-05 -1.0115016849206921e-05 0.010884275002765807 -0.06643222600920154
0.167 0.1429181236417761 0.18045423196174176 -0.001228753165915261 -0.0016026993365485527 -4.9181268835143e-06 6.150160320317633e-06 0.004436607672678281 -0.06776033792749657
0.168 0.15825175184301696 0.17087998728428827 -0.0015298817117285527 -0.001660004854511157 0.00011414541993060674 5.4239335960265494e-05 -0.0015842756892024482 -0.06853561587374665
0.169 0.16984117724324496 0.156902965117326 -0.001521325882509552 -0.001342630771714061 -2.10771617411828e-05 9.628375909638769e-05 -0.00809614487647255 -0.06820478488104052
0.17 0.1844496436131475 0.14507223110551903 -0.0017314293503777301 -0.0012579570572861163 -7.72217562000138e-05 -0.00011792296998058996 -0.01401502010010447 -0.06703588628636807
0.171 0.19336919453703394 0.13026619191246191 -0.0018722288407351524 -0.001165288979946084 -6.764583393851634e-05 -4.3864178654031285e-05 -0.020587836733757314 -0.0660650314682772
0.172 0.20589822234634794 0.11464561145826593 -0.001920188119606342 -0.0009407553866103539 2.9099291996913672e-05 -8.022878496844886e-07 -0.02659641252690136 -0.0643458658692705
0.173 0.214993472701197 0.10029325640660944 -0.002051040247595094 -0.0006974821505297142 7.842489990728069e-05 2.5328255483686034e-06 -0.03259709773575636 -0.061946642319735984
0.174 0.22392087963575139 0.08319463203815582 -0.001979678909467299 -0.0005536675322496211 3.949778022141565e-05 -7.804418046864262e-05 -0.037434750173331664 -0.0584525222182745
0.175 0.23044977957822177 0.06569800705774993 -0.0022652683727735403 -0.00043711892780428437 7.424343396309608e-05 8.836358736787953e-05 -0.043491737262930534 -0.054922128225790005
0.176 0.2364312475574734 0.04827876358953041 -0.0022374582257148365 -0.00021297966332048843 2.4319071436008668e-05 -3.075791686223984e-05 -0.048370184365166616 -0.05164432023800719
0.177 0.24077951513122078 0.029093385482973775 -0.002158967769328285 3.4151341297210165e-05 1.7878272503927698e-05 -2.5003065858436063e-05 -0.05272105332154438 -0.04780977190173026
0.178 0.24349262560719703 0.010189878310459704 -0.002163460424938659 0.0003209190386334089 -1.770917384867416e-05 3.2191029850458846e-05 -0.05729684118148324 -0.04261545577644531
0.179 0.2443038330543375 -0.00832986641819396 -0.002075777485317284 0.00044299540271331025 1.357406815715685e-05 -4.106787061070231e-06 -0.06081867005709629 -0.03723551641625729
0.18 0.2452180134036931 -0.027860740876165475 -0.0020043706749729466 0.0006020550592107764 6.472769730471231e-05 -7.613767257477995e-06 -0.06433253220698038 -0.03229436736363623
0.181 0.24339040635857992 -0.04735981347572308 -0.0018678433258882763 0.0008697496918400725 0.00011948548289715423 -3.9389113767847355e-05 -0.06701430804090819 -0.025976318645985968
0.182 0.24054951483001108 -0.06678755878333942 -0.001989270929760882 0.0010060789995657727 -3.983179573422411e-05 7.781983699207794e-05 -0.06973678057830272 -0.020109946826245312
0.183 0.23586381462693554 -0.08559709581418487 -0.001909838977982257 0.0011054255478502757 3.435805464216422e-05 7.374978262438081e-06 -0.07149412221093986 -0.013806019748023602
0.184 0.2302655105010927 -0.10494277872091685 -0.0016491994287391567 0.0014861678459562352 3.7610075451146166e-05 -5.653326334808901e-05 -0.07296695350999097 -0.007287089593851838
0.185 0.2223605451008492 -0.12402056368568287 -0.0016435745519677353 0.001561398592094605 8.734662302443728e-05 4.711930121353403e-05 -0.07349531253428103 -0.000601295535083983
0.186 0.21134436956917282 -0.14250117262076437 -0.0015845585173609076 0.001709951134521964 1.582267802847109e-05 -8.998596932133186e-05 -0.07344598306213498 0.005830710301133364
0.187 0.20271455200811256 -0.1592924843186276 -0.0012656385611830993 0.0018706037393341896 6.556373382989143e-05 -2.93261979421719e-05 -0.07289229792964153 0.012381977835126701
0.188 0.18950094159137928 -0.17484969216379515 -0.0012008539654085664 0.0019960897535818544 1.9223077716462055e-05 -3.1901363730836715e-05 -0.07182194746272136 0.01927612523185351
0.189 0.17435654185128194 -0.19193843612009626 -0.0010385422743377439 0.002160267804868389 5.850051562860048e-05 -3.049400598141288e-05 -0.07007468952052048 0.025765109533610577
0.19 0.15972131549499352 -0.20449142872674225 -0.0007086728459219633 0.0022988917480333635 -2.8388931861784394e-06 -5.103954277289339e-05 -0.0677534468161505 0.032022386618608734
0.191 0.14318241540979018 -0.21856817227356806 -0.0005891362811633242 0.002288961889228264 -3.4124439688377986e-05 -8.42363792917165e-07 -0.0649997794342882 0.038395317636189905
0.192 0.12458818690941131 -0.23092502577657084 -0.00017834748035572154 0.002278032904087213 4.6110255597540905e-05 -4.082574205310543e-05 -0.06137362591607378 0.04399238539367286
0.193 0.10838104430565976 -0.2418728783131024 -0.00014659983704337572 0.002304067200763841 3.863758948493713e-06 -9.972570669284015e-05 -0.05762018838357793 0.049936931805567596
0.194 0.089255688149005 -0.24977500372327796 0.00017981852509719459 0.002421984780808739 2.1175321891658144e-05 2.6301152259760356e-05 -0.05316948429436737 0.0549385558454159
0.195 0.06715005338875589 -0.25690247555571294 0.0004279878452170427 0.002504037604605933 -5.733817885552909e-05 -2.688014306290161e-05 -0.04825376320939857 0.060341749374385176
0.196 0.04648783029901931 -0.2640666705003712 0.0007878689104705815 0.0025143330365324794 -5.844268364118435e-05 -1.243903469825727e-05 -0.04286839659783912 0.06410976933194759
0.197 0.025760300977954453 -0.2675309545599287 0.000891880138144361 0.0022893065367824493 -9.248522325254544e-06 -2.3601342009971596e-05 -0.03702809240870659 0.06804230659216168
0.198 0.005252769033726594 -0.2693579672431651 0.001237626170692988 0.0020789720935528045 6.319640257669871e-05 6.832033390313112e-06 -0.030530259682730307 0.07173434169170922
0.199 -0.020874129124266238 -0.2689819050504421 0.0012461373592014995 0.002125450265357378 -4.211489889292348e-05 -3.7847700689091444e-05 -0.024124567859673325 0.07482013909687431
0.2 -0.04089211916733988 -0.2695908948006877 0.001489972106592474 0.002137501509621496 8.871721963319378e-05 -3.3677772577257575e-06 -0.017438354948224023 0.07638870711996511
0.201 -0.06221234937568091 -0.2664855732117109 0.0018378119349443272 0.0017347546901439915 3.571953025640016e-05 7.90639950067573e-05 -0.010115319307351753 0.07857136817900738
0.202 -0.0823836717171905 -0.26023554067914617 0.0018881087164953412 0.00160981640126847 4.969380599604029e-05 4.126891549561746e-06 -0.003150583947091054 0.07949691944795802
0.203 -0.103237332318944 -0.25288664519637594 0.0020872743989040583 0.001466727176080682 2.8748528786968558e-05 -1.516101193334136e-05 0.004033775354350637 0.07967089859822028
0.204 -0.1243680387201057 -0.243962652165576 0.002116782900477205 0.001252865296918842 6.141460097946601e-05 4.893346831156754e-05 0.011897349468622488 0.07927425224914401
0.205 -0.14444837948442105 -0.23335486538442488 0.002290740339517151 0.0010532538892640262 -4.539886420080317e-05 6.236091860403654e-05 0.019345175527434224 0.07836264656318381
0.206 -0.16339104412728273 -0.22213779341943965 0.0024863156345406924 0.0008306845927348512 3.782259580737876e-05 -3.516422805767072e-05 0.026765783042451773 0.07674627920783589
0.207 -0.18084001780306078 -0.2072893927167286 0.002612377088392269 0.0006688178471469686 -8.814069129285306e-05 -4.1144582583261626e-05 0.0334587968958843 0.07484735664722274
0.208 -0.19768636331760592 -0.19299825937921963 0.0025969858965742693 0.0004161331845755785 -8.065466350639127e-06 -3.034888579583258e-05 0.04045589883229555 0.07129559431593491
0.209 -0.2130139261665923 -0.1769162706099762 0.0026266128500692042 0.00011572326583451026 2.2934016920492366e-05 -2.4007924032267696e-05 0.04748395130956844 0.06745621617294456
0.21 -0.22805584681687663 -0.15996463758427243 0.0025997760318756573 -0.00018049722083291985 -0.00010639512288151153 0.00012132038586124549 0.05273691069425836 0.06300190399652328
0.211 -0.24026286381170303 -0.14240962277095137 0.0025376756300415433 -0.00035426557816083397 -1.6979514017571367e-05 3.582497512637344e-06 0.059004046251116646 0.05821684607181056
0.212 -0.2513899461616227 -0.12256863986292081 0.0025688762931064995 -0.000705415280150839 -5.928228965430735e-05 8.94245359813229e-06 0.0642542034549664 0.05258194685397749
0.213 -0.26262019475215725 -0.10155069144251862 0.0023752751592210383 -0.000854365166058368 -2.2691138819416384e-05 -5.4961341265022146e-05 0.07002706992183282 0.046804404948184164
0.214 -0.27024936770815255 -0.08097427458410099 0.002301885943941781 -0.0011549862943240345 1.7255076633112355e-05 3.625281471685763e-06 0.07369144732664049 0.04043668306108164
0.215 -0.2766725066729427 -0.059676568476808675 0.0022780141434958967 -0.0014283247581902752 0.00010864735753113251 -1.328429963724948e-05 0.0781307026903459 0.03306397862888011
0.216 -0.2813390131018482 -0.03774169022021081 0.0021522150762632855 -0.0015111557706563204 -1.1833279011532428e-05 4.534966710925163e-06 0.08070117101739274 0.026245733388207838
0.217 -0.28413662878966167 -0.014968669907342795 0.0019976533914852455 -0.0017358163973553345 8.02428694463915e-05 -9.088517979776216e-05 0.08286877911382572 0.018389349080114664
0.218 -0.2862476348047841 0.008081556261999072 0.0018103457215518641 -0.0020837119097189623 0.00010617509682090132 1.2063119765431377e-06 0.08467274632154087 0.01079153269943476
0.219 -0.28586638628409095 0.030518764628788456 0.0015543173550043327 -0.002189159286969562 0.00015226348940706558 3.768250575577109e-05 0.0861465296831466 0.002459797627324851
0.22 -0.28293093411419706 0.053356476110043 0.0014104870786953957 -0.002340752193732928 -6.419876562122986e-05 1.55887774744775e-05 0.08604951229635063 -0.005595243715902316
0.221 -0.2787013250374332 0.07524831335061487 0.0012490407783834509 -0.0024730156073714065 -2.34894503861024e-06 -1.4889780641149937e-05 0.0855005739939752 -0.013398588120836389
0.222 -0.2735473303601805 0.09800304172552893 0.0007690419492669354 -0.002582658057707464 -4.241985715219442e-05 -2.9962048205019348e-05 0.08414708708639711 -0.021556997301369243
0.223 -0.26578819276250587 0.12060183205526351 0.0006833831162319938 -0.0026969921866506204 -0.00017325768086575685 6.410607690824481e-05 0.08200356480589215 -0.02952909973406921
0.224 -0.2565927166583989 0.14113594709306287 0.0005493080993601146 -0.0027556665958622306 -4.647494408247975e-05 -1.753535206007489e-05 0.07939194265784008 -0.03715954606967516
0.225 -0.245878739922707 0.16216564245444415 0.00014380017513824773 -0.002813600798751362 6.248418526172213e-05 2.7605638012526024e-05 0.07557513901229383 -0.04446338873552987
0.226 -0.2334646925499534 0.1811753724283812 -7.456176683947089e-05 -0.0028698296703512337 7.4556330129834604e-06 -2.0007502245116488e-05 0.07163893858043899 -0.05129878580743881
0.227 -0.21922940269507712 0.20099674868933784 -0.0003453831981492283 -0.0027478492894157966 9.088201370574403e-05 4.724916637545602e-05 0.06667999422776308 -0.05816786586824306
0.228 -0.2029324596350373 0.21875190312130427 -0.0006171954132808957 -0.00273453918220602 6.702532623083629e-05 -3.583459642226074e-05 0.06109255968775868 -0.06421133799253907
0.229 -0.1873266022068406 0.23386102813940032 -0.0009451468321604624 -0.00269938765702473 -0.00011845676500704402 -0.00010351290418139815 0.05497817219832332 -0.06999431803517571
0.23 -0.16725052547369904 0.24964435291346693 -0.0010836794712075566 -0.002530891273068523 1.169889874309203e-05 3.842459824911549e-05 0.0487136644449872 -0.07516382841272928
0.231 -0.1469620550974628 0.26423367251131824 -0.0015411624809208305 -0.0023960054316309745 -0.00011617601409906632 -2.5032726558643864e-06 0.041759199365693285 -0.07931212242855383
0.232 -0.12709512647308688 0.275839015340323 -0.0016489535343102901 -0.002292518136576531 1.651317719943237e-05 0.00012549614827118188 0.033883142213177335 -0.08366658061034535
0.233 -0.10442354573473164 0.2900972000255022 -0.0018556162009610777 -0.0021182542289183925 2.4512003814203438e-05 4.786926538048462e-05 0.026842501957317424 -0.08601196209251526
0.234 -0.08122062917798088 0.2964796128478643 -0.001954721055972056 -0.0020649153183510288 2.9389743759308725e-05 -7.284223606191094e-05 0.018542168012070526 -0.08838901710865965
0.235 -0.05968632459682522 0.304399496073589 -0.0022449428992580584 -0.0019157747331151566 1.591939059474487e-05 6.810654798889696e-05 0.010506158790294975 -0.09045637208305687
0.236 -0.03652676198637874 0.3082529510704879 -0.002462573262907273 -0.0015448628798191092 -1.4095927373712631e-05 -5.3303854153594745e-05 0.0018005722951037952 -0.09105809680228691
0.237 -0.009671055076488553 0.3116633419787738 -0.0024885446998303986 -0.0013406436672184485 6.0109919123397844e-05 -3.0714048189462834e-05 -0.006034635483746992 -0.09065018753683107
0.238 0.013812349066414348 0.31292773786761935 -0.002662000742146513 -0.0010975372556104718 5.289113190056225e-05 -7.553088452286121e-05 -0.015044873764052825 -0.09066388128699313
0.239 0.04234890584133077 0.31325143143534045 -0.002836670062695299 -0.0007920959017279375 -4.361720476197006e-05 1.9598060058112317e-05 -0.022297083066173295 -0.08819812181799988
0.24 0.06786204924653151 0.31091755236207885 -0.0029155884085452434 -0.000527634831576765 -9.999999818504406e-05 -7.155584983662813e-05 -0.03159958406851767 -0.08692976914141481
