!Created with skrf (http://scikit-rf.org).
# GHz S RI R 50.0 
!freq ReS11 ImS11 ReS21 ImS21 ReS12 ImS12 ReS22 ImS22
0.13 0.06384259445546275 -0.17218478091155523 -8.941928957725511e-05 2.3829193495888103e-05 -4.1816583366646535e-05 2.863073722124104e-05 -0.05264071005697508 0.008153622396783376
0.131 0.05201814890017082 -0.17882918694091 5.524953523446397e-05 -9.449351988325028e-05 -4.219806087889546e-06 -4.092700083171642e-05 -0.05195146190500969 0.012517403800008074
0.132 0.039199381126676716 -0.18276366428421803 3.6582881871688565e-05 -2.4850035295544188e-05 1.8579264003267597e-05 -2.1296637763856348e-05 -0.051340392311411014 0.016906240620156544
0.133 0.025791077338929 -0.18768938942295862 0.00011474245686033149 1.0183031355499903e-05 7.489834549940407e-05 -9.533012051484755e-07 -0.04999345279959649 0.02137398612692599
0.134 0.013400334167650076 -0.19069950200618282 -6.47304044866042e-05 -5.3508033975874573e-05 -2.458016238537115e-05 -6.827110666995538e-05 -0.0483775008068552 0.025587548098095873
0.135 -0.0003773639589734162 -0.19086418993920795 3.4360204937669844e-05 2.4076734253073826e-05 0.00015707052208990938 -5.817155152177427e-05 -0.04648266739766477 0.029791244805892115
0.136 -0.013741027820380789 -0.19199089147863713 -9.039150419942177e-05 -5.417858261794616e-05 7.849587117350821e-05 7.84958711735082e-05 -0.04396504698151249 0.03386910567447602
0.137 -0.027207727155905383 -0.19179006863486048 -8.552435001392242e-05 6.419161834819494e-05 4.2262121203276775e-06 -0.0002012330611534976 -0.04142460111042542 0.03745257743561787
0.138 -0.04271248111315501 -0.19038946185970276 -3.152362633843015e-05 5.271617500902421e-05 -9.426757056684094e-05 -2.5921367579445233e-05 -0.038310375612318606 0.04125168312482651
0.139 -0.05625779715854117 -0.18959083638022076 -3.925447622045492e-05 -4.1162779487736554e-05 0.00011928160837026353 -2.5802791109005427e-05 -0.03498793804979844 0.04476993432318217
0.14 -0.06942924584375809 -0.1857355551211508 1.4321606897281107e-05 5.0451278549157436e-05 5.6081138074592064e-05 0.00011480453193710643 -0.03144946464097176 0.04767722490876852
0.141 -0.08177529929747104 -0.18051466871950755 -1.24908924522879e-06 -6.710320546948795e-05 -1.9191519767525444e-05 -0.00012000525743313049 -0.027610469797893326 0.050327240829035086
0.142 -0.09652864387111666 -0.1771782441410076 -2.2656493360220246e-05 0.00015640929379466892 -2.002034917877573e-05 -8.186476170510704e-05 -0.02336307552162405 0.052891080594506666
0.143 -0.10913260845003817 -0.1704307869913493 4.38848480278367e-05 0.00015014287146774102 -3.824071472799487e-05 -4.211127943288446e-05 -0.01905272344858653 0.05493133879527849
0.144 -0.12225389811959916 -0.16374110901118663 2.679034742023898e-05 -2.3394521794929757e-05 -6.167404613346308e-05 1.1152484301671043e-05 -0.014355291029172563 0.05691426629100542
0.145 -0.13447451126857474 -0.15422742327203162 -3.1814264512647846e-05 -4.524299711275339e-06 3.294354688570478e-05 -0.00012080307565864888 -0.009649008059606848 0.05859229815027889
0.146 -0.1464799005670975 -0.1457228823713276 1.1478514067564857e-05 -9.492929900432484e-05 -5.985360458166685e-05 -4.399952125944291e-05 -0.004786958737927474 0.05983307606678479
0.147 -0.1576011392393523 -0.13602265455443344 -1.3003794843892989e-05 8.494919211294211e-05 0.0001114566377891511 0.00017892387488613318 0.0005824889913570893 0.05974485647036472
0.148 -0.1671635277582743 -0.124862433653119 3.782883257856678e-05 3.110147049106815e-05 4.945631276664334e-05 -2.2376875426680193e-05 0.0055296572402344524 0.05982073066161549
0.149 -0.17657360445165687 -0.11364404630101703 1.8358408143203976e-05 4.4882657929983553e-05 -1.3925292099573297e-05 -2.795582518158668e-06 0.01046191507561748 0.059953723854727727
0.15 -0.18625018330597204 -0.10142174009986488 0.0001120465723769698 2.6337110289329626e-05 -6.173454197010072e-05 1.1215589439428147e-05 0.015768936093958096 0.05946628731163774
0.151 -0.19447159051458712 -0.08801806689100497 1.656809437275337e-05 -5.565416894469418e-05 -3.02290614141678e-05 8.581019464561686e-05 0.020951970858260144 0.05790878402299217
0.152 -0.20147802073583734 -0.07448526198054407 6.310086271279532e-05 -5.972124892193079e-05 2.9650918485067722e-05 -3.93313579302004e-05 0.0263043567560823 0.056520501905231876
0.153 -0.20710927604923693 -0.06015243313903593 6.771592182355892e-05 -5.40750534668766e-05 6.411984213309319e-05 -9.425293914465859e-06 0.031093767109528412 0.05486636758072867
0.154 -0.212618703125933 -0.044678632548516346 6.799636020395303e-05 -3.119651551687956e-05 -1.2044386839985467e-05 8.196653935805347e-05 0.03522151459749713 0.05249164051509442
0.155 -0.21680602551770836 -0.03016869493732531 -3.579294015594671e-05 3.402192858825094e-05 -0.00010691085332713865 -8.376292396294911e-05 0.04010904047361147 0.048992085520535494
0.156 -0.21954037419343586 -0.01481038237736632 2.8049573788184767e-05 4.3732352054227067e-05 -6.977969523625246e-05 -5.1340361677801233e-05 0.04481636919366525 0.04641187489744372
0.157 -0.2216164087808138 0.0009972089826966828 6.699546131159623e-05 6.19214974533962e-05 -2.1891028181505767e-07 -5.633155189571221e-05 0.04865903914785908 0.04240652465177313
0.158 -0.22183957203458282 0.01727654844723013 -0.00013044605814227096 -1.2470773988144364e-05 2.919301345322361e-05 -1.178606202084127e-05 0.05238749448173612 0.038113608087212
0.159 -0.22173322008788182 0.03335464904286405 0.00012155563512002925 0.00010561578827494494 0.0001098679456684216 -8.159397518925243e-05 0.05577023231315276 0.03427418323763754
0.16 -0.21930501945269487 0.04943508949179451 8.366508604899106e-05 9.78848824486527e-05 5.920480365769133e-05 4.240723771769303e-05 0.05863985815524205 0.02969743732181627
0.161 -0.2172279758371555 0.06579836168870716 2.978232028440422e-05 -2.8062372168417446e-05 -7.768800515804685e-05 -5.0390959888697604e-05 0.061403370805109825 0.0247100166250771
0.162 -0.21304776555428181 0.0813483735380964 6.719947216562046e-05 1.5543780512542412e-05 6.628017286322288e-05 -5.402143384202157e-05 0.06372894900655889 0.019201561391457615
0.163 -0.2078799233205402 0.09693600022104179 -2.6462820328534503e-05 -1.15621813426252e-05 3.582183724606653e-05 6.844809602459067e-05 0.06544083907380793 0.013888314217211702
0.164 -0.20164864021838233 0.1115960152722305 0.0001012831657224833 -5.564902715285e-06 6.584601997414575e-06 -0.00011609836136683808 0.06700598328313565 0.008254544733944455
0.165 -0.1935699893141767 0.12709882776619316 5.567348106258647e-06 -8.806887975631006e-05 -7.811835706976938e-05 9.073584731141858e-05 0.06793046672504106 0.0023259607848615557
0.166 -0.18332249230087844 0.14170369557556733 3.9208577615798035e-05 -0.00014274108126831282 5.410151026773539e-05 -8.831816408092452e-06 0.06808032231101682 -0.003154853902659163
0.167 -0.17460721475747434 0.15439454654983334 -1.045996575699285e-05 8.258180815386147e-05 4.704918407116335e-05 -5.74578013075544e-06 0.06823398859981632 -0.009027547009889522
0.168 -0.1645397717132453 0.16862856762382206 -7.680517914186685e-05 -2.6751090354893244e-05 7.551455615586384e-05 6.571162295117432e-05 0.06741983046709737 -0.015002686679713785
0.169 -0.15288994712495627 0.17925845687843264 -2.800512197349166e-06 -1.960650897710564e-05 8.705386450492726e-05 -7.363542619413147e-05 0.06642207201116399 -0.021054872577988805
0.17 -0.14020675532430787 0.19048159184670876 -3.9883711845585e-05 -5.16631594866411e-05 -2.2776142788066413e-06 -8.586008924795222e-05 0.06482697837054233 -0.026690543411837898
0.171 -0.12647053729616112 0.20227240181161177 -1.4030171613973707e-06 2.5100941334146913e-05 5.581363912892701e-05 -0.00011988473289633889 0.06257504713585345 -0.03204899853033514
0.172 -0.11320244757660411 0.2108523576016678 4.501040442860631e-05 1.0609474967581219e-05 9.534132540353636e-05 8.645528231685407e-06 0.060027754480699747 -0.03772894776077222
0.173 -0.09886235846307415 0.21942634802983368 -8.303394566144021e-06 5.718515039935872e-05 -7.651926603422944e-05 0.00010171753126190142 0.05687455908203046 -0.04258813885501448
0.174 -0.08476434809894508 0.2256800610545913 8.156204643288775e-06 -0.00014681828212628718 -1.633181019846403e-05 0.00012570771205318542 0.05343494839547874 -0.047666340724689574
0.175 -0.06680658490945096 0.2337036933438375 -2.6471942387819556e-05 -2.286634996201535e-05 1.7897955290980216e-05 6.084724209529702e-06 0.04940624054858166 -0.05220925929566657
0.176 -0.05334994058948676 0.23765386439146502 -7.116207763364994e-05 -6.790007410810088e-05 0.00013792852781888934 -7.60038943718063e-05 0.04528083017448582 -0.05628105509813399
0.177 -0.034352460090665345 0.2420353654571148 -3.1168604890978292e-06 4.215800746548754e-06 -1.617396095887413e-06 4.508239899005475e-05 0.04028562628506193 -0.06056842507163234
0.178 -0.0184204692906085 0.2460613512306015 -1.1238195361661625e-05 -7.71749937557332e-05 -1.2667302258621307e-05 7.330010381353647e-05 0.03527280979895587 -0.06358781751379179
0.179 -0.0019200750821539074 0.24703996270451745 2.2743837687730592e-05 -6.551487143063168e-06 4.61707491354184e-05 -5.3318596873192886e-05 0.02986491725936339 -0.0671023250840005
0.18 0.01575011786985408 0.24807382139618905 0.00010956658181838176 -3.8258172881428464e-05 1.162304956147206e-06 9.470837393500003e-05 0.024241251888617362 -0.06959917032270833
0.181 0.03347572135580648 0.24710960563935502 5.3554435809628093e-05 -1.0167466437835856e-06 -3.0508559652840604e-05 8.528404233745181e-05 0.01857210371565855 -0.07169200256270154
0.182 0.05033658304269967 0.24476319381255981 4.146015722317767e-05 -7.807149335795274e-05 0.00017714551668858317 -0.00012460643650486617 0.012899258023514439 -0.07303884774316481
0.183 0.06662436662861401 0.24287395781160032 -6.440419724508354e-05 -9.997766095795373e-05 6.102233581182934e-05 7.178921151291539e-05 0.0066694970066267095 -0.07453511364195865
0.184 0.08453684284661879 0.2369264502197468 1.2651834436892118e-05 -1.6718297325885312e-05 9.314554279010066e-06 8.115432530445053e-06 7.185956543990921e-05 -0.07528683094022352
0.185 0.10223457429937287 0.2335975174898912 0.0001641807380111448 -8.574884943540198e-06 -0.00014538369141140018 1.3498833905576241e-05 -0.006370011692717459 -0.07480633276342971
0.186 0.11783174951580842 0.2278677478583704 -0.0001206314458731343 -2.6501851825132694e-05 2.4943440880412027e-05 -8.052481811989848e-05 -0.012569017317857936 -0.07393233313341244
0.187 0.134910664392228 0.21897958305310886 1.91498060774199e-05 6.692104474120172e-05 9.801508940922514e-05 -8.776830093472633e-06 -0.018315055618557 -0.07345767587155695
0.188 0.15044849092029358 0.21013212144242185 7.18836053296606e-05 0.00010082798087323302 9.348822703815725e-06 4.555337319986286e-05 -0.02451640582072403 -0.07230396850577138
0.189 0.16480574633481873 0.20106783778128698 6.407807556924024e-05 -2.560254767286716e-05 -4.3683409640679045e-05 -8.697494458339967e-07 -0.030542058547462198 -0.07007202491110728
0.19 0.17864036038015635 0.18923999385844942 7.279257258768834e-05 -0.00010438968340336007 3.185873076258088e-05 -9.608527728770866e-06 -0.03618385961368681 -0.06771744850483195
0.191 0.1942147502893112 0.1785383066424692 6.646991660783069e-06 -3.214345670008982e-05 5.083492449359064e-05 -9.54103442142155e-05 -0.04205144453899991 -0.06389182936907921
0.192 0.2065812789831493 0.16610025047055196 0.00010562587445959041 -4.6816421988658345e-05 -3.2055341002689597e-07 -3.731485608746333e-05 -0.047410813538360054 -0.06041094778425076
0.193 0.21937735487289392 0.15135816775820415 -6.448917812614399e-05 -6.508991510053993e-05 7.477981449672275e-05 -5.603553652980723e-05 -0.05303630738476669 -0.057421459365776986
0.194 0.22975491883095867 0.13661559440491283 4.425918568166328e-05 -2.3499170020710824e-05 1.8837503780353296e-05 -2.1016061755667376e-05 -0.056961775026831696 -0.05308867996476615
0.195 0.24103990912668566 0.12081480853992532 -2.7736614410442726e-05 2.4871626066170094e-05 3.2106282811879134e-05 3.840879276160435e-05 -0.061572904318618185 -0.04809250606664161
0.196 0.2492705348552204 0.10541818213914603 6.894212519756138e-05 -3.334068353404362e-05 -0.000134564920640709 3.2869491128292474e-05 -0.06540540070967633 -0.04304762608386174
0.197 0.25760225589919283 0.0873315769250731 -9.873139199423186e-05 1.4645418532500076e-05 -2.501964392066341e-05 -4.9153512419409884e-05 -0.06897616043122833 -0.03781714919088173
0.198 0.2645590890611038 0.06923326536621402 2.13369604691596e-06 -2.75105418281917e-06 -2.862815984874553e-05 -5.252991256832328e-05 -0.07228621134595878 -0.0322429645012834
0.199 0.27027381297791536 0.0511436768467362 4.916100678407761e-05 -8.746829562629681e-05 7.826490798578782e-05 1.1405763068246248e-05 -0.0752982821256316 -0.0262492688067409
0.2 0.2745430527144981 0.03235908898299152 -5.447218330013042e-05 1.3636678359140849e-05 -1.256459823969487e-05 -1.6140898616202317e-06 -0.07677502199745988 -0.01986653986137063
0.201 0.2780668301689532 0.013546528708741292 1.6750299159010742e-05 5.917582306855447e-05 -8.806858584552087e-05 -5.949041089565006e-05 -0.07885205973168559 -0.01395918262601047
0.202 0.2791424486969817 -0.006605014759275933 -5.238506831171431e-06 -2.804034604327121e-05 -7.35602251345784e-06 -1.5608030442403356e-05 -0.0801040193217312 -0.007008193593513094
0.203 0.27963587817493224 -0.026121557013518527 -4.9829980081172544e-05 -2.6941213564424048e-05 -4.653963502796807e-06 5.2820787480699905e-06 -0.08029779789926182 -0.0005036566357419171
0.204 0.27849249012222466 -0.045284732427219705 -3.180091183753017e-05 -0.00013115965154270444 0.00014776707717653384 -6.745999709664415e-05 -0.08100788908597979 0.005953289654812774
0.205 0.2767367647326492 -0.06554630522857603 -4.98993580726458e-05 8.40625504792855e-06 5.7997999307611914e-05 -5.35743052219737e-06 -0.08041008958015172 0.012544709231405203
0.206 0.27217081864287246 -0.08502017612322725 -5.73269181444112e-05 1.7066067249329795e-05 -3.7462133724528665e-05 -6.953838413896964e-05 -0.07945379444396082 0.019315958209417197
0.207 0.26724880496274545 -0.10442586074868604 6.594275188460323e-05 -4.009043490676608e-05 -0.00012464962409771592 1.2860672388330207e-05 -0.07792804368393762 0.025838265747528254
0.208 0.25922258719448193 -0.1250559186072494 -2.757365943588908e-05 -5.597155755497407e-05 -9.128241884349504e-06 1.0699609498380682e-05 -0.07595085982760666 0.03221478577707219
0.209 0.25073465457250826 -0.14257619824665646 -4.087101888606152e-05 0.0001118412182199434 -2.5516587731827288e-05 -5.904706866828116e-05 -0.0734585725793874 0.03868679982717139
0.21 0.24273704165999233 -0.16083078929605032 -5.2982288997402705e-05 -9.224668893200504e-05 -3.345762994033227e-05 -0.00017841596326502392 -0.07007130003784676 0.04447932193678581
0.211 0.23121686292095153 -0.1779454658961983 0.00013258941863925874 -5.434346862380404e-07 3.1989479427005577e-06 -2.5104769072579742e-05 -0.06683299190552222 0.050233801540556046
0.212 0.218193209736962 -0.19541405435553935 -3.127105160950945e-05 1.80032191274357e-05 4.1188004261174536e-05 -2.9476673093243492e-05 -0.06244827854957161 0.056105455881392256
0.213 0.20552340627967963 -0.21042963680955737 -1.3378565282976129e-06 -9.780476009504152e-06 -2.703337412971154e-05 4.7363133936956144e-06 -0.05797535120302692 0.06122689426236936
0.214 0.18904530152001484 -0.22626486833064247 -7.3191147317947e-06 4.467225276155807e-05 4.499573075843837e-05 1.9251780697840156e-06 -0.05296576850498477 0.06640105110879362
0.215 0.17330528316913182 -0.2413777085728942 0.00010281739959910191 -6.710475776726247e-05 0.0001070853025647762 -9.692527599174811e-06 -0.047456971076630425 0.07097199126568329
0.216 0.1573125866105076 -0.2503642538224866 -1.2151111266221503e-05 -7.137480419284781e-06 7.700618119510379e-05 -5.4406845194886417e-05 -0.04172869612606884 0.07503907398671517
0.217 0.13812183892810176 -0.2622009831868377 -2.9778289683651665e-05 -8.788145698087065e-05 -2.8828904455968388e-05 -5.2855371704217374e-05 -0.035703545199652555 0.07835843626067664
0.218 0.1192714970323822 -0.27374407393367506 0.00012619709069053317 -2.7311120230826464e-05 -2.052246565538187e-05 -8.58933687703583e-06 -0.02887246488380804 0.08167486921217487
0.219 0.09994930563855672 -0.2831066058074454 1.400481748282554e-05 0.00012007918943655263 -7.200751804354167e-05 2.1661095664816965e-05 -0.021911781496719653 0.08451261412058308
0.22 0.07891418058277434 -0.2894538629321613 6.246864267277945e-05 -7.077793489267647e-05 5.44696608913926e-05 -5.527775756607733e-05 -0.015210912534150635 0.08599108741241258
0.221 0.05921218236934944 -0.2966227036401165 -9.423083231463778e-05 3.4457365167524825e-05 1.873419817427917e-06 5.722705539134048e-05 -0.008238725071144225 0.08692887870050373
0.222 0.03720705829175755 -0.30065449328736654 -1.4100864358817654e-06 -9.795729378300611e-06 9.806679803710418e-05 -6.473606925242481e-05 -0.0011740059388024313 0.08830243767320407
0.223 0.018306879513088868 -0.30338798911699777 -3.276542942766853e-05 -2.8666036304797163e-06 3.8333147829433706e-05 -0.00010640157394075792 0.006881539914163423 0.08859652044119751
0.224 -0.0033436606020181125 -0.30460811383969894 -7.232536762972295e-05 -2.0259530942474248e-05 1.570139498482819e-05 -2.3615379891028747e-05 0.014233218752495405 0.08788613955835578
0.225 -0.026063607235450953 -0.30338690589199674 -6.669388398313933e-05 7.447851758594672e-05 6.691336127125159e-05 3.770283982365758e-05 0.021320355914802136 0.08697498607694883
0.226 -0.04964585635739358 -0.3018528079804912 -0.00010194248798597275 6.45738444559644e-05 4.1582182565711907e-05 -4.797337522978173e-05 0.028971166365655308 0.08519361848988397
0.227 -0.07059715726369926 -0.2983562343817567 6.0191723563598774e-05 -2.2737757294894483e-05 -2.9319211131577582e-05 0.00016051195313946417 0.0360729605423949 0.08307052086120867
0.228 -0.08980789495358592 -0.2907679297664503 3.4186598388906237e-05 1.2433666776620568e-05 -2.5919493790316847e-05 -0.0002270795356424058 0.04306902052911389 0.07976363470335736
0.229 -0.11178320446948847 -0.28727607746275585 -3.718168289530566e-06 1.687499029263689e-05 -3.7567990978168737e-06 -7.700702447629495e-05 0.05049823831497194 0.0762154624202829
0.23 -0.1310681078196009 -0.2782974760180186 1.7828143311708674e-05 -2.367217398246276e-05 -3.278424196590156e-05 0.00011089982598884545 0.05658883892072088 0.07231855458526389
0.231 -0.15071007654083116 -0.2695862398788967 8.95191316641263e-05 3.200808464765211e-05 -3.9327506643178906e-05 -6.189931844420464e-05 0.0626147197919557 0.0668347881247816
0.232 -0.1678762084473396 -0.2576982062060917 1.172151443479545e-09 -1.6211800953310838e-10 -1.9336542914008132e-05 -0.00010961928162096256 0.06817813173658618 0.06162815873857476
0.233 -0.19079819917523358 -0.2470101700973841 3.973838867363371e-05 -6.427526423961847e-05 -2.0629975326545478e-05 -8.416968181516559e-06 0.07344232322283423 0.05642192586393953
0.234 -0.20375286917366445 -0.23310393022976597 -5.4622070716166836e-05 -4.3631059948862195e-05 -6.507258649950577e-05 9.242274027903985e-05 0.07829233279949971 0.049365207541537004
0.235 -0.22270592654826302 -0.2195699610045724 5.725769045505253e-06 -3.0741403597530406e-05 -9.21423390121626e-05 -1.2642410557372157e-05 0.08314155880748794 0.04324474044471091
0.236 -0.2374748884101153 -0.20327113965216714 -3.706938969551786e-05 2.277408095318347e-06 2.3872156842548654e-05 1.6406851483800882e-06 0.08609235982898221 0.036576946743390966
0.237 -0.2510388875717598 -0.18538845880303395 4.123427658107531e-05 -5.419514557812508e-05 9.765223871703803e-07 -7.344878282094686e-05 0.08920572049610703 0.029277465679179528
0.238 -0.2656756662322183 -0.1693559406567007 0.00013061986817749786 3.445005445994981e-05 7.280213997998031e-05 -0.000123122768689858 0.09228845551439395 0.02120045857235529
0.239 -0.2766400674350978 -0.1511325915960057 1.1890052330395688e-05 -4.174942830526559e-06 -5.393608592797655e-05 -1.813676235290129e-05 0.09316211616683354 0.0136594868163656
