!Created with skrf (http://scikit-rf.org).
# GHz S RI R 50.0 
!freq ReS11 ImS11 ReS21 ImS21 ReS12 ImS12 ReS22 ImS22
0.13 0.0016472739654888378 0.001092245981798393 4.653600277157084 -0.5905216761348661 0.002052527302257626 -0.0005830290716567721 0.00018067226138913218 -0.0008334961760688115
0.131 0.001441024852438954 0.0007951808438090542 4.5851558639702565 -1.0223685572171641 0.0020281744979986703 -0.0005670441979302066 -3.826204575838513e-05 -0.0009120130738877198
0.132 0.0013460597095480073 0.0006631473095231295 4.458150233555804 -1.4694877653575409 0.0018844446705035126 -0.0008047557858415536 -2.924075437744856e-06 -0.0008935284453163643
0.133 0.0011700849437898126 0.0003342434290606624 4.297760343255411 -1.881711832293364 0.0019524767221749662 -0.001024657210323087 -2.2971854073102945e-05 -0.0007435708101890702
0.134 0.0009178152821791637 0.0001329091774297184 4.078344097460848 -2.289921493022391 0.0018495676326394754 -0.0011350649391008987 -0.00019586302970085514 -0.0006921292508018479
0.135 0.0008858783766613312 9.895050719981449e-06 3.859093061932301 -2.6750052158198705 0.0019098397405161198 -0.0013480824118247197 -0.0002280380351531041 -0.0006809166862949197
0.136 0.0004453706463416361 -9.601606207910425e-05 3.5768905405791718 -3.0341365681354207 0.0017261937001477319 -0.0015456626889049747 -0.00021429232276771128 -0.0004892768580426641
0.137 0.00023422803564041416 -7.764868762060271e-05 3.2770967608672223 -3.360823502863952 0.001661109182410769 -0.0017076202332932536 -0.00023900050264241126 -0.0005451853102100684
0.138 -0.00013680462054679947 -0.00014686550946179 2.918013485467043 -3.6553834710098627 0.001586331436702324 -0.0017836886121152572 -0.0001975758237141706 -0.00033343879830039224
0.139 -0.00039085824354856554 -0.0001486927068490847 2.5579625892550744 -3.921627020346695 0.0015602310599731127 -0.0018869381296053268 -0.0002719896467690179 -0.000209235805488184
0.14 -0.0007532158127064549 0.0001327063755603373 2.1699471813716826 -4.149761372477426 0.00140694389042799 -0.002054609429027841 -0.00019656658051932327 -0.00019721089798684657
0.141 -0.0010330962646271594 0.0003313180326302195 1.7561406924352347 -4.339784419763669 0.0010934211404416115 -0.002203776530904721 -9.338098360217393e-05 -0.000225181058256701
0.142 -0.001387214219513347 0.0006829229806346173 1.3438121212832825 -4.47494666053858 0.0009930906064189596 -0.002197374493707748 -6.645824477122314e-05 -3.7984016230397574e-05
0.143 -0.0016558380953616539 0.001054567820246195 0.8929052625658633 -4.5969457698052985 0.0008886726069797379 -0.002361634855033161 2.2384603093342493e-05 -0.00019204238480439838
0.144 -0.0017270129574861648 0.0012936610085620436 0.4856946102808121 -4.64238664638235 0.000737239340555635 -0.002459905611685658 3.0449094109342717e-05 -0.00011549384308853929
0.145 -0.001692781338496431 0.001811815532559324 0.003818972577150835 -4.667967187805096 0.000503886902336612 -0.00254045123973941 0.0002670491699614914 -3.279529042406138e-05
0.146 -0.0018334125861808686 0.0021085191873506386 -0.44347951135397196 -4.652250124207695 0.0003170259130103667 -0.0027006197171142326 0.00017923860122705636 -0.00014456881745851906
0.147 -0.0017851144720673116 0.0025943252290436545 -0.8759864415456724 -4.573107457378205 0.00010571624609098834 -0.0026674788042373478 0.00039934846524877174 -8.484500984999467e-05
0.148 -0.0016980673291315898 0.003029210145867181 -1.3135140650005321 -4.454415326015536 -0.0001323104046899716 -0.002682046879332344 0.00026604318354000084 -0.00016389972209183005
0.149 -0.0013543292445964265 0.0035469279450431996 -1.728947217547776 -4.305470838657485 -0.0002910487921630205 -0.002717450425327421 0.00046996788282361473 -0.0003955252371564059
0.15 -0.0010198748662000121 0.003869469902519416 -2.1568960114269715 -4.139223782553094 -0.0005296408119404727 -0.002673159812479496 0.00045906390680407384 -0.0004408396766048755
0.151 -0.0008616059343198395 0.004160823394914733 -2.5209319038060096 -3.875528628655948 -0.0007806946988316124 -0.0026468423876312703 0.0004922568746888503 -0.0005223203619944912
0.152 -0.00017594380307676743 0.0045332156301922 -2.872289994199282 -3.638377706039414 -0.001013579180820192 -0.002696360440228775 0.000562614794661968 -0.0005577643799950645
0.153 6.325687028958e-05 0.0047095342268705905 -3.2354533031086277 -3.3376358571314695 -0.001045469630501397 -0.002544077667017962 0.0004466213406331266 -0.0006063794581583341
0.154 0.0008376429599668067 0.004986758114985507 -3.5075023838151074 -3.017260852764918 -0.001389248243847947 -0.0024680357754792584 0.00038133046660912204 -0.0007490342912712447
0.155 0.001155800023514333 0.005004763178352831 -3.8020110577363195 -2.671478582128868 -0.0016163819442869712 -0.0025212507530398085 0.0003643944526490198 -0.0009657754091740025
0.156 0.0017838324059844305 0.0050813839531930974 -4.022869695674551 -2.305084860694375 -0.001769051314439475 -0.002504236274937501 0.00010816768271690903 -0.0010184586230804298
0.157 0.002144912096680389 0.004979308787414304 -4.239603102926896 -1.8792868065246053 -0.0020386270990520724 -0.0023961729917174775 3.044144733215238e-05 -0.0010940966822447608
0.158 0.002770167881695709 0.004638583265762555 -4.394175295298571 -1.4669400391529632 -0.0021093260702394674 -0.0022100572612927297 1.3743783170694285e-05 -0.0011015273073159734
0.159 0.00331501084036975 0.004509810922804474 -4.489898575802338 -1.0339957027167221 -0.0022454882512400035 -0.0020553589318238396 -9.841697134739145e-05 -0.0011529717907678265
0.16 0.003756771677912022 0.004079928183333657 -4.5757616047882195 -0.5890859581482982 -0.002469706191897023 -0.0018594736588295924 -0.0004170046341098006 -0.0011651994283803165
0.161 0.004114501881378307 0.0036796474478577347 -4.610310590646048 -0.17862123408971373 -0.002685937287311876 -0.00156050838486712 -0.00037047243782011014 -0.0011193859121060778
0.162 0.004432485761783587 0.0032756599272242646 -4.602278036781623 0.28085750278389754 -0.002799611358100347 -0.0014549603630580573 -0.0006402137627248638 -0.0010595951088906972
0.163 0.00477088664258721 0.002706864530624147 -4.5572162209789795 0.718607573845158 -0.0029359019164619123 -0.0013505580159016053 -0.0007890814484825461 -0.0010222766428436235
0.164 0.004935568759813005 0.002081535789006959 -4.4698825380138 1.1540396807326045 -0.003021070392566594 -0.0010925873141709233 -0.0007460965711218809 -0.0010021340716604855
0.165 0.004994366584785539 0.0014721792704895133 -4.328628024532151 1.5748233745463383 -0.003214812453950338 -0.0008328101906337186 -0.0007870702498309824 -0.0008484257045439233
0.166 0.004940824690555856 0.0010077656525985682 -4.153543301244915 1.9839200518150097 -0.0032944206863097 -0.0006613739095921651 -0.0009380347930450687 -0.0006723798294847875
0.167 0.004891421520521987 0.00042937211500866613 -3.9431220039726926 2.3795233281085815 -0.003419561700388524 -0.0003353851071260346 -0.0011372726703797029 -0.0006430285620017699
0.168 0.0046136274269995975 9.84176819956754e-06 -3.698699498054543 2.7494014686832693 -0.0035013407929843 -0.00021558883476427364 -0.001065272594154761 -0.00033316633518146123
0.169 0.0043362714548421 -0.0005531080047932555 -3.4221252000966347 3.087214910098374 -0.003420577329906497 0.00019189498318078184 -0.0011826459030619743 -0.0002970944050612076
0.17 0.003963005224990199 -0.0009178137450128878 -3.1021173126966386 3.4086221504499328 -0.003507257013224435 0.0004554158958502888 -0.0010625112300568014 -7.386127770871584e-05
0.171 0.003499440798335715 -0.0011906279745101153 -2.7652772898570666 3.6926420625078626 -0.0034574313684068176 0.0006038070131597871 -0.0009590714878225243 0.00010516775417110507
0.172 0.0030353835502182507 -0.0015093835394250693 -2.3801893597926713 3.9333060794905905 -0.0034144965511748717 0.0009785872893679265 -0.0009523318198544306 0.0001918616233329791
0.173 0.0026040353100256846 -0.0017736742062974102 -2.012523721506494 4.144916691794808 -0.0033329816106708486 0.0011578141223212305 -0.0007596564840179638 0.0002759059736041443
0.174 0.0020557920811024246 -0.001934688796323692 -1.5971619788583558 4.310282793827379 -0.003335056046908492 0.0013681249221138719 -0.0006732264433591699 0.000332455149499351
0.175 0.0016219470772935504 -0.001769681262801629 -1.172381959033694 4.454251981629871 -0.003292080658463118 0.0016201275445253125 -0.0005007702132886645 0.0005421749339624206
0.176 0.000974168301977674 -0.001605256291709037 -0.7641122458743113 4.531982319483476 -0.003182506917269047 0.0019075212374942336 -0.00024249337270975627 0.0004928285688770977
0.177 0.0005196188424866243 -0.0015067463601325718 -0.3339072614054339 4.590655634628932 -0.003105125470926279 0.0022199789675915963 -0.000241351282550989 0.00048021612167210647
0.178 5.1986437079233626e-05 -0.0010552721914727171 0.10981909693551072 4.588285555664929 -0.0027430521904834118 0.0024208529689151363 -0.0001784947623123199 0.00048566580439938833
0.179 -0.00029689594139495183 -0.0006051625561461295 0.5605314218689234 4.557455766802062 -0.002731359063411353 0.0027350859180241367 8.971875535598492e-05 0.000526648943106467
0.18 -0.0005486927962302735 -0.0003675995768466511 0.961642647722815 4.439274071131353 -0.002649342836029879 0.002913504574865312 0.0003441144729866564 0.0003507708846069839
0.181 -0.0008220342818744295 0.00020614712537317213 1.4116445298452227 4.316539986128018 -0.0023884497689702256 0.003233794822905972 0.00030072729879490455 0.00025407453144444213
0.182 -0.0008697517791556259 0.0006441332159858553 1.838099330699523 4.231282871905816 -0.0020745977076216207 0.003410961184782502 0.00046022911184475404 7.033022376225369e-05
0.183 -0.0010042445012739222 0.0011741972732718453 2.2535076470545996 4.020390537116585 -0.001921298577412738 0.0035145552088004313 0.0005231294474513201 -7.93311421353513e-05
0.184 -0.0008371387988193985 0.0018702839951584259 2.61481445536428 3.7659492125579392 -0.0015492356980588773 0.00363804150887821 0.0006109168249432926 -0.000183218004059692
0.185 -0.0007229271852117412 0.0023692091788557954 2.943312530747457 3.512320685904509 -0.001240645163387629 0.0037954081468279974 0.0006401177292541073 -0.00034344166038311386
0.186 -0.0005021355212083498 0.0028196407823940293 3.257236987830852 3.182595490898439 -0.0010226306698565358 0.0038788525431270385 0.0006037553347969647 -0.0005105515856616711
0.187 -5.8272127404566965e-05 0.0032870373078362778 3.5831223895323796 2.8719461399570245 -0.0007046535348909385 0.004107553136120473 0.0005028558681007202 -0.0006675016249803713
0.188 0.00037896136418533334 0.0036779233912114326 3.8245635588916014 2.5158908455317364 -0.00029301761082004327 0.004137644027640429 0.000502673649535492 -0.00086969751227611
0.189 0.0008079651132033045 0.003932831984656849 4.054609614169957 2.14056246698886 -1.2754936038417978e-05 0.004251937808652238 0.00043538183213228683 -0.0011046185700796074
0.19 0.0014021139961644033 0.004150005548086327 4.213636235851709 1.7573895138596294 0.00023373674406558913 0.004341036319141088 0.00034805709935791836 -0.0011288027514198312
0.191 0.0020038504557169344 0.004260057402175662 4.391638493514101 1.334232735207489 0.0006313917370614167 0.004272551426673592 0.00021727965268022317 -0.00130387223690358
0.192 0.0026729318538034896 0.004400457254789865 4.449336208449997 0.906649313400138 0.0008296207165728278 0.004339058695788481 -8.297288472411967e-05 -0.0012619666074661197
0.193 0.0032564824402327723 0.0041467959075335275 4.550155567600697 0.4613691625788105 0.001132710222475797 0.004273919402297709 -0.00023519657325088496 -0.0012748269086885046
0.194 0.0037900445649954686 0.004083260652121886 4.558297068830372 0.05200778625843517 0.001518239860629838 0.004241372819239627 -0.00048136533367895224 -0.001346773155381473
0.195 0.00447654819422761 0.0037215571802356015 4.554564083833336 -0.39915718688505203 0.0019044678000360528 0.004142990589584542 -0.0005636604982051605 -0.001411987041466542
0.196 0.004853466991509695 0.0034273631563649263 4.4709835458650105 -0.8259287523905381 0.002143334236673918 0.00396427213886865 -0.0008412580170336286 -0.0013426250823700345
0.197 0.00528213353448214 0.003050001348276745 4.375055153201802 -1.2470654235515353 0.0025232227736860864 0.0038039978976413466 -0.0010656354799611694 -0.001243572759330096
0.198 0.005766655013373663 0.0024023413198826964 4.231768190878442 -1.661857447284752 0.00277386232807552 0.0037146521539158047 -0.0012645525642839058 -0.0011928265626528637
0.199 0.005942035831820314 0.0017817247659440494 4.04922664970316 -2.057536529601543 0.003115868912988009 0.0034848141020872056 -0.001190097790483559 -0.0009933679339596913
0.2 0.006075274230988227 0.0012062944179379819 3.8374581349788164 -2.4388495910797583 0.0034471146225059828 0.0032318855515506254 -0.0014415110458312205 -0.0009045868892671617
0.201 0.006266799725565053 0.0004311605950339389 3.575477391251858 -2.792291598831371 0.003728676163089665 0.003080093131195925 -0.001646332308271654 -0.0008191499746077228
0.202 0.006133081315401295 -0.000108059778435226 3.2994006780988343 -3.123967910312013 0.003983012591679172 0.002801296432939005 -0.0016220895982753927 -0.00055185882977226
0.203 0.005894165721274668 -0.0006718352139037714 2.9783108255060986 -3.412035066851284 0.0041545789951076455 0.002462711049756953 -0.001590136284495403 -0.00021817501016673394
0.204 0.005759490152822225 -0.0013386818166069554 2.6397028957823685 -3.684762200841428 0.004364651896108989 0.002155275862152216 -0.00166643554103372 -0.00022193370087534575
0.205 0.005396292608226328 -0.0019145510303534966 2.2635361520294137 -3.930454859467783 0.0046396654228532275 0.0018723391566389475 -0.0015972522022815049 -1.7206192724844704e-05
0.206 0.005123551864932029 -0.0022460830255338084 1.8682394473659756 -4.1121005631773055 0.004699879106633166 0.0015979851681531742 -0.0015244741454393518 0.00010054561400582362
0.207 0.004395625898676748 -0.002639425332043186 1.4778049771138966 -4.287109286736769 0.004868527014954493 0.0012106876083185 -0.0013771681304758185 0.0003843503192435354
0.208 0.003903766102111882 -0.0029381534541904454 1.049106235898312 -4.41088966638432 0.005154901864886006 0.0008319547354372337 -0.0013156510047739208 0.0004673101646321021
0.209 0.0032649699302781956 -0.003165875716309041 0.6322943397828126 -4.490122862566947 0.005113279146812563 0.0005447198691970977 -0.0012596238956176938 0.000545862995804233
0.21 0.0027670941350840315 -0.003301806693683444 0.19628996139073984 -4.509890482853463 0.005164404670718158 0.0001980173575525104 -0.0012275060902061337 0.0006138939499511361
0.211 0.002152270690388982 -0.0032144546530039745 -0.226958535484654 -4.5069844471253875 0.005214948725089441 -0.0002281348513633939 -0.0008676063500558359 0.0006165401306465827
0.212 0.0015451818285550946 -0.003076797151984224 -0.6522332618374722 -4.464078283720858 0.005333160431351569 -0.0006589592329505756 -0.0008993418604368861 0.0007137684598462462
0.213 0.0011376690568626789 -0.002780833585650771 -1.0909386609258664 -4.380604866196076 0.005260496061559902 -0.0010640988464360834 -0.0006367196351304282 0.0006884226883172497
0.214 0.0005914304660896473 -0.0026137465673722465 -1.494979821924462 -4.244671089409443 0.0051585463445268445 -0.0015573418404740038 -0.0005857113603910763 0.0007222858701203411
0.215 -3.269538999528341e-05 -0.0021031937948994875 -1.8901091892269226 -4.120634825242676 0.0050779057508688824 -0.0017858201069984386 -0.000444134268519214 0.0006366885446926448
0.216 -0.0003300575922636893 -0.0016487346959121768 -2.26568748378289 -3.894795107974866 0.004996975321787363 -0.0022526126880761 -0.00033937633609626585 0.0006216129463677918
0.217 -0.0006311514847019521 -0.0009866965673404659 -2.61769855507959 -3.6461643486024506 0.004878786213180432 -0.00263101169360618 -0.00029700825260729893 0.0005184253221941538
0.218 -0.0007215883449596317 -0.00044395123820339174 -2.966880713732068 -3.3896000346112305 0.004657334395632728 -0.002958797611355405 -0.00028188489046907395 0.00035437787578152354
0.219 -0.0008957932768836026 0.00013150552746260367 -3.259782317014707 -3.0908846275515494 0.004447705322308598 -0.003333082065676018 -0.0002238759235460431 0.00021042888603333492
0.22 -0.0006827131661950559 0.0007373438193961793 -3.559057880063584 -2.754940895858587 0.004307511197302739 -0.0037596989070150405 -0.00017893282763729212 5.5078975806028506e-05
0.221 -0.0005029861154740704 0.001400632111934945 -3.7909480472021913 -2.431847941834142 0.004059565795171889 -0.004219894787033098 -0.00027444618143568724 6.0293831195816765e-05
0.222 -0.0002549456404820808 0.0019153104521146475 -4.011835590674618 -2.027622677609015 0.003677876168813072 -0.004440608259784902 -0.0003803245374811398 -0.00010285313566088513
0.223 3.999794616554994e-05 0.002247573698399259 -4.199550964414088 -1.6416918481165714 0.0033762949113580656 -0.004794664759293094 -0.0003368126952205243 -0.0002634428801095375
0.224 0.0005477127341527835 0.0028394359004791005 -4.326058282785407 -1.228357085505929 0.0029962893280898162 -0.0050106199997903 -0.0003929841682386951 -0.00028831273394371536
0.225 0.0011864461190473504 0.003182551352101782 -4.424316989790318 -0.7988009038365397 0.0026629349133099854 -0.0052599476653740354 -0.0005836079418379863 -0.000296962263389308
0.226 0.0015438290710224304 0.003404215943933679 -4.483073225207471 -0.3755923580412665 0.002287383127183706 -0.005448538891461035 -0.0006976686393773494 -0.0005108208057204895
0.227 0.0022194346435480527 0.0036451762234781223 -4.502627251868953 0.052188133669353855 0.0019697562654810937 -0.005770384017219371 -0.0008751783849884367 -0.00037459352241940775
0.228 0.002933975602637998 0.0036208861814245653 -4.471267691246659 0.4810474288286164 0.001500130917225409 -0.006009714133204921 -0.0010542060745287918 -0.00031555637163940397
0.229 0.0035904021898170014 0.0036558626869258194 -4.3980947897721165 0.909801025114279 0.0011635574430027044 -0.006052044843574575 -0.001221843177565519 -0.00017103933720706986
0.23 0.004434089016857115 0.0035651986469149815 -4.294868640083116 1.3258910482969346 0.0004816877904431326 -0.006163399752615702 -0.0013867383641783177 -0.0002246802246834263
0.231 0.004829393766956809 0.0033104317290260183 -4.138016590352546 1.73256117145484 0.00010373240399402784 -0.006209699207737349 -0.0014387303403085375 -3.237457155671783e-05
0.232 0.005444767281305208 0.002847235483107867 -3.9571263630320055 2.126240692431914 -0.00036883520563744086 -0.006254297186001292 -0.0016326360123321954 0.00010343196273858817
0.233 0.005830093291994345 0.002402456314664053 -3.7465186425871084 2.483441516982149 -0.0008202043223179022 -0.00624322637861289 -0.001651489179189455 0.0003095805900019808
0.234 0.0063285598027121425 0.0017941576552900468 -3.479379530274508 2.8340805509217275 -0.0011951680009724922 -0.006297474090623103 -0.0016143330189157922 0.0004640938746837431
0.235 0.006563519797520277 0.001357454684832625 -3.1979469953112147 3.15377610714439 -0.001696945511006562 -0.006236050060469689 -0.0015802693365065945 0.00048620150098057675
0.236 0.006941635334427767 0.0006709111936543686 -2.868586106040542 3.441457002881269 -0.002130099531273035 -0.006032201023602257 -0.001622521540693003 0.0008415405726989058
0.237 0.007036629573292897 -2.81658865850206e-05 -2.53801035251228 3.6982268845707242 -0.0026257673994528248 -0.0059105792362128115 -0.001601460424735746 0.0011745751636212665
0.238 0.0071589912995235925 -0.0005935148430880007 -2.1664550750277294 3.9165708593277153 -0.0032099676313213344 -0.005669088660668723 -0.0015814236614886358 0.0012646243054995994
0.239 0.007024161376239089 -0.0011881834305829987 -1.7720866021990644 4.093059786179357 -0.003501248313650418 -0.0055836665050895285 -0.0013827425822662725 0.0014974802211851473
0.24 0.006913607489743501 -0.0017603490795814534 -1.3793864701285696 4.271060939055753 -0.003911028646235989 -0.005419503384024633 -0.001285411858872861 0.0015472555301862482
0.241 0.0066049351206346075 -0.0023997934911451817 -0.9719411029343012 4.363022871728116 -0.00442872165770106 -0.004940225775277819 -0.0010987418851009694 0.0017158890164697739
