!Created with skrf (http://scikit-rf.org).
# GHz S RI R 50.0 
!freq ReS11 ImS11 ReS21 ImS21 ReS12 ImS12 ReS22 ImS22
0.13 -0.1392325623295043 -0.12010283422873666 0.00031146162569512843 0.0016411261985281053 9.392627188715726e-06 -3.2316341194885007e-06 -0.018181088280171384 0.049793630416737275
0.131 -0.14882575290395134 -0.10965491197605445 0.00047510564427970345 0.0016728047334763935 -0.00010444973069841875 0.0001243061323158877 -0.014011779062596133 0.05146373462746687
0.132 -0.1579653221446416 -0.09843835023553488 0.000636701346086627 0.001615714429053996 -6.575702535295356e-05 8.749810873176652e-05 -0.009143158127739215 0.052928936898302206
0.133 -0.1678384094824451 -0.08635561139452885 0.0007314313483867391 0.0015326708903541575 -6.0344706779872675e-05 -5.347656318170971e-05 -0.004111723688672686 0.054278308509221086
0.134 -0.17565316965646913 -0.07329164525682048 0.0009251586238249564 0.0015282532702500273 6.678516223142655e-06 -1.4327224349716265e-05 0.0008141027781814374 0.0545212050209004
0.135 -0.18193562651331371 -0.05889513308806831 0.0011236087143704724 0.001390640155692833 8.830060202116349e-05 -3.787989567653357e-05 0.006154151483251596 0.054946656740010445
0.136 -0.18739745809304878 -0.0443150703870746 0.0012263696700062685 0.0013050949201896392 2.102055439035366e-05 -7.76026423605536e-05 0.01100343777573939 0.05410250449472697
0.137 -0.1917387957607719 -0.029029858069977422 0.0014208899755096113 0.0011652839113599472 7.712420359195519e-05 -4.938153419084774e-05 0.016102112046835683 0.05392750418859566
0.138 -0.1948883536727184 -0.013868275449993174 0.0015826447333126244 0.001078453232556716 -9.38483824632075e-05 5.120432632042954e-05 0.02129469941736961 0.05223399439674465
0.139 -0.19662831555079543 0.0021449672712024965 0.0015377298016029126 0.0010578560468448965 -6.097836673233089e-05 1.39729111445725e-05 0.026267909264555377 0.05062861482339276
0.14 -0.19752964837858472 0.017498746449016094 0.0016931228760030286 0.000732453576318957 -2.0242074661977247e-05 1.0009751849977228e-05 0.03109792526805969 0.04851781346232766
0.141 -0.19693987496311285 0.03381281397470175 0.0016729741767086237 0.0005361520510950282 2.8037453642249026e-05 -7.612668235763696e-05 0.0358610852093416 0.045566196403909645
0.142 -0.19531860943891743 0.05014361768005153 0.001850479708519903 0.00034924999402979835 2.849688367074526e-05 -0.0001407541927500513 0.04053891076131977 0.042564819974383446
0.143 -0.19142369176565888 0.06626301240408296 0.0018635704275020506 0.00016578617481263641 9.823429004515466e-05 -2.4694506722532543e-05 0.04409933661016826 0.039163439737977264
0.144 -0.1867961158726711 0.08137273691794986 0.0017575949185052626 7.722598415109138e-05 1.134581398129493e-05 -2.3879101222001267e-05 0.04770922751691941 0.034804617775890674
0.145 -0.18043361120177545 0.09777640793325965 0.0018918856751937725 -9.79472995069603e-06 3.748450717986569e-05 1.965471122147163e-05 0.05160543528538621 0.03040503349110186
0.146 -0.17353750922355246 0.11283119069377041 0.001934231516908024 -0.0002569022421205529 7.97193037673672e-05 9.572586498546097e-05 0.0542469332830377 0.02546593732122918
0.147 -0.16463953857525576 0.1262253934008817 0.0018685615596786107 -0.0004449993413896022 -4.162306857515141e-05 -2.7273052334137886e-05 0.057027848423585624 0.020459728951269598
0.148 -0.15456832285436042 0.13928847380522905 0.0017242117271677904 -0.0006532453876388873 3.979678306956315e-05 -1.8204474813434756e-05 0.05917016445102096 0.015583057205109784
0.149 -0.14427963015662554 0.15366739242540786 0.0018445100534602655 -0.0008982270741504458 -1.8033698607067376e-05 4.9297616739696935e-06 0.06051207290617833 0.009593686322869294
0.15 -0.13128041896163417 0.16444294268869258 0.0016401139005532757 -0.0009475912283888367 2.8712669387450655e-06 7.54383859033575e-05 0.06164140580779078 0.004092555616432563
0.151 -0.11871618938344149 0.17621122480314785 0.0015085535785930118 -0.001291364182943811 7.295492623085675e-05 -6.187622464330077e-06 0.062116840859981585 -0.0016783689601799039
0.152 -0.10616240293006474 0.18565752905087027 0.0015141302619742323 -0.0012256058321968683 -7.831136186991529e-05 -1.5222186729269851e-05 0.06223869271434726 -0.007354064791428979
0.153 -0.09056897933395303 0.19412213342544138 0.0011920976030013806 -0.0014524741640381492 9.426212306904691e-05 8.11710645475053e-05 0.061655330344398844 -0.013293729045913276
0.154 -0.0749862885165945 0.20169097495663144 0.0011844894770232863 -0.0016163640004372452 -3.239927061535043e-05 9.769369548756115e-05 0.060549062790677254 -0.018901736020726288
0.155 -0.05984221914434676 0.20928686117202894 0.0009981065912531377 -0.0017567343525836158 3.610461315973064e-05 -2.7925661008036397e-05 0.058944893774656684 -0.024662141313217603
0.156 -0.04436481813921943 0.2145389498950206 0.0008417742676211967 -0.0017682279142836952 3.0362476366767232e-05 -0.00012981728004392095 0.0566631412228618 -0.030135759939905388
0.157 -0.024755995709677524 0.2175443101705815 0.0006309264671292899 -0.0018234542073115177 -2.1837066229500197e-05 -6.886521785836789e-05 0.0540315480718178 -0.03558550255812961
0.158 -0.007976408033284225 0.22065055320735788 0.0004770851647589089 -0.0020254892737437283 0.0001786853771923281 -3.143326251166123e-05 0.05067642789230268 -0.040586996442156784
0.159 0.00885747151349008 0.22158665187937962 0.0002668994452840326 -0.0020543539391656342 4.162586590975422e-05 7.639184415421088e-05 0.046910966449653375 -0.04530448420977387
0.16 0.026848677802362463 0.22103156825287973 4.412920581206769e-05 -0.0018490055985330488 -6.696125396422484e-05 -2.3650589233913786e-05 0.04256830683285659 -0.04971397759211468
0.161 0.044073815763973845 0.21746437470179533 -0.00012467955756433885 -0.0020780148368719827 1.616551609224843e-05 1.5322707597857224e-05 0.03816785803261306 -0.05355182720781602
0.162 0.060445240011892776 0.21527740070484372 -0.0003607743563696897 -0.0021021590671945305 -6.0088416283414584e-05 -0.0001529100743324231 0.03331894688082379 -0.05717772149950289
0.163 0.07925504171563559 0.21109930177628808 -0.0005445013640822373 -0.0019448597062572007 1.3915687415286164e-05 -7.89512603227594e-05 0.02792478658092332 -0.0604217925416493
0.164 0.0951444660008747 0.204110623450284 -0.0007471215202406868 -0.00179367215228874 -6.832763240047248e-06 -1.8658000757929225e-05 0.022356719772673422 -0.06298327778958039
0.165 0.11234809904373179 0.199446158732933 -0.0009662481742710244 -0.001924176355663175 -1.0177612500928438e-05 -2.8099780296684904e-05 0.01666488009713506 -0.06522655499157964
0.166 0.12796707767688023 0.18937067807284275 -0.0011397953291421372 -0.0018435736426399695 9.601815802801487e-05 -0.00010472807928300517 0.010507503897867781 -0.06681339023300326
0.167 0.1431571531852653 0.18123790932281236 -0.0012143277653922952 -0.0015568924318161387 -3.374661584078421e-05 6.966030291288552e-05 0.004505669257608383 -0.06796222800245372
0.168 0.15743043850451643 0.16868508130443535 -0.001510611736895637 -0.0015242678066735875 -2.7438001089162655e-05 8.50742137792947e-06 -0.001652506052544878 -0.0680722912321645
0.169 0.1700844314534981 0.1574826799432521 -0.0015633074790095474 -0.0013048839624653528 2.1021944820555195e-05 3.7351991024653076e-05 -0.008155608241200537 -0.06748689991087532
0.17 0.18423291665021838 0.14512553842914253 -0.0017125258485853727 -0.0013241126623744182 4.821368844808682e-05 -2.0207049398855752e-05 -0.014505058807087745 -0.06733744583970327
0.171 0.1962895088431708 0.12995968549273348 -0.0018430814032601617 -0.0009793391375321036 -7.807510744607213e-06 -3.2826102147876794e-05 -0.020504552090640848 -0.06621074043613136
0.172 0.2058364138816235 0.11620667781112184 -0.0019443633098692797 -0.0009257870639917008 1.0158610791035408e-05 5.99023478071512e-05 -0.02600694411490372 -0.06361893876369203
0.173 0.21552936497888264 0.09984632889230442 -0.0019999446128698742 -0.000731937642213816 2.4708080527374463e-05 1.3687655959006086e-05 -0.03236246365755641 -0.06204372984945988
0.174 0.22396331606720163 0.08305838481138923 -0.002069066415003926 -0.000714014942913912 -0.00010775492666085443 -1.9543565044211144e-06 -0.037739258624564564 -0.058760260065977905
0.175 0.23055362536039276 0.06550035038628556 -0.002034971068206372 -0.0003697022654378975 9.463754992187828e-05 -8.569811636298676e-05 -0.04320586808888979 -0.0555972835928842
0.176 0.2359559133898889 0.048659480667893114 -0.0022813238625407806 -0.00013578534505625836 6.691037998512764e-05 3.89522375039184e-05 -0.04838460626483833 -0.0512380108723019
0.177 0.24167887772584865 0.029155038618859767 -0.002168915872117606 3.815439820819007e-05 0.00010906123163296593 -3.471209499554219e-05 -0.05288675068889895 -0.04725507883102784
0.178 0.24366746999744465 0.01020863645857525 -0.0021954701606606126 0.0002732170634409543 2.3393335391713382e-05 -1.6114218130207295e-05 -0.057373563988421666 -0.042152299732672024
0.179 0.2445080982824199 -0.008817982023830629 -0.0021282022104420354 0.00047668465037393456 -2.7587725036043314e-05 2.6015828771504485e-05 -0.060713147190446355 -0.037501778609679744
0.18 0.24582055373420372 -0.028299542974597743 -0.002181186448749894 0.000444386880736246 -9.266694334789525e-05 -6.808231003566902e-05 -0.06384899798907136 -0.03188830577766978
0.181 0.24303709363526657 -0.047497460155177716 -0.0018546975070443184 0.0009411961520790442 -2.2380819174370355e-05 6.314675074580162e-05 -0.0672918658694958 -0.025400218234330082
0.182 0.2396365928036885 -0.06673870132453237 -0.0020946172803311056 0.0010640250120471798 5.991535414003627e-05 -4.361223929558063e-05 -0.06984838949523015 -0.019997785428263394
0.183 0.23543735280592717 -0.08618786903966219 -0.00195656962893136 0.0012022926322507595 7.505989023317987e-06 5.0037043210083226e-05 -0.07148649605856788 -0.013582234412378455
0.184 0.22898070140234694 -0.10532975818596652 -0.0017568909258524619 0.0014840310458617506 3.656633411516971e-05 -9.189078715530555e-05 -0.07259913627174665 -0.007130400952237664
0.185 0.21999059525683543 -0.12350621793137755 -0.0016302639762401181 0.0016594212199533144 -5.382112266052545e-06 -8.809532298804861e-05 -0.07313498436600237 -0.0002393345310330626
0.186 0.21184480785186233 -0.14216729440013082 -0.0013565547950026313 0.0016874023439153514 -1.682588908020805e-05 1.9265595298011612e-05 -0.07351995410575711 0.006189795999194919
0.187 0.19922635677484218 -0.15927172151849306 -0.0011894341525348331 0.002003608805572324 -3.135270415941138e-05 1.0049835188471001e-06 -0.07302255129999628 0.012793729931916862
0.188 0.18921200518889206 -0.17558880659734527 -0.0010763166698641478 0.0021109670540004986 8.54965525262503e-05 -1.5903886714537865e-05 -0.07149147151515074 0.01934427059339209
0.189 0.1744179110584975 -0.1908917237345998 -0.0008188892951043971 0.0021694533527138564 -2.7806343363459235e-05 -5.634694377633431e-05 -0.07001489585259023 0.025960091118938173
0.19 0.1596613743341195 -0.20610390675383344 -0.0006243607995300382 0.002177965273061986 -1.5230060963433966e-06 3.167446120579211e-06 -0.06764389398175345 0.03225316119709638
0.191 0.1450382700910691 -0.2201057258695203 -0.0005060646922330503 0.0022878768996994286 4.311619278381208e-06 -5.828869426683314e-05 -0.06507668087978137 0.03851259578570615
0.192 0.12452676143182134 -0.23047264859828373 -0.0003224417303878525 0.002412322762965156 9.607042105767361e-05 2.708493891311788e-05 -0.06115330133844704 0.04401141879532369
0.193 0.10876307583513231 -0.24083097607252285 -0.00011760614178561743 0.0024039605215531007 -9.756836594347656e-05 -2.4623486428966406e-05 -0.05755780302803202 0.04986912374692677
0.194 0.08740010103044038 -0.2507696986547643 0.00024378165911466323 0.0024803573821625463 -0.000166737073389426 -7.872235121244567e-06 -0.052865057534900804 0.0550730314942239
0.195 0.06883725212777562 -0.25895096037760684 0.00040685296763599425 0.0022882157901341934 -3.073521151882797e-05 -4.980403299725359e-05 -0.04801313764979803 0.06004084502527819
0.196 0.04735377950957302 -0.2626879747650483 0.0006434252248062099 0.0022295412801592914 -2.288062588499361e-05 -1.05526040008665e-06 -0.04267408857954476 0.0643400014360029
0.197 0.02469099560681949 -0.2675091720446414 0.0008595701805437032 0.002248875277991821 -3.194551090965219e-06 -2.6602094573540494e-05 -0.036565574414449756 0.0688151097204452
0.198 0.005089512313748003 -0.2704446680514752 0.0010997187157917023 0.002263367360282594 -5.612017837461735e-05 -4.581384057716377e-05 -0.03034709698084331 0.07221769799713448
0.199 -0.017208375114679705 -0.269011929783338 0.001351801770636863 0.002119352006485901 -3.006070181282205e-05 -8.424936550503196e-05 -0.02364125162922616 0.07459018188671301
0.2 -0.04029982938181476 -0.26827602087441005 0.0015446616857777414 0.001962144012387342 -1.682267124509764e-05 -7.965165023235461e-05 -0.017000155075742058 0.0767570355249751
0.201 -0.0623921962593974 -0.264970183882666 0.0016916858402910725 0.001776469387307767 7.29210667933616e-05 -3.9351849936612996e-05 -0.009898320853809402 0.07827602422225934
0.202 -0.08349321611334357 -0.2599778423861136 0.0018237761495042643 0.0016916551147540156 -6.472170271078762e-05 2.2562232817621337e-05 -0.0026969099952770734 0.07988384039783702
0.203 -0.10381966174234047 -0.2535717157867646 0.0023039831287852636 0.001383731440570375 1.2201201454646417e-06 1.4145956778779432e-05 0.004944350200795722 0.07985654113763625
0.204 -0.1251825316022635 -0.24510591891670053 0.0021834906836807363 0.001318770286036631 -7.590002592428803e-05 -3.742975062022005e-05 0.011887671305960648 0.07928341881474955
0.205 -0.14616649285057767 -0.23516208408810432 0.002391497781470815 0.0010108999827396381 4.489217711797762e-05 -7.808097510494266e-05 0.018914745232515982 0.07838524769263677
0.206 -0.16386867909750782 -0.22227876005368633 0.002307152684382047 0.0008415166660957809 3.8555457672191465e-05 -8.294805548954843e-05 0.02661335222658394 0.07646006139936612
0.207 -0.18152401068713916 -0.20922247394984111 0.002407786274484133 0.0006060638458720139 -5.999124333260051e-05 -4.523926514517206e-06 0.034074736994948514 0.07383436477139035
0.208 -0.19853508164112685 -0.1939855337443491 0.002512870896024782 0.00045079720115956276 -6.834616409955244e-05 9.427301427833617e-05 0.040275632506535444 0.07168213320665169
0.209 -0.21432773953499806 -0.17726794972854643 0.0025768967349490976 6.282528249435092e-05 -0.0001253668444577875 0.00014711035874616878 0.04707326483182688 0.06759474477278775
0.21 -0.22852724713492653 -0.1606209499455976 0.0026105557289234013 -0.0002090036342813792 -3.6088312249201875e-05 -2.246845819829031e-05 0.05362543088538704 0.06286538066368304
0.211 -0.24120481118657827 -0.14159361181918753 0.0024884471533026323 -0.00030419756957363584 5.0732908454265435e-05 -9.301309924444543e-06 0.059496448925847045 0.05797073413500424
0.212 -0.2515866153272548 -0.12279193311258502 0.0026341844978132823 -0.0007450499430785723 4.457226652755659e-05 2.092792453635985e-05 0.06446169099446888 0.05262345416725752
0.213 -0.26191286497170396 -0.10172902172037579 0.0025449913669801537 -0.0009507423039301649 4.233032024870289e-05 -7.151919861226561e-06 0.06966836549913549 0.04630398462594415
0.214 -0.2701837322138451 -0.08087431885791586 0.0023038289632456013 -0.0011746509794920241 0.00017369314276703202 -5.868209609328804e-06 0.07406732025499087 0.0397278777273774
0.215 -0.27654227532464976 -0.059845816952531695 0.002326012362810489 -0.001378683904342425 -0.00011364571010012341 2.6220858063553655e-05 0.07723291047566601 0.033330119371092586
0.216 -0.2809918724603167 -0.03664253268996781 0.0021901373357462984 -0.0015850764697225188 4.3207269318241877e-07 -3.462946587376551e-05 0.08096232945559395 0.025530358705049983
0.217 -0.28371808402022436 -0.014791451219625378 0.0019019343072451474 -0.0018281755455911047 0.00020592685630634627 -0.00011018755435539021 0.08320888436835576 0.018103550444389865
0.218 -0.28560591878586117 0.00810241351539162 0.0018187651171092019 -0.0020596980570244667 -6.275061654508557e-05 3.460448612771002e-05 0.0846439128844253 0.010345008533064493
0.219 -0.285891258718422 0.030284880551006886 0.0015309570268623941 -0.0021120225799735556 4.627555528180772e-05 8.255172168996287e-05 0.08551540916227686 0.0020828782850750975
0.22 -0.2828854932933126 0.053268022112543 0.0014916761383783218 -0.002306780163928261 8.941842691411234e-06 8.149336038549804e-05 0.08584808429949817 -0.005458176940963994
0.221 -0.27829805671071134 0.07562820803536514 0.0012271736882799227 -0.002374149239274006 2.0140955767240852e-06 1.2485014679524533e-05 0.08559865134564684 -0.013609096193535009
0.222 -0.27277036818488337 0.0989434648439018 0.001007822077605777 -0.0024557979194711585 -3.692539572682368e-05 -5.4065653811940357e-05 0.08423337183440677 -0.021772743651307085
0.223 -0.265668205354437 0.12046003189093753 0.0006755648606795611 -0.0026730246176501307 5.711355053710372e-05 -5.507871381659357e-05 0.08220156005320856 -0.029990341044337065
0.224 -0.2563600676937789 0.1423770070855042 0.00032879089260903793 -0.0028041429456577213 -1.3551976169229625e-05 -4.317658581781549e-06 0.07909632393198904 -0.037545140764689844
0.225 -0.24472189156445015 0.16125904796753485 0.00023992719290937716 -0.0027640834997162246 -9.50154031140013e-05 3.901861585686524e-06 0.07542969321678528 -0.04479939529764184
0.226 -0.23190927391915467 0.18113646394124963 -8.391204024953663e-05 -0.0028416644800262295 -2.2117421526014847e-05 3.034619785338015e-05 0.07147412813608693 -0.0517171070304317
0.227 -0.21874903614666832 0.20039169583749655 -0.00042706614858755007 -0.002809075246742631 4.032383434465647e-05 -5.304354388654351e-05 0.06655617304912215 -0.05839629902558708
0.228 -0.20238107431599062 0.21905442764243627 -0.0007198965632732778 -0.0027006791264870393 8.964766698696257e-05 -8.827596036093396e-06 0.060952180013030204 -0.06464378636377667
0.229 -0.1852125368900973 0.23507281018694973 -0.000805075907397739 -0.0027185713121480625 6.8483832384356e-05 -9.784763708118634e-05 0.054966179894987 -0.07001343587185131
0.23 -0.16686692868662914 0.25006603246415576 -0.0011532936863429253 -0.0024936341105013258 0.00010704797217152614 3.285221444536471e-06 0.04836022838776839 -0.0752012975402363
0.231 -0.1483198357060645 0.2639991052318808 -0.0013145823473515348 -0.002499850749895065 -1.018949392297515e-05 -2.802512548205198e-05 0.04137520455987678 -0.07947441379325135
0.232 -0.12730195512447606 0.2757436232782452 -0.001530039094939878 -0.0023354332940190344 4.046803539054629e-05 -0.00010503737787435357 0.0339144318904495 -0.08361273804035138
0.233 -0.10567107895957654 0.2884916105318806 -0.0018171143032463181 -0.0023339891288800593 -3.1056205949834933e-05 -3.368845345404115e-05 0.026387414851976824 -0.08628830394636194
0.234 -0.08037081110143111 0.29519321392668024 -0.001964369232003018 -0.001923547536337159 -6.557949960503446e-05 -9.535966552374392e-06 0.01822814568237974 -0.0883296715957435
0.235 -0.058758870652495666 0.3037251330216854 -0.0023776575243391247 -0.0017289557635078027 0.00016416858059603722 -2.9948529132930722e-06 0.00976622331487527 -0.09008265285032376
0.236 -0.03636015199407153 0.30901013487731244 -0.0025154234836887632 -0.00151095213206139 1.4953946912052992e-05 6.85805007087965e-05 0.0016418431586114975 -0.0915570879071332
0.237 -0.009876495175747733 0.31345833510774607 -0.0024555754122712685 -0.0013897397620934169 1.5348415355123206e-05 -3.357584427673027e-05 -0.006486826407815331 -0.09115819221635588
0.238 0.015275886215266607 0.314005476392253 -0.002605680329988317 -0.0009981892596619974 5.991744306260224e-06 -1.2702071110731678e-05 -0.015071737063761102 -0.09029202937466024
0.239 0.04195024127635991 0.3119040722400512 -0.0027558976086359535 -0.0006911151789772739 0.00011384212431808026 2.235730457017165e-05 -0.0228784265532553 -0.08799393218866296
0.24 0.06701582651696218 0.31100739297011537 -0.0028202894315858163 -0.0006592213286006645 -9.105828115638524e-05 4.707103640763538e-05 -0.03166145412422914 -0.0869153738896874
