!Created with skrf (http://scikit-rf.org).
# GHz S RI R 50.0 
!freq ReS11 ImS11 ReS21 ImS21 ReS12 ImS12 ReS22 ImS22
0.13 0.00038261628338397727 0.001732016511462176 4.68805322156173 0.07911272791199837 0.0020943194850709277 -0.00023957583923944496 0.0005252994767456278 -0.0007761034103923722
0.131 0.0002815171655766486 0.0015628947286484103 4.6684491034648214 -0.36711467800558034 0.0020787668022898 -0.000435194129655983 0.0005055603349983464 -0.0007667111188477825
0.132 0.0003695036835660246 0.0014910896385592891 4.605700431643939 -0.8121497218706787 0.002104015342172684 -0.0006045976258816804 0.000527392241799666 -0.000661910655577542
0.133 0.00035565808544967925 0.0013038381556816664 4.503534290741688 -1.2501392859016858 0.0020896931165897176 -0.000665069951520846 0.00029894773284730913 -0.0007987418823263545
0.134 6.65088837193326e-05 0.0011330413074781007 4.363765883907781 -1.6726184877681527 0.0021361627573206142 -0.0008663286584584064 0.00037005215716160627 -0.0006043788162843993
0.135 1.2169649746729024e-05 0.0009861433646205008 4.192889621180649 -2.073304492174047 0.0021132582867531033 -0.0010169183213804046 0.0001701878882818422 -0.0006730004343783179
0.136 -0.00017342579716056109 0.0009314682977322706 3.9744379978456257 -2.4603000766204857 0.0020315711787384306 -0.0013719248267367234 0.0001301237551111441 -0.0006294675714430202
0.137 -0.00038109046769300276 0.0009523798396368666 3.7125497002021453 -2.8380976329390606 0.0018080610586784901 -0.001439303976840914 0.00017619572514128358 -0.0005804120851884922
0.138 -0.0006126361914687562 0.0010654742281234406 3.4339772578815713 -3.1669629092343436 0.0017635186669936037 -0.001564521518817777 6.272837015297138e-05 -0.0006011570313583875
0.139 -0.000870215776153953 0.0011517083037912426 3.116730699248672 -3.4829095725272428 0.0016723467894700422 -0.0018479335638269517 1.5203710052715992e-05 -0.00047431367228301124
0.14 -0.0011156078420719877 0.0011930772296400425 2.7585574453321486 -3.7708166337011213 0.0016234051948299205 -0.0018178736969095524 0.00020961635058698664 -0.0004449219009973646
0.141 -0.0012910578699761822 0.0015523283612523299 2.399155092435128 -4.003676906120837 0.0014778224446574315 -0.0019039371622833513 0.0001131385958254123 -0.000432604205005454
0.142 -0.001562900912419015 0.0017154429017072214 2.005662146418551 -4.211606702622471 0.001398631142307163 -0.0021942555173378453 0.00026191955921581704 -0.0003985153127622215
0.143 -0.0017723920398343648 0.0020226942733667917 1.5946669593063896 -4.380382233389167 0.0012262928210584354 -0.002325794425661253 0.000302322730166922 -0.00046927463814765965
0.144 -0.0018201118516484756 0.002480545676282699 1.1835497388086074 -4.491705295481889 0.0010660095381183755 -0.0022795694098164724 0.00040532238460542884 -0.0004167566734415445
0.145 -0.001822599035158375 0.0029048558613113734 0.7363126339360228 -4.598157796897079 0.0009865271819275434 -0.0024518412853296295 0.00046100966008093996 -0.0003756920794985515
0.146 -0.001865829626371666 0.0031824164849888438 0.30389103869379236 -4.631642829666818 0.0007277601398801617 -0.0024562621041862914 0.0005289703125449368 -0.0003008381228034056
0.147 -0.0018754922031424793 0.0036341859004777564 -0.1531260084265149 -4.638830794838017 0.000550207311333217 -0.002524967256296317 0.000565760211783194 -0.00044130642132641335
0.148 -0.0016320702953262012 0.004234421822164852 -0.5673896073011511 -4.602856378935923 0.00043951046954912777 -0.0028336976739583046 0.0006333020725915546 -0.000605675901351878
0.149 -0.0014108387453121655 0.004808623848989175 -1.0050414488650987 -4.5232322767128315 8.683675090281655e-05 -0.0028046042505420455 0.0007405105137801858 -0.0005142340710614392
0.15 -0.0010983840776183297 0.00512964628308288 -1.433681104534548 -4.391015668843143 5.538603986512005e-06 -0.0027079525573588344 0.0007185427444423777 -0.0008510687644173895
0.151 -0.0005730039545134681 0.005433949197838053 -1.8423956873277265 -4.24671772906321 -0.0002762306117365913 -0.0028626274885133274 0.0007729183947365587 -0.0009708761403703068
0.152 -7.125755595856362e-05 0.006006533438982828 -2.2493463098799285 -4.050110225461252 -0.0006214759059080297 -0.0028492259328170588 0.0005014619251081026 -0.0010940263928447193
0.153 0.00028182234387122185 0.006183881475688595 -2.621067522763825 -3.8203689450565 -0.0007489851732292783 -0.0028051933335325784 0.0005570572302483974 -0.0012109553018893678
0.154 0.001038738446777101 0.006296888118539562 -2.946648235026731 -3.5419769216134602 -0.0008577912535494814 -0.0027231555146760653 0.0004986770833606571 -0.0013539971357036692
0.155 0.0015612524469672438 0.006501131842980157 -3.29527369870932 -3.259522476994708 -0.0010873433685673133 -0.0026718446437528093 0.0004623158177340272 -0.0014071761500928021
0.156 0.002255144312860868 0.006647907715727927 -3.549758972816176 -2.9253826416588176 -0.0012222135349825034 -0.0026911353589462827 0.00025313920502723037 -0.0015815055270044275
0.157 0.0029897892181452485 0.006519224588993175 -3.8582365685433477 -2.5574955820966565 -0.0015090703531048988 -0.0026241053739960093 0.00014867575966872094 -0.001655173123479656
0.158 0.003623015017626022 0.006463672449362682 -4.05774811042497 -2.206043912702092 -0.001808823570810084 -0.002445181977652407 -0.00014683658207817924 -0.0016409755220100704
0.159 0.004302512793115572 0.006097611921374297 -4.245727125486805 -1.7919646577591841 -0.0019219196893030396 -0.002326946279286651 -0.00016872412263742014 -0.0017560315650019358
0.16 0.0050468823658105615 0.005819783104368131 -4.394685878385312 -1.3862979672957183 -0.0020487204379471056 -0.002256701531182723 -0.0002859797550095769 -0.0018216779699340771
0.161 0.005639099645195118 0.005430404591356386 -4.499421661715498 -0.9583054618233414 -0.0023449279971707398 -0.002100407952022277 -0.0005610086234848146 -0.001852579879067756
0.162 0.006052359874944948 0.005061329612423633 -4.563148930760692 -0.5356683307942749 -0.0025343841003068507 -0.001972853194700849 -0.0007999554189069973 -0.0017207139233084208
0.163 0.0066629346348992995 0.0042342277674381834 -4.59453587359283 -0.09210528400411047 -0.0026024624897701904 -0.0017776724869955996 -0.000796336867002064 -0.0017286279334227164
0.164 0.007020272378346283 0.0036555871156784387 -4.58460621292803 0.33629533741209616 -0.0028370055656458215 -0.001640525853761944 -0.0011422875880087694 -0.0015516633848120032
0.165 0.0074386829044835005 0.002935742004255806 -4.531757281969188 0.7799707141601918 -0.0029313511639105336 -0.0014875614084702037 -0.0013283411079438637 -0.0015314523954705608
0.166 0.007443309954136396 0.00214930812317318 -4.4335924498973895 1.2061385377956901 -0.003122529989805643 -0.0012216437144654572 -0.0014849600118327585 -0.001402263754356588
0.167 0.007523453015966704 0.001517314498357836 -4.3016255159483165 1.6210264038953186 -0.0032261226675802898 -0.0010584533733361112 -0.0016146376197519257 -0.0012084527547307495
0.168 0.007676570150716827 0.0006354695124566513 -4.119673288843636 2.014168706788046 -0.003183900024589446 -0.0007533755452223286 -0.001653335754368181 -0.0010923749058137206
0.169 0.007310282749806688 -7.114000052117925e-05 -3.914109621667479 2.3985694610239228 -0.0034169939919485946 -0.00044511668321584464 -0.001669447981327641 -0.0008252625339022853
0.17 0.007323964022488246 -0.0008330377442763929 -3.667257179200494 2.757209714392289 -0.0034660366246640362 -0.0003122892565902274 -0.0017644952917284977 -0.0005648193959407603
0.171 0.006840596507965497 -0.0015576769840515117 -3.385130645573049 3.1010517012885797 -0.003514483829283997 7.86040991875874e-05 -0.001867875653647411 -0.00035700268020956747
0.172 0.006389502862039601 -0.0021319656831891745 -3.0795901638604235 3.4099320531056327 -0.003621778708966168 0.0002825557875101814 -0.0018681035721655338 -0.00029692308108283266
0.173 0.005926988790542356 -0.002762939399962638 -2.7298036975886166 3.6807142006571545 -0.0035518092522107236 0.0005570916425447296 -0.0018506875680682712 -8.484842670684594e-05
0.174 0.005410066023733127 -0.003143082365532302 -2.370644149561703 3.92538277144597 -0.003529231991323591 0.0009425608912338578 -0.0016941493794524753 0.00019302394010177254
0.175 0.004691415575885708 -0.0035159667197523247 -1.9910660087880168 4.127907067520415 -0.0036228922861401623 0.0009422158660425563 -0.0017121810763329774 0.00042317694577872713
0.176 0.004035138855890514 -0.0037951018523764177 -1.59058341701958 4.2916310810990215 -0.0035447089304004166 0.0013884872028046627 -0.0013984077749423518 0.0005539335055490971
0.177 0.0034080456272378512 -0.003909997404371728 -1.169215869495931 4.433626039595826 -0.0033562246757310706 0.0015217889206287892 -0.0014415833909354123 0.0007579518317610925
0.178 0.0026631225606457113 -0.003828277221576863 -0.7576017388598429 4.514014557374094 -0.003347224252051243 0.0019070459878344664 -0.001260652572146378 0.0007932512710018495
0.179 0.0019026443727761665 -0.0037565989139767115 -0.3440841844555185 4.546323923298022 -0.0030985851193596823 0.0022648382662326747 -0.0010543121998540254 0.0008885998354510292
0.18 0.0013399743987091272 -0.0035440931146381587 0.10552743960127721 4.578618053946778 -0.002959445552796693 0.002296615579654442 -0.0008514170786356908 0.0008756747216550829
0.181 0.0007135520130809245 -0.003209304793359694 0.5318746947554737 4.549582168852961 -0.002916192888980194 0.002575071566024243 -0.0005618451538920136 0.000993848277002575
0.182 0.00017210770793673472 -0.00290158029045841 0.967172600115206 4.481040977837157 -0.002620340607832358 0.002846325702804756 -0.00037642059959483014 0.001006782626433155
0.183 -0.00024137876731750984 -0.0025158031298850568 1.37298773873659 4.3576683645385526 -0.002523408805694253 0.003003952631969183 -0.0002776495557898292 0.0008523419564533469
0.184 -0.0006165953270258771 -0.002085244802553673 1.77146450879515 4.193165305033057 -0.002203165293627888 0.003303604580518027 -1.5448369745162342e-05 0.0007758986994369492
0.185 -0.0008420465074515489 -0.0015615029415464894 2.1719332084675265 3.9979280674310447 -0.002017268643930157 0.0034092111304321365 0.00016408985516669524 0.0006869901425731932
0.186 -0.0010260819790171144 -0.0010291646299454532 2.5476206209442944 3.786740586140721 -0.0018837375956406997 0.0036747187490800233 4.984830364457013e-05 0.000633935309474789
0.187 -0.0010757234205204561 -0.00035098378903980975 2.905092590882183 3.5244038920535 -0.0015649712028768434 0.003760758083039738 0.00027504048462180227 0.0005190673739671109
0.188 -0.0009939783692636467 0.00018086050740712408 3.2056868546456125 3.2245378049539632 -0.0013693050548132582 0.004023925767690318 0.00032910276179249276 0.0003910168356953273
0.189 -0.0009388910189665623 0.0006159300935619869 3.493387478278929 2.8897407658316148 -0.0009659776517633363 0.004067540660363316 0.00033390345187373285 0.00014595067735204609
0.19 -0.000826985549757405 0.0010335746036086932 3.7794163585598697 2.5623911484669946 -0.0007623263683893174 0.004280690026931939 0.00035676107708883237 3.0471283871911444e-05
0.191 -0.00033255211647243056 0.0016070472468645112 4.009203627525358 2.183903501655661 -0.00037732766038961956 0.004259356537191632 0.0003330267996606873 -3.121344728809314e-05
0.192 0.00014464673237148313 0.0019025732904679531 4.171810907042704 1.8144623225779442 8.321544026363806e-05 0.004405904812055961 0.00021145597185666165 -0.0003256136424514356
0.193 0.0005570221903344197 0.0022008255026152155 4.3249774361608235 1.4007078629538616 0.00031359952810807053 0.004432565900678072 0.00026152540845976783 -0.0002748387697537849
0.194 0.0009444583692230315 0.002291605138289546 4.418314641436073 0.9864717950731816 0.0006259662952263341 0.004397408759809735 0.00028610070543151633 -0.0005578325432324314
0.195 0.0013522558885295543 0.0023383086070092383 4.512371644686591 0.5570945266734165 0.0009324383921047887 0.00441637999987696 -9.775052394091523e-07 -0.0006517164528976801
0.196 0.0018501808940138557 0.0022953228906116723 4.537378779149709 0.13228224425113622 0.0011066461976978266 0.004319147524137803 -4.149833410520046e-05 -0.0005882664544561259
0.197 0.0023301221345188613 0.0022651103680809263 4.519029068788107 -0.2822041435939411 0.0016248746853090683 0.004232080848227914 -0.00015990990835203561 -0.0006747812938102293
0.198 0.0027398264124930613 0.002092566039216427 4.472550136258195 -0.722415949683022 0.0019574691226725994 0.004147496422413846 -0.0003997165674414731 -0.0006540785286289785
0.199 0.0030325755277120802 0.001847007942095254 4.3910444708661815 -1.1332062012853403 0.0024570105795652113 0.004134673418956775 -0.0004500822114066494 -0.0006546824243725743
0.2 0.0034914179562357413 0.0016079785731564142 4.261185524019041 -1.5538240710417002 0.002588450419222276 0.0039574509532735325 -0.0006408720872085447 -0.0006151784066280243
0.201 0.003649363543715495 0.001027347072307364 4.082517999708723 -1.9400060167266904 0.002953150894401793 0.003738970727762041 -0.0007015597131641162 -0.0005451974352813105
0.202 0.0038147094157110384 0.0006229669543574537 3.8821830840741063 -2.320240445606128 0.003277925702314236 0.003534903667977234 -0.0007459393873134364 -0.00036848904578795904
0.203 0.003924219513294174 0.0002891820138261401 3.6553049288713044 -2.672906794029535 0.0034627847072392845 0.003350594145645739 -0.0008546043587960933 -0.00030328714043026037
0.204 0.0038684723218548257 -0.00011324708294340042 3.3635880442709056 -3.0029412074367228 0.003707344730861164 0.0033255434312615723 -0.0008386957185276823 -0.00017803123970992098
0.205 0.0037805046451949167 -0.0006985425612583952 3.0737480754355664 -3.306345251845248 0.004098756338511721 0.0029204535132973087 -0.0008943546258447891 -0.0001141480651770081
0.206 0.003596044442761019 -0.0010911828236498608 2.745159357197446 -3.572767658807859 0.004372022523768935 0.002692008246391388 -0.0007724070257979417 -6.418207445054931e-05
0.207 0.0033913918409983557 -0.0014211771690850466 2.3813180639878078 -3.8320921645006036 0.00449438029591499 0.0023333986621130033 -0.0008445057554076315 0.00015009675442642713
0.208 0.002922228255238048 -0.0018655883235457903 2.017445595960656 -4.033621369609674 0.004691285111912576 0.002049819649801138 -0.0007715630257199958 0.00021658146838789358
0.209 0.0025687534756629864 -0.0019261016558891181 1.6154418145638978 -4.189576647608938 0.004884987260643135 0.001710586044150988 -0.0007742127889528016 0.0003338793282475195
0.21 0.0019633953545540673 -0.0021180426676016997 1.2131462109306237 -4.333137323566415 0.004948223455480206 0.0012861781802645997 -0.000655005475383821 0.000446762093780126
0.211 0.00158092119628513 -0.002290873692151375 0.8185515229596471 -4.424926372750223 0.005057560272227434 0.0008622157820863376 -0.000529173726772755 0.00035056382958697065
0.212 0.001099253839136432 -0.002263195600230691 0.3833095061667774 -4.479724637884704 0.005288927551875067 0.00058139850725328 -0.00035251279092399327 0.0004783005495266868
0.213 0.0005054371811738285 -0.002120577107398363 -0.034930767734037894 -4.494249021020931 0.005221554669191105 0.00017439955767670497 -0.00019302431421244708 0.0004773770855624978
0.214 0.00010898596692729294 -0.0019666776074124736 -0.4779793517302036 -4.47429754635286 0.0052549966448359915 -0.0002345646179737557 -9.464584286579442e-05 0.0005227877002236135
0.215 -0.00045685531813321464 -0.0016408491033699224 -0.8744966610239131 -4.3885726126110125 0.005378240039196808 -0.000637718587577461 -7.579797466470983e-05 0.00041100188466070025
0.216 -0.0008408897049026052 -0.0012139037773574173 -1.3155883576884144 -4.294716421934522 0.005419719313424464 -0.0011372331358768658 0.0001226785132292439 0.00035770970090901925
0.217 -0.0011385373390129434 -0.0007288251616729193 -1.697221799478253 -4.154218656761084 0.005360874257845728 -0.0014063697355600102 0.00012801291697637365 0.0002438771525996137
0.218 -0.0015565312922502614 -0.00018293647038224165 -2.078983374745696 -3.9554232065355164 0.005218793773659488 -0.0018756465632071117 0.00022731926297178172 0.00012677102676930227
0.219 -0.0016158081836273402 0.0005174671850597602 -2.467251412731654 -3.759828701143512 0.0051398556212917225 -0.0022605450189940738 0.0001995572142934619 -6.675578186691748e-05
0.22 -0.0018270863931307301 0.0009907370564136784 -2.7982040911230905 -3.520779907166737 0.005042917859652002 -0.002545290069850512 0.00026798670913275626 -0.00011442264685556237
0.221 -0.001777921945714478 0.0016180504042362584 -3.100618367013241 -3.2248343032188185 0.004843267164062816 -0.002966141450852942 0.0002843283074199161 -0.00026642991149696373
0.222 -0.0015830957704897502 0.002421096816249558 -3.39820990009563 -2.9151911244959066 0.00461155236592273 -0.0033822970527951158 9.21688451192774e-05 -0.00047781895767347874
0.223 -0.0013755195646255748 0.003079292045564647 -3.6797919594679236 -2.589350660340117 0.00438665297252303 -0.003701527260582522 0.00018578303872454583 -0.0006100482170190571
0.224 -0.0010544907530342551 0.003687882284330642 -3.8986954086181003 -2.237465673519496 0.00418399531457766 -0.004076423771292651 -7.201074113764146e-05 -0.0006855860575953592
0.225 -0.000541383692209835 0.004176002239888895 -4.075166768440925 -1.8497837733776061 0.0038905759422298734 -0.004582413879789237 -0.0003299683319118645 -0.000845269122187504
0.226 -9.42014599587874e-06 0.0047645475723322285 -4.245521651744126 -1.4379331591038362 0.0035005897030451066 -0.004829217519714692 -0.00030909084119257104 -0.0009990416078987064
0.227 0.0006816848772112267 0.005191585532606986 -4.370429466398266 -1.033503289724548 0.0032704159541706887 -0.005058241904317588 -0.0004484662844304152 -0.000984425138662158
0.228 0.0013362929139983748 0.00560476339050276 -4.446101372989541 -0.6174418885845531 0.002780650830492138 -0.005444023348113014 -0.0007123205087623215 -0.0010230780545347556
0.229 0.0020753938038186805 0.005899047725396043 -4.467587381150521 -0.19689011233880632 0.0025890899106290736 -0.005563210025757047 -0.0009540961399092045 -0.0009939451352539925
0.23 0.002948442726009549 0.005834255685262141 -4.480681351788667 0.22502148541705694 0.002198724254824107 -0.005659720769969927 -0.0011193346669841466 -0.0010969709746559712
0.231 0.0038679626865441388 0.005865116175488097 -4.428415723095683 0.6309961813598549 0.001679202600325143 -0.006037423138185325 -0.0014221439528005772 -0.001027039178207099
0.232 0.004677099179875861 0.005737644618535368 -4.345780512142437 1.057755014616843 0.001180764317353315 -0.0060700867661107475 -0.0014401418148351148 -0.0007796464018348314
0.233 0.00550391540023051 0.005538168607212032 -4.230912538636552 1.463276046394564 0.0008491725349683148 -0.006372869020256754 -0.0017449865321403943 -0.0007894962650491562
0.234 0.006267922781508362 0.005222019195289606 -4.070348835476828 1.8509446797216165 0.00036561130526393013 -0.006309415544726898 -0.001908948969300911 -0.0006254391661038568
0.235 0.006948497648880045 0.0046799314610646275 -3.8844865361762437 2.2229785950866114 -0.00015543902226212322 -0.006531534997529287 -0.0019606163759803277 -0.00029821096958722293
0.236 0.007589976629733029 0.004159628979920786 -3.649376931762489 2.5761411927912325 -0.000622134434067727 -0.006397107197264309 -0.0021182717954520394 -0.00022351545057055998
0.237 0.008100605451622655 0.0034685250708665345 -3.384237300831578 2.91122445743267 -0.0009742722547921496 -0.006370383302494658 -0.0022848848505502397 8.415729236784725e-05
0.238 0.008668475967914495 0.002793870958389873 -3.0873639316022587 3.223342242858938 -0.0016057320627476414 -0.006357089467754173 -0.0022708397129378674 0.00027662417325888993
0.239 0.008927442579965594 0.002076534619668952 -2.7708615615968895 3.4863767594934285 -0.0020970959986771377 -0.006296076454008947 -0.0022766555805297656 0.0007079415609522288
0.24 0.009254879144046092 0.001284727064916012 -2.4258775768589245 3.7355238871084753 -0.0025867610137551757 -0.006282516590855386 -0.002379909505861439 0.000807870417474097
0.241 0.00937746370217349 0.0004733032105723774 -2.073417964388046 3.9376612683609427 -0.003042679191962439 -0.005965560182015935 -0.002172884137437851 0.0010711795640058954
