!Created with skrf (http://scikit-rf.org).
# GHz S RI R 50.0 
!freq ReS11 ImS11 ReS21 ImS21 ReS12 ImS12 ReS22 ImS22
0.13 0.06414770874175425 -0.17207134307474914 -1.0494787005870771e-09 -5.426915942778079e-10 3.360748237462792e-05 1.4767822715167344e-05 -0.052429729052777534 0.007828366983882135
0.131 0.05223787870151086 -0.1782245654148204 7.33440393425248e-05 7.155100042049519e-05 -4.975513761054327e-05 1.547319947301688e-06 -0.05203547493301116 0.012567678781802365
0.132 0.039240980469913186 -0.18295761756060128 -1.1529993819475132e-05 -4.031357783667534e-05 4.005310976851329e-06 -3.14500614982405e-05 -0.05128253573543921 0.01670910305570694
0.133 0.02668144462609058 -0.1858924929671358 -5.30773888413838e-05 -4.942820047124652e-06 5.0599706001206235e-05 -7.819825740928394e-06 -0.049843717058230166 0.021277821558097355
0.134 0.013971265093799295 -0.18922797292189072 -5.6354824980153476e-05 -3.855782610443913e-06 -0.0001618757360822213 -0.000185398276564084 -0.04843564245499313 0.025415802657590567
0.135 -0.00011752497944138495 -0.191535913650818 -4.6883130264847206e-05 8.43164684776272e-06 -9.666186061394423e-05 3.425942899528697e-05 -0.04640508746088409 0.029661246291740245
0.136 -0.014127223217689019 -0.19313329555836065 5.090233608021517e-05 -1.8992785932437171e-06 -9.921814848002508e-05 6.0931300034540056e-05 -0.0441675537016071 0.03356678263843032
0.137 -0.026121722200417946 -0.19184090050106142 -0.00017602644192164934 -3.626312704654536e-05 5.763475885464753e-05 0.00010969080557692872 -0.04139169078783832 0.03757696873356048
0.138 -0.042569536570807226 -0.1910937413147482 -7.764859583175113e-06 9.944155592585357e-06 1.3548505582628443e-05 5.262612149953793e-06 -0.03841938317193201 0.04119974437202874
0.139 -0.055783555902713784 -0.18775791511719017 -4.345742945431856e-05 0.00010243753531771905 -6.919657377022521e-05 0.00010162878066373518 -0.034919621113333126 0.04475794086727597
0.14 -0.06834521116774929 -0.1862347033114542 -3.836295548010923e-05 5.663356626683478e-05 1.9711405260958114e-05 1.2948357885550595e-05 -0.03159718361858193 0.04778767270750912
0.141 -0.08190295593686246 -0.18152031184497647 5.552171582839793e-06 2.7646583548034912e-05 -0.00012526996446339859 -1.840751022606346e-05 -0.027481602143980956 0.05049980912019327
0.142 -0.0951935709318342 -0.17681674943937184 -4.438885352080969e-05 9.537888735537541e-05 3.234542286398675e-05 -3.524090843923859e-05 -0.023327124269329872 0.05297572813075165
0.143 -0.1090271025625532 -0.17031715390689003 3.6629653900574175e-05 -6.321032511140255e-05 6.753660284065902e-05 2.6439954269229956e-05 -0.01913712957690281 0.05513826355050754
0.144 -0.12220686282946189 -0.1625656583075232 -2.7263620525367273e-06 5.955531135840333e-05 -7.404481357158495e-05 9.61572866287308e-05 -0.014370519004135647 0.056941898176685074
0.145 -0.13501034763688244 -0.15544001175352776 4.1353401572022436e-05 5.25485880359348e-05 -4.4409589348104635e-05 1.578761999108564e-05 -0.009561032930612012 0.0584057225650896
0.146 -0.14557928434579154 -0.1459768325761249 -8.678812560977732e-05 -4.463894688818905e-05 1.781194379571942e-05 -3.165852953689629e-05 -0.004655997040235684 0.059367032882856295
0.147 -0.157043320659757 -0.13617768360052973 0.00010637880454845355 -5.086255227181347e-05 7.811066258931063e-08 6.365026211141195e-05 0.000462803925433149 0.06007206981128276
0.148 -0.16810116747537088 -0.12545570517896246 6.575194605625956e-05 -5.133857230210815e-05 -3.0292832358966247e-05 -4.5930588849637666e-05 0.0056056342707568665 0.060194873989926165
0.149 -0.1785162428924777 -0.1145160399078615 3.060349887164833e-05 -2.457562930669874e-05 1.286860690103761e-05 -4.0920989153562526e-05 0.010620342665248117 0.06013505501581969
0.15 -0.1868670366663407 -0.10255191848388201 2.870451525025604e-05 -2.0005167714076195e-06 2.6069497088774376e-05 -3.735563469771901e-05 0.015598483000003797 0.05947770497776185
0.151 -0.1939567382201714 -0.0880081907540462 -9.230090771700543e-07 5.911501428858292e-05 -5.2742036408047866e-05 2.753808279610392e-05 0.020555077707222126 0.05823494544667324
0.152 -0.2013574483817241 -0.07412876051666507 2.647680695684596e-05 -8.825407972167184e-06 -2.397403945613277e-05 -3.494365369465595e-05 0.02560237463714704 0.05664941813202819
0.153 -0.20807064703443856 -0.06012412884409143 -5.1654806794599895e-06 8.269673833758565e-05 -8.309490707851058e-06 9.582700918752075e-06 0.030685926868740665 0.05456655664254421
0.154 -0.2125233298892798 -0.0452035167791324 -1.2002078236260857e-05 0.00010702728634375013 8.041863612455572e-05 -8.480722593481894e-05 0.03551866101130843 0.05203258703068301
0.155 -0.2168420752773924 -0.030625937005681267 7.242826616334131e-06 5.641093983723015e-05 1.4437741142675503e-06 -7.756200880864882e-05 0.04034715595849966 0.04955114757532106
0.156 -0.21975233742765607 -0.014613992005440907 -4.161103307606289e-05 3.563742029552693e-05 -0.000125028255474477 -0.00020173591111238842 0.04380258069076456 0.046199274344897796
0.157 -0.2218304194185481 0.0009074279988617721 -2.3225136639460853e-06 0.00017031933917780506 8.56142572366803e-05 -0.00012634223030481395 0.048259534800770096 0.04253247119054415
0.158 -0.22225031562758357 0.017308536570533762 2.763068684441081e-05 7.920887412827714e-05 5.126711505782083e-05 4.398611707791894e-05 0.052349944341918794 0.03825575334521552
0.159 -0.22169094820386148 0.033379203277422824 3.8669583928660327e-05 0.00010470856037390384 7.121995242494258e-05 -6.0622140861884565e-05 0.05549096427545411 0.03402182158187594
0.16 -0.22004528264946896 0.04909774682686549 -9.751538239768199e-05 -5.610568409771823e-05 -1.3789448943439835e-05 -5.861543025546308e-05 0.058952491349305955 0.02961124817827612
0.161 -0.2167557000834839 0.06439890273223346 1.2681349218844519e-05 -3.359623302469736e-05 -0.00010392543089912933 3.6276487173865996e-05 0.061210487002121894 0.024841147954589554
0.162 -0.2133596653789535 0.08160083034342 7.549835034667886e-05 3.357394992662015e-05 -1.5243303496065672e-05 -4.9652701375895186e-05 0.06364096858804197 0.019109996109539045
0.163 -0.20719075879473112 0.09713104512346168 9.734525608146206e-05 -3.315532197543805e-05 -4.176013930098794e-05 -6.5149635789385e-06 0.06562020924791971 0.013980156146534223
0.164 -0.20104484536572512 0.11302305021481468 -7.261391873408817e-05 -1.2742547706863998e-05 0.00010251121198941331 -9.073164405738704e-05 0.06665813729974071 0.008544358632687866
0.165 -0.19389063452629834 0.12734720388327594 4.3064399075645624e-05 -1.4220857300736712e-05 1.967480692754264e-05 -4.557999622631002e-05 0.06770057378123093 0.0025617350423165143
0.166 -0.1843729285874321 0.14131462225100527 4.42646057658344e-05 -9.524768190821142e-05 0.00011355120123709941 5.680073293987373e-05 0.06823014351771543 -0.0031355749866230787
0.167 -0.17506577822397318 0.15416315164902228 5.342320335211461e-05 -3.280796187110141e-05 3.744373982088055e-05 4.179417070454964e-05 0.06815294404536484 -0.009399467603227562
0.168 -0.1653909901502385 0.1682113106954016 -1.937196101429255e-05 9.498418073892484e-05 0.00011304160131068163 -0.00011940598692182397 0.06748544749842973 -0.015023927907026353
0.169 -0.1512166839888783 0.1805627497125495 1.9021823273294565e-05 -2.076862471643834e-05 2.1937443213698093e-05 -6.291563994385446e-05 0.06628912771844843 -0.02117074831344086
0.17 -0.1403827852510035 0.19258454916888101 -6.449043081048993e-05 -2.3104807395838522e-05 8.466383807916576e-05 3.1996372578128626e-06 0.06484556100946862 -0.026805542301354183
0.171 -0.12755555619341316 0.2020412102916218 9.297605032740189e-05 -5.270377926606015e-05 4.123421171434658e-05 1.0295028205271405e-05 0.06263082350376004 -0.03223268574017427
0.172 -0.11333943688145431 0.21100394984568596 -3.973435572668557e-06 1.6015634004587154e-05 -2.2380343097359984e-05 -5.2238890575960196e-05 0.060043064759624364 -0.03766152097982154
0.173 -0.09873738759841118 0.2201098996829814 -1.0013093683210958e-05 -9.991845930734625e-05 2.835314568677072e-05 4.6891128257603234e-08 0.05677908653048579 -0.04267090896728368
0.174 -0.08376721304912443 0.22592188411918307 5.231259403402793e-05 -2.4790038931948145e-05 2.124310683555435e-06 -1.741892374623331e-05 0.053408524104271264 -0.04765584810016997
0.175 -0.06702120344470175 0.23361048732239795 -1.1028324355283978e-05 1.1001289937640952e-05 -4.1656776426313104e-05 -6.83089088796829e-06 0.04922704069275783 -0.052226337831587824
0.176 -0.05104983614790159 0.23865008674413812 4.4859083322377086e-05 -1.4479295254441826e-05 -3.6379886303924375e-05 7.045880662088102e-05 0.044982553392272556 -0.0565587344886002
0.177 -0.03547017716777934 0.2428841876816899 2.49905880268736e-05 6.54090883258843e-05 2.5136897434789576e-05 2.615105957643188e-05 0.0399815258137917 -0.060477137983975505
0.178 -0.01823241434582188 0.2437725550422521 -0.00011384749088087853 -9.463344791713276e-05 -3.5956891197182585e-05 4.693917535702559e-06 0.035120720772648224 -0.06378954626639831
0.179 -0.0013622062156632613 0.24666982269812113 -4.819903764079437e-05 1.5820824267517967e-05 9.756422554727685e-05 -4.46856898317622e-05 0.029897141484803224 -0.06661158859411385
0.18 0.0182119348628978 0.24944286439778118 7.686656549728403e-06 -9.983579594863285e-06 6.821241779922382e-06 -5.4239530551826044e-05 0.02445287027707935 -0.06921770187947023
0.181 0.035248089963018876 0.24993764997311751 6.174006392218345e-05 6.745589551610735e-05 4.9739503696399815e-05 -1.3821172768345103e-06 0.0184501287014757 -0.07134135425256312
0.182 0.05149717381335538 0.24615093553000048 8.447354898238409e-05 -7.247654585860376e-05 -6.114486615780424e-05 -8.661818097408872e-05 0.012241905032774137 -0.073062936455497
0.183 0.06888337796766697 0.2431629124424829 -5.542469509399394e-05 5.5168338278934715e-05 0.00011215486213209583 -0.00011068118982279228 0.006420944291579764 -0.074089810232712
0.184 0.08532652341184864 0.23913964161449633 8.52251581851275e-05 7.495143782042272e-05 -1.553462260607538e-06 1.2251240252611078e-05 0.0003315871774777833 -0.07482455214973457
0.185 0.10246609898260021 0.2337793030297708 -3.3035231905024004e-05 1.1023389537114117e-05 7.702277691637654e-05 6.757503684306521e-05 -0.0061753886676379245 -0.07468868143383864
0.186 0.11772298884671532 0.2279239557505929 -3.553201254356716e-05 4.864012332207884e-05 9.825072919071441e-06 -2.363773588889826e-05 -0.012352751513724277 -0.07409639990350184
0.187 0.13506590001669785 0.21933199264851658 0.00013080812279360043 6.709532202549629e-07 4.982246498090217e-06 -4.0281956994664e-05 -0.018203005705387864 -0.07313570492351155
0.188 0.14946937676850572 0.20897521538825925 3.466485500498725e-05 0.00012780134636482005 -1.0651843775673033e-05 2.8830706756284844e-05 -0.0244963299114576 -0.0716499256031589
0.189 0.16733546197149976 0.202642047852895 1.4608420207535275e-05 3.179637955608554e-05 1.6916841246789354e-05 3.402864449996517e-05 -0.03092264323154462 -0.06986319331864711
0.19 0.17927222450443037 0.18981858995554568 -3.42298455841043e-05 8.46719761271934e-05 -1.5236809020457005e-05 -0.00010636272906925524 -0.036679484134249984 -0.0674893555018747
0.191 0.1952079979685111 0.17815423880996586 -4.5653346405420914e-05 -4.358443041506981e-05 0.00012579144163875537 -4.587176966679932e-05 -0.04242143433754457 -0.06451142981365093
0.192 0.20646231345935062 0.16532201178789824 -3.505295133561351e-05 2.6556952063992833e-05 -4.318396619369421e-07 3.491466489544841e-06 -0.047444873010778606 -0.06033568132236501
0.193 0.2184324529989329 0.15191833540239447 4.7748372998931124e-05 4.278402701714091e-05 8.81871908132889e-05 -7.930617711247797e-05 -0.052130492501523795 -0.05707766882056959
0.194 0.23030782846076875 0.13679032155241624 -1.083441683727955e-05 -7.007455283473091e-05 5.997364554130827e-05 -8.651460871510078e-05 -0.05736497252268655 -0.05239289430941739
0.195 0.24049285586437952 0.12162989375199604 3.968686030237941e-05 -1.3203864370642018e-05 7.993319063131934e-06 5.219373532130026e-05 -0.06145651292334173 -0.04805558797350185
0.196 0.2494899928141871 0.10505511705961255 -7.1807228080423765e-06 -4.97999447577972e-06 6.401495348334908e-05 -6.311784991546255e-05 -0.065429691969404 -0.04311477722055935
0.197 0.2578766444933283 0.08728250942657571 6.348129611512566e-05 0.0001185317912396823 2.5063499545441434e-05 -3.236312064219685e-05 -0.06908216758662908 -0.03765504528578989
0.198 0.2651626364979902 0.069818745346229 -0.00011336559246789451 8.051571352927895e-06 5.5121009138955776e-05 -4.4580140401686794e-05 -0.07223649855888524 -0.0317143051142201
0.199 0.27002091032289005 0.05100286776326914 7.729342840651615e-05 3.266461675535169e-05 -1.4193186276044187e-05 6.558546990839962e-05 -0.0752113278479 -0.025588004149640773
0.2 0.2744367297920223 0.03208693135948213 6.027921302392722e-05 -7.216208610739813e-05 -5.152978363622958e-05 -4.1727996022612066e-05 -0.07722504888987262 -0.02010662326636361
0.201 0.2774467527139855 0.013729632561850917 -1.0569372315833374e-09 -5.275094027789654e-10 1.844120157571012e-05 2.661580251905012e-05 -0.07879776742012624 -0.013739126333495258
0.202 0.2799097471161952 -0.0057237259862911605 7.2632536042526e-05 9.385908543848647e-05 -0.00013733805167345564 8.485793140546803e-05 -0.08032300466305589 -0.006685355094315477
0.203 0.27992264360544733 -0.026168798667605752 0.00012773614266264083 4.638862625198112e-05 -2.9403612082392914e-05 8.937004022465318e-06 -0.0807373921274173 -0.00033026746450525184
0.204 0.27865742261989573 -0.04644330433542131 4.186800431414004e-05 1.578407660492119e-05 8.160463312538604e-06 -6.79940640450803e-05 -0.0808395851774859 0.006107180989906768
0.205 0.2769537765207209 -0.06601910579192502 -1.8322944301426138e-05 5.0150300129984754e-05 -6.56486691483227e-05 7.541624981168956e-05 -0.08058425227603457 0.012763291695710985
0.206 0.27237689262972675 -0.08614558540242166 -1.7280682930989243e-05 -8.254364558233557e-05 0.00022079447864561757 5.365527552266007e-05 -0.07948555964616659 0.01950743790736546
0.207 0.26627105184659317 -0.1053695730818807 7.559219805209318e-05 -3.263582063961533e-05 2.1346839846101235e-05 -6.291394467602649e-05 -0.0779583924403332 0.026049058107517915
0.208 0.25970663270034317 -0.12440118060946682 0.00010680985311135748 5.086749558448277e-05 -4.989504988013775e-05 -6.025920097105883e-05 -0.07591639105926033 0.032383531853854196
0.209 0.2523369292851184 -0.1422548243516096 -4.5713168775050726e-05 -3.625008257173656e-05 3.4887383953391687e-06 -9.149742271740376e-05 -0.07331383702152303 0.038585040288486944
0.21 0.24154353207303314 -0.16083505858524236 -0.0001067483462241927 -8.73352350631434e-07 6.834739205588316e-05 -3.967502396209305e-05 -0.07039693088618348 0.044699491183538075
0.211 0.2300078318594184 -0.17905873025891877 9.796806877549808e-05 8.527967580199026e-05 -3.6619979815445457e-05 -5.343054135251835e-05 -0.06671874048174 0.050290441807454046
0.212 0.21769012006204727 -0.19547224709105135 -4.5468268961073674e-05 -1.3792648598708363e-05 7.210823940033642e-05 -7.327787806905727e-05 -0.06252544652688294 0.05623644518391932
0.213 0.2056224136124018 -0.21063153365181828 -1.883446184079123e-05 -2.3084333260715276e-05 -6.653774974123561e-05 -3.608007512226326e-05 -0.05788279278032614 0.06158167699973917
0.214 0.19025203344860842 -0.22720501293105963 1.767359824985016e-05 7.51029882658028e-05 -1.0015382539755879e-05 2.541536653163816e-05 -0.052920931883751285 0.06645629787023995
0.215 0.17276375295327676 -0.2411088969251354 8.588448102492613e-05 -6.669107514396966e-05 -2.295534188462888e-05 1.500546659416639e-05 -0.04735138075621266 0.07091867123977669
0.216 0.15703181544514475 -0.2523933789391092 6.447678292336172e-05 2.6426633932928753e-07 1.5680477338707158e-05 -7.414360195011495e-05 -0.04165730110051595 0.07474263799375826
0.217 0.13988482860911078 -0.2639962285690898 1.1072127162346081e-05 1.0945284549558137e-05 -8.711098237489961e-06 -4.876132484643021e-05 -0.03530120421879335 0.07832298540242953
0.218 0.11839582879078485 -0.2739244767484842 0.00013427140584205917 2.167958839637717e-05 8.289113097116858e-05 -4.774425818776715e-05 -0.029017102820216453 0.08167622443528597
0.219 0.10252163339849024 -0.28408398578175664 -7.603723601601067e-05 8.495905221960768e-05 3.516519683695344e-05 1.875385985461086e-06 -0.02269600888014873 0.08426588726336219
0.22 0.08079811667891265 -0.2910403670155164 -3.14556526941354e-05 -1.1667991545356393e-05 5.426471620019846e-05 2.16236999612507e-05 -0.015351427545700968 0.086066862676362
0.221 0.05836302042443475 -0.2961533338311965 7.831667323785748e-05 4.721560500451492e-05 5.3232113645893966e-05 -9.64282536870544e-05 -0.008363501333256404 0.08735766884226644
0.222 0.03755768587815968 -0.30079542242208085 8.58051437977832e-06 -0.00015855476741240856 -0.00013726804268313533 2.2144223670564746e-05 -0.0011060576764861604 0.08768910014305392
0.223 0.01427127236388511 -0.303589310234611 1.8352267873926328e-05 0.00010437213036304035 -4.610982442900384e-05 9.743946470393018e-05 0.0073817261827641015 0.08876295488136755
0.224 -0.005950963527678 -0.306231856162303 5.9972894885740035e-05 -3.4927230783702485e-05 -2.535321580141364e-05 -8.608649533602282e-05 0.01358065755323559 0.08791600084460595
0.225 -0.025348482623109996 -0.30355467593630836 -2.1840946793415195e-05 0.00014744747610714564 2.225550573322704e-05 -6.985408355433186e-05 0.022072617576429556 0.08678712653812184
0.226 -0.048325895975115774 -0.3020514876187688 6.80933230420241e-05 -5.9744992415251034e-05 8.793487487817055e-05 9.525761873433594e-05 0.029328467025584316 0.08495021673274282
0.227 -0.07012513708324038 -0.29835780874683737 -1.3855978371574803e-07 2.2090536925782298e-05 4.149832123341946e-05 7.936242069944481e-06 0.03637273413760217 0.08264804082048455
0.228 -0.09093380008441665 -0.2937738246342038 -3.872504854553835e-05 0.00016014659899158608 -7.174129047390607e-05 9.584279761598234e-06 0.043584698497509386 0.07987001419675192
0.229 -0.1094227696571645 -0.2855214263091511 7.516247965235936e-05 2.5093470369755137e-05 -5.066258426405126e-05 7.465671170713659e-06 0.04960134840626237 0.07610646061091175
0.23 -0.12978222256143632 -0.2779230173351715 -8.646884318782525e-05 4.435551678044489e-05 -1.5841196941874314e-05 -4.941825318534577e-05 0.056682939792259114 0.07171070929530318
0.231 -0.151232339783865 -0.26995842386996427 3.743812617237495e-05 1.8886329318243106e-06 -4.2647952290690985e-05 2.631809152663362e-06 0.062357197113165085 0.06739769194327884
0.232 -0.17193992530828411 -0.2601966506386412 4.515928404959244e-05 -7.91201722979565e-06 -5.398363040371815e-06 -1.4759826689487297e-05 0.06822085606759799 0.06206940144335732
0.233 -0.18971452586209542 -0.2475551483596891 6.009226849328888e-06 1.2739132856678109e-05 -4.391356300712354e-05 1.066311408335115e-05 0.07405221963180272 0.056195167630293634
0.234 -0.20553448885141973 -0.23391640044278444 9.13474744655241e-05 -8.283791090742769e-05 5.449534969029896e-05 -0.00010717885041152158 0.07820957163300754 0.050114078480730406
0.235 -0.22123338214399124 -0.22075125150898112 -2.883178540911669e-06 -1.3748543965277046e-05 0.0001224243308368098 -2.4639260592743763e-05 0.08269991346727046 0.04379890104297657
0.236 -0.23747300505793636 -0.20400000027199705 3.855985520808166e-05 -6.48938127243318e-05 -3.053542212686071e-05 1.944735638274328e-05 0.08660827993449685 0.036601122892642404
0.237 -0.2531583109527684 -0.18780851121516848 -4.289637216354196e-05 1.503260292766341e-05 6.124149553499953e-06 7.327804022653595e-05 0.08916203833245237 0.029079750699467288
0.238 -0.26449086930663607 -0.16982049229903962 -7.74401657960089e-05 -3.283402116895235e-05 7.305680678427986e-05 4.312604759373388e-05 0.09190093387955131 0.021234326708296624
0.239 -0.2763144493252035 -0.1513463069134125 5.48089178693255e-05 -3.377613129342766e-05 3.681798380447106e-05 -7.522104524390426e-05 0.09280982716830477 0.013773504147513885
0.24 -0.2875210608939949 -0.131931552317594 0.0001235590605856958 3.987453710236964e-05 -5.443136088520599e-05 4.726436333985497e-05 0.09449175988534424 0.006216770674250192
