!Created with skrf (http://scikit-rf.org).
# GHz S RI R 50.0 
!freq ReS11 ImS11 ReS21 ImS21 ReS12 ImS12 ReS22 ImS22
0.13 -0.16081016561347788 0.08708580066062706 0.0002475066963574121 -8.815503670511694e-05 -1.855674164178427e-06 -7.315234443819904e-05 0.042944649401013536 0.026922402930599346
0.131 -0.15441344879085556 0.10187129496401717 0.00015830395531489654 -3.3256750824356554e-05 -2.178831524526212e-05 -0.00012105648082528235 0.045877512025643614 0.022347893653918625
0.132 -0.1456654649291379 0.11664787570784979 9.157059317397681e-05 -1.0730886411274495e-05 4.770535650271242e-05 4.24910886093661e-05 0.048115736861384366 0.017470914491441236
0.133 -0.13475740153430435 0.12960210778693157 0.00016368248991122266 -0.000159898893148901 0.00010727174650010369 -4.698916360451608e-05 0.05013110984632045 0.012603056112772858
0.134 -0.12364417365732364 0.14274660405914416 0.0002128530541900445 -0.0001330961680614461 -3.0921438931155315e-05 -1.6964082307161028e-05 0.051383998677200234 0.007400703218833672
0.135 -0.11154430759104512 0.15463333011469718 7.991509208582786e-05 -0.0001516050273117845 3.61529477218885e-06 -4.2319754238201814e-05 0.052371695415947536 0.002055901492968663
0.136 -0.0979458898845222 0.1655298707879755 0.00021533412051708147 -3.495637133449399e-05 2.543853703797589e-05 -5.0567735283309735e-05 0.05253591088199384 -0.0033831381818534532
0.137 -0.08357941126946045 0.1749208730806394 0.0001297901131522663 -0.00019196971875679915 -4.9748093307307477e-05 -1.4724153588943155e-06 0.05250829958928322 -0.008887189960001035
0.138 -0.0678975675397155 0.18160029352707122 0.0001648019428801843 -0.00019900682007286386 3.7879537161481875e-05 -8.207874251727632e-05 0.05136686619427864 -0.014320277000788542
0.139 -0.052188278788157384 0.18823468711681388 2.1721000643435183e-05 -0.0001687192155695387 -6.611676928934927e-05 -1.4657734862643397e-05 0.05024218365737524 -0.019621960424198257
0.14 -0.034548681916437035 0.19354245774879023 5.4422276076123905e-05 -5.85405276173797e-05 3.1096093392940024e-05 -8.771149700365888e-06 0.04824081192272341 -0.024810290046120956
0.141 -0.01852199622139746 0.19743632839938247 0.00013474803980144729 -0.00012763561560181206 7.262873074548968e-05 -8.278303331037714e-05 0.04552484254399088 -0.029723289056135305
0.142 0.0001484878616100022 0.19799799119604636 -1.7021469410337215e-05 -0.00030193966503092045 -8.687997419627489e-05 -4.700338805306504e-05 0.042649228561795 -0.03462582207758268
0.143 0.01656701041176414 0.19970768600765257 -6.469353509580944e-05 -0.0001747721592989807 -1.4602231922681452e-05 4.718585509852105e-05 0.03900990392904523 -0.038866550585065565
0.144 0.0353546176938667 0.19790133817716216 3.8123542014269854e-06 -0.00012851068321505544 -8.77417294140242e-05 -8.13472741216969e-06 0.03506585716604436 -0.04281708553405126
0.145 0.052836810176027885 0.1952713229177669 7.221346203151085e-05 -0.00013734609919035604 -7.317635550808597e-05 -4.605869535589963e-06 0.03060094634405703 -0.04632900370119224
0.146 0.0703412312529857 0.189751423164083 -3.9029470542792185e-05 -0.00014694152664843397 5.4416590528730694e-05 3.229415186588317e-05 0.02581686702807481 -0.04956898413950981
0.147 0.0872447054151037 0.1851815475106971 -0.00012628884453525361 -0.00019589739296704264 2.249171446744412e-05 -7.170946569656481e-05 0.02075957754652822 -0.052054913732741716
0.148 0.10442040048531216 0.1768843758717771 -5.119160706314768e-05 -0.0002599500433734808 2.8586508354234966e-05 -8.004875280675406e-05 0.015372440931554692 -0.05404087611305583
0.149 0.11943771281720265 0.16860992050203735 -0.0001450216900844179 -0.00017819085661307626 1.0047917184196617e-05 0.0001486425879643653 0.009842001838970094 -0.05583902728599956
0.15 0.13409379629626986 0.15766636229830602 -5.228958565602666e-05 -8.878394201832694e-05 9.877375133529995e-06 -5.2672033318605355e-05 0.004218793770561121 -0.05651006837969935
0.151 0.1483091390197524 0.14578274162508045 -0.00017860942983143304 -0.0001313367021867708 5.351661376676668e-05 2.0643635932532998e-05 -0.0016140462063605043 -0.056894300550660096
0.152 0.16160917653349524 0.13194839593918695 -0.00013020883849423873 -0.00016187480277229496 5.923180675263452e-05 6.311167260709326e-05 -0.007338617610407253 -0.05669790851773435
0.153 0.17403714986162586 0.11849767753296513 -0.00019093994402817583 -0.00028976472865691635 5.722003380758025e-07 -5.086375795054872e-05 -0.01318995036647566 -0.05562460951316351
0.154 0.18508655362105525 0.10340494943065677 -0.00017702648689330648 -0.00012865415491860116 -3.754788191594065e-05 4.462411084517686e-05 -0.0189477187725585 -0.054628597433942445
0.155 0.19337621744344016 0.08688374144463364 -9.966062818584766e-05 -4.424157076524009e-05 -3.692445847160098e-06 0.00012005031276014732 -0.024200898585541943 -0.05242058895357566
0.156 0.20104649204799815 0.07064330765370933 -8.162009722447682e-05 2.633553716011136e-05 2.702874457544012e-05 2.270965759501888e-05 -0.029526064392537382 -0.04989168428948584
0.157 0.20742620614321616 0.05296189620320425 -0.0001456353805349011 2.851478756540251e-05 -8.732762296728804e-05 0.00011442013331076403 -0.03432655281244907 -0.04680881828046391
0.158 0.21094841169349962 0.035581625213751446 -6.990335806929806e-05 -2.0778913968773453e-05 -5.6452056309538915e-05 8.854351836302604e-06 -0.039339553779106834 -0.04345211363461715
0.159 0.2155598082904791 0.016845707919952862 -0.00018349107425338462 -6.047854313425913e-05 6.596668001898959e-05 -3.6193485527496934e-05 -0.043475024650433805 -0.03937108465307307
0.16 0.21748888307162736 -0.002074785744782048 -0.00023882264950132953 -3.0051221536857026e-05 5.4524597083565196e-05 4.527849692216711e-05 -0.047241133756411424 -0.03481723766231444
0.161 0.2184282029857024 -0.021408051634411063 -8.713317765660391e-05 -6.346947724792378e-05 9.691275571052935e-07 -1.4640835810059254e-06 -0.050515600564689685 -0.030137619608969966
0.162 0.215522881210865 -0.04064624337766835 -0.00016804444092821972 -2.3009887721897083e-05 2.47516995734162e-05 3.904890942815382e-05 -0.05377024029248233 -0.024904084668354077
0.163 0.21261310155393714 -0.060223331998342074 -0.0002650132241353309 0.0001950389955357776 7.694277381183089e-05 -0.0001406344378084265 -0.05609916065480973 -0.019573541186708062
0.164 0.20719880549995728 -0.07854907044834875 -0.00027855193735071157 6.410878308981226e-05 -9.8270858725186e-05 6.898987453389432e-05 -0.05802810010116336 -0.013956421947813599
0.165 0.2018977423675681 -0.09775745939721352 -0.00019637110331411866 0.00014576328568865948 -1.1951740620017374e-05 -6.978305253713845e-05 -0.059593295235199115 -0.008151676768666806
0.166 0.19321855759017 -0.11539037066220914 -0.00010380346302572934 -5.127821333794811e-05 -2.0331561551202127e-05 -0.0001086243551498574 -0.060007610344237156 -0.0020709355387218517
0.167 0.18451853897543233 -0.13242413464027572 -0.0001216410937003027 1.379205000504136e-05 3.80753027810345e-05 -8.398828332682745e-05 -0.060206439010252855 0.0038801860123829192
0.168 0.17219638128523854 -0.14853762000979023 -2.8442940703289133e-05 0.00014283962738901386 1.07417523998667e-05 -3.30671902153201e-06 -0.059764903910376845 0.009992837762538618
0.169 0.15813250810037835 -0.16483830462697452 -2.9120594530303002e-05 0.00026275272414902535 -5.7763124994126346e-05 3.540812336920553e-05 -0.05866462098219457 0.016269139266330352
0.17 0.1425031089583639 -0.17882540754035686 -8.896636365442229e-05 0.00016158905186555096 -1.9535293079363216e-05 2.9223691200859564e-05 -0.05695498390451127 0.021925365395122236
0.171 0.127242121901898 -0.19315614454693095 -0.00010114076864287871 0.00024945039021514255 8.367430923333617e-05 3.910481939258849e-05 -0.05470731536685796 0.027752729292824536
0.172 0.1122839343782146 -0.20433610604057334 9.009458432181933e-06 8.221298431281106e-05 3.56660620762585e-06 -6.904560606402149e-05 -0.051875244097774845 0.033197532874228615
0.173 0.09299836202479138 -0.2150432823021474 -5.559849613629191e-05 0.00016650584831296052 -1.0197723148947974e-05 0.00012856574700915367 -0.048373479213425406 0.0382952619260959
0.174 0.07272858877047754 -0.22367990285786774 1.0582457680482185e-05 0.00026519352131711957 -3.7360462336138146e-05 -5.750431464814363e-05 -0.0444100443678641 0.043285960171783905
0.175 0.052685261543085546 -0.23049804813492386 -8.218101937832377e-06 0.0002303818842202912 6.130519400329495e-05 -3.207761220767943e-06 -0.040073367753070174 0.04781051349359408
0.176 0.03205400866924437 -0.23710090967880568 9.373443867943049e-05 0.0003170771174005723 -6.241312239904294e-05 -9.698846078997692e-05 -0.03516151313371104 0.05184649283341328
0.177 0.012132368952521896 -0.23898056518298216 0.0001417864505283387 0.00028662721368367575 3.056926493155115e-05 -5.984922313765039e-05 -0.030069639986958316 0.05551670374615592
0.178 -0.009538234580341271 -0.23984642697800176 6.278189762960568e-05 0.00023507434230626593 4.842222715984483e-05 5.455499715564584e-05 -0.024334592311447103 0.05847808225769207
0.179 -0.03313183938231065 -0.23905560940216536 0.00011885282356048946 0.00021312928920022334 -5.277574966157767e-05 7.841612827026193e-05 -0.018188566640012237 0.06085469877485028
0.18 -0.05491532341523717 -0.2366861744949632 7.967628218407607e-05 0.00026664449856291693 0.00010249379427821854 -0.00015074207526087822 -0.012236150989574968 0.06244931024747027
0.181 -0.07572935644459634 -0.23199416029523803 0.0001429958332494794 0.0002907660200920641 -1.4441924909691605e-05 -1.6158620849416884e-05 -0.00540545502572047 0.06373603605439256
0.182 -0.09622237033497928 -0.2252751884005416 0.00018232600722868083 0.00015589318418663103 4.277566855085867e-05 1.2201445578335783e-05 0.0012024487238471455 0.0643617848728531
0.183 -0.11797087182628158 -0.21600932501032336 0.00018555455967041688 0.0001751135121627697 3.401004808945984e-05 -3.853390863607636e-05 0.007419024332010447 0.06429735746598388
0.184 -0.13543477361389142 -0.20559275747550596 0.0002008190960079247 4.961743260460718e-05 3.1068196475452276e-05 6.834573298609867e-05 0.014009163694182654 0.06341628384317978
0.185 -0.15637767596755348 -0.19246557931743763 0.00016000369558620862 7.582967971314762e-05 -5.927374277516792e-06 -1.64878949490381e-05 0.02084215399991146 0.0616751652089979
0.186 -0.1748134018457529 -0.1790597789908725 0.00010607903434637816 2.8078166644896238e-05 2.43429079713308e-06 -9.129676937499282e-05 0.027474225863862518 0.05959620292401456
0.187 -0.1910397391324548 -0.16257857891755637 0.0003228052772274551 7.5373457299673845e-06 4.192821525382741e-05 1.2840625110666422e-05 0.03357602578846972 0.056863287107479024
0.188 -0.20468326632264183 -0.14515860262735297 0.0002507674223281535 2.3587641528404668e-05 8.625437312034874e-05 -3.904945733744716e-05 0.039130020200485206 0.053454451354080584
0.189 -0.218572508223799 -0.12547863030280956 0.0003588712553868782 6.950680040861167e-05 5.505442013862579e-05 -0.00014318819056229493 0.044749430515072026 0.04890902186657612
0.19 -0.22953065126698974 -0.10577713305199095 0.00027816991759102566 -2.4169511136246835e-05 1.8474835106393553e-06 7.30258514265142e-05 0.04955971301446966 0.04443446371297429
0.191 -0.24001330220855882 -0.08418375064927931 0.0002831824838084842 -0.0001373354771109275 0.0001489307193000291 -8.373564147137854e-05 0.05445332499351443 0.0393390440611045
0.192 -0.24675983583372033 -0.06241835750276283 0.0002638966102996815 -6.07500653538914e-05 5.859766155528621e-05 -3.668535613825204e-05 0.05839268647427456 0.03330422606420702
0.193 -0.25271604207639375 -0.03988500817347388 0.00016036731749978012 -8.597130983255665e-05 8.45945802287961e-05 -6.392762225373239e-05 0.061783879804433 0.02734786037830437
0.194 -0.25589606757907624 -0.018034253673688452 0.00028561671213131956 -9.429562701608307e-05 6.6759370902617285e-06 -0.00012526019886004652 0.06444032252947433 0.020752300497295924
0.195 -0.2573506252194039 0.00579095053319369 0.00017622028078341325 -0.00011228159117640405 8.556186898113139e-05 -5.2842475647806576e-05 0.06668871850029243 0.013979219241384611
0.196 -0.25657325030040445 0.029020215728355125 0.0001873938410746955 -6.597886470705747e-05 -0.00012053681163514409 -4.651506128361899e-05 0.0677754561241293 0.006983656270784158
0.197 -0.2537834519366345 0.05405185074797644 0.00016749305511266644 -0.0002368943755435122 5.387292623383721e-05 -7.999924594680805e-05 0.06826728190766997 0.000271620746043215
0.198 -0.24913123543314955 0.07479479419700039 0.00019094724746481238 -0.0002493220988279359 8.250438383215194e-05 -0.00013500652807010795 0.06839849630665411 -0.0070778998811745
0.199 -0.24181901172701611 0.09735619525553907 5.0315209933129435e-05 -0.0003551994955864042 -2.8560622986141797e-05 -4.601312107558627e-05 0.06766485908124054 -0.014451934854366594
0.2 -0.23300398906312017 0.11952296302091604 -1.6011018484646457e-05 -0.0003347593440831783 8.374390535892623e-05 -0.00012730436588051736 0.06576815992145582 -0.02115888517707763
0.201 -0.222914526191586 0.1401391691861159 9.071088780531629e-05 -0.00029369151863608417 -8.771480835080146e-05 -1.9998762354836798e-05 0.06353826847233736 -0.028077806041713164
0.202 -0.2095424655497674 0.15911444416468998 3.0226562738742084e-05 -0.00013722845620897585 8.958969470571029e-05 6.842490157409265e-05 0.06057991991453067 -0.03464345706279361
0.203 -0.1955932288934266 0.17947364447173722 0.0001579848023370512 -0.0002387597277230882 -7.864085882718232e-06 1.1635016321443726e-05 0.05664198403652299 -0.04090845709730544
0.204 -0.17905875973736 0.19589042880618596 -0.0001235444562584449 -0.00029953263193994935 7.381370950753125e-05 -7.107711971313332e-05 0.05243609036003022 -0.046343756759589294
0.205 -0.16297421187791242 0.21335429236009987 -7.936570706816835e-05 -0.0002952304995517296 -6.730227307052697e-05 -6.351955085512928e-05 0.04758776239962961 -0.05144495819554403
0.206 -0.14428630135400441 0.22539746188583298 -2.0087760510392162e-05 -0.000288682498289255 0.00016653764764978324 -4.882167336059857e-05 0.041866683869944764 -0.05652716960657512
0.207 -0.1245300467152989 0.23850492085394676 -0.00010337496507767898 -0.0003676911667870766 4.393056031537049e-06 5.747189974676378e-05 0.036050418349270405 -0.060868865031596504
0.208 -0.10031992334739877 0.25065909216121396 -5.571693241595497e-06 -0.00020843004083553424 0.00011682299025857002 -1.0712437526713017e-05 0.029745427527950848 -0.06425761090473245
0.209 -0.08138540096534275 0.2605974198791413 -0.00020207902920878185 -0.00028868253317575285 0.00014522224018105416 -0.00010591911222780458 0.023032171517828846 -0.06699412884418644
0.21 -0.05641932891887427 0.26605635694721624 -0.0003764209855060045 -0.00022193636177263003 -2.0425061306798605e-05 3.0663209868672375e-05 0.015912164765212625 -0.06918133248799212
0.211 -0.03389573358388055 0.27420382401793425 -0.00023789381025233726 -0.00013786755039399155 -2.1162873449501167e-05 -4.4013127438471715e-05 0.008656156057957614 -0.07109976521912964
0.212 -0.010492073274162406 0.27566404986661214 -0.00025316597413274416 -0.0001525876803363505 -3.3727484315287525e-05 -5.1191413849783136e-05 0.001731689263018179 -0.07153513441421742
0.213 0.013317571287272198 0.2780473372039793 -0.000391461663487736 -0.00019731292183518856 3.803728471557587e-05 -8.408728899787424e-05 -0.005459021333509238 -0.07148145670976502
0.214 0.04086211321040465 0.27781853253152383 -0.0003876479490126156 -0.00011840028539915044 5.472739810561632e-05 1.8863980783273443e-05 -0.013156789209897216 -0.07039823648904676
0.215 0.06405436774963463 0.27437582855772513 -0.00026421365095026267 -0.00015292834800124654 0.00012057471269912114 -6.718533634242734e-05 -0.020004341660254048 -0.0691756620230581
0.216 0.08977495102712443 0.2686133114426128 -0.00017375732459659255 0.00011716632682246184 3.811403685254795e-05 -6.95232871927113e-05 -0.027193141372029574 -0.0667935129845839
0.217 0.11265751648950435 0.26074574846574866 -0.0002449322244463133 6.534311305981193e-05 -5.190829867663208e-06 -5.578177979692143e-05 -0.0337541529369063 -0.06425173683483346
0.218 0.13688396892296242 0.25147481769391034 -0.0001465759466377359 1.3307214000949368e-05 9.307992599096222e-05 4.9923726077781384e-05 -0.04026551479858303 -0.060636754412107606
0.219 0.15912929672716278 0.24024016848699642 -0.00041478902457231455 -6.297394022891515e-05 2.7939954793279246e-06 -1.702406710841217e-05 -0.04633304090388658 -0.056300255163709505
0.22 0.18126850526253369 0.22670952452179355 -0.00041075278728174784 1.0980128006931972e-05 6.356011188071659e-05 -7.182683519260721e-05 -0.05206429500094719 -0.05161191930616302
0.221 0.20174155748024694 0.2102679500079017 -0.0004753920677044051 1.0632504532092907e-05 5.933272472334542e-05 -1.3235998755730833e-05 -0.05693154228057398 -0.04599951811195467
0.222 0.22067159738103106 0.19244847386896868 -0.00025902396535506356 0.0002029980917401545 -6.628397663231017e-05 2.321840655279051e-05 -0.06142022297655283 -0.04048475732136924
0.223 0.23830989430683794 0.1735894962338333 -0.0002080873014701063 0.00011316594459886536 -5.481417941906873e-05 -3.1517562068984e-05 -0.06561875287883619 -0.03422722183930725
0.224 0.2552556042116347 0.15164914403611907 -0.00012278780630156093 0.00017154772511070147 -8.244623469669512e-05 1.1667320785323096e-05 -0.06880398829353293 -0.027450007930769005
0.225 0.26945168981553697 0.12828517164179928 -0.00021018171574770932 0.0003081509746618517 5.5439493021600225e-05 -3.255461573546992e-05 -0.07168719608312217 -0.020365692514354928
0.226 0.281842833615767 0.10495532474214604 -0.00016537784391863815 0.00025239321414787126 8.476779398894489e-05 -6.36915614526678e-05 -0.07344415979269743 -0.013125796845167757
0.227 0.29093843177809353 0.07915379486827394 -0.0002490406381431998 0.0002995218839995666 -2.0511398476796763e-05 -5.780964822593097e-05 -0.0747510114788269 -0.005729220926969907
0.228 0.29805019172248276 0.05313590098608207 -0.00027695489856910876 0.00029417051760590585 8.229477929243655e-05 -3.6855335089669186e-05 -0.07504437917909736 0.0016169993766111043
0.229 0.302507018379129 0.026320467791021488 -2.4342416415978466e-05 0.00015989487105826526 1.8650103959726223e-05 -5.2860894959241303e-05 -0.0749541442550988 0.009255087878370137
0.23 0.3053568065363896 -0.0011271202297715183 -0.00017454109557269975 0.00026114211936748363 -7.487555161058089e-05 1.1127608168360624e-05 -0.07402352241701167 0.01698339640071034
0.231 0.3055657135722476 -0.02891283965128837 -0.00011902371732647913 0.0002862440992641161 4.940012853867576e-06 -8.318819523615072e-05 -0.07195071398236866 0.024227197478717512
0.232 0.3027847519998573 -0.055677565601180916 -4.423354580625763e-05 0.0002630072390332646 -3.425704575743112e-05 9.062500520733498e-05 -0.06941898398323337 0.03152181044498916
0.233 0.2984468130352792 -0.0838330848959442 2.8757461542416467e-05 0.00045003597112581973 -1.5475856380206112e-05 6.140992220934343e-05 -0.06634775008301055 0.038257657109105274
0.234 0.28879636662307046 -0.10888074146273478 6.483246782814953e-05 0.0003783845905384508 2.2615561739134015e-05 -7.32393339563446e-05 -0.062083745460599485 0.044951458542460764
0.235 0.2801051558084974 -0.13626790102938047 0.00015158644729997911 0.00039305289129882735 1.3104995409289414e-05 -0.00010906686233548 -0.057534425957935224 0.0510702315750272
0.236 0.2670672685168707 -0.16058793912790392 0.0001511047838993105 0.0003748064937475278 -4.1672716988450216e-05 7.762014702673084e-05 -0.05230091682129972 0.05653240202829307
0.237 0.25274794614282975 -0.18390871446771534 0.00015794121132667254 0.00043192309475018244 0.0001419967212459018 -6.15520897768179e-05 -0.046492290736079536 0.06194302384297687
0.238 0.23417626139535114 -0.2056779604191798 0.0001698445579375188 0.00045379826305353587 -4.7760465144992805e-05 -4.066964790071361e-06 -0.03989704898735334 0.06660538954226378
0.239 0.21501470543086526 -0.22668653070068434 0.00019748298404458523 0.00035035853938643325 -1.252410023476571e-05 -7.099939615831621e-05 -0.03343910491083 0.07018040781177183
