!Created with skrf (http://scikit-rf.org).
# GHz S RI R 50.0 
!freq ReS11 ImS11 ReS21 ImS21 ReS12 ImS12 ReS22 ImS22
0.13 -0.18310742346218817 -0.006419250094639073 0.00019583644776475703 0.00013296933562113487 -3.680094206841103e-05 0.00013099894233344807 0.03718055757184572 0.0380395814269117
0.131 -0.18465793705162162 0.00912214258582542 0.00022637378717025794 0.0001712512512176127 2.6345771929763883e-05 -6.10344075832741e-05 0.04103835994525819 0.03458333778563847
0.132 -0.18503680375928508 0.025028234181253266 0.0003389361483521025 0.00014512600755622746 8.827253131897704e-05 -3.449022565765209e-05 0.04460401371324523 0.030307522174434946
0.133 -0.18355846714466717 0.040956602383305514 0.00032920823438133937 0.00012955543462946586 0.0001042509284124843 -0.00013164067936115789 0.048150245391757045 0.02584773984356901
0.134 -0.18088987618007457 0.05695301817639826 0.00037406186210506536 1.2193372024186157e-06 7.36161768900858e-06 3.595758362807855e-05 0.050768772819502005 0.02090655148726715
0.135 -0.17656603080808772 0.07302324547454533 0.00034208909249192174 -9.194689687702536e-05 4.896231908511507e-05 6.794454274494135e-05 0.053138567911334596 0.015730509666794828
0.136 -0.17053178696534615 0.08812405522188621 0.00034743054332060197 7.641797858213207e-05 -9.56264373359361e-05 -2.1528427469028146e-05 0.05483497366391282 0.010493558392345143
0.137 -0.16450061510839456 0.1035414522958952 0.00041847307208012463 -0.00012037354470604413 -9.352956502590756e-06 -1.4920282731510212e-05 0.056074914802663155 0.004572865320407541
0.138 -0.15491778407634604 0.11763561643632013 0.0003273529635438202 -0.00010828516330560837 -8.10278918380097e-05 -4.26590537624014e-05 0.056738750304224886 -0.0009928574401137703
0.139 -0.1454734970701031 0.1318856270514108 0.0003168306205183575 -6.825931305909967e-05 -3.1553282379284636e-05 1.8511044165346605e-05 0.05684621714373052 -0.006747352156092792
0.14 -0.13386876609582374 0.14485803633491562 0.0003099599509791616 9.088422518269216e-06 2.193092160269814e-05 -2.625235684863596e-05 0.056169189368023946 -0.012240646162919512
0.141 -0.12104281903932351 0.15588939364832985 0.000245071993463402 -0.00019062507092400914 -2.1688006052142863e-05 6.873654278248542e-05 0.05490776633712326 -0.018092377893070964
0.142 -0.10894160475233705 0.1669567998876776 0.00016701005572312635 -0.00019474915420671402 5.457590924956543e-06 3.5897913297147604e-05 0.053291526586537234 -0.02387072501988437
0.143 -0.09545158816843691 0.17726704628904322 0.00013378144708766095 -0.00017962721924520112 -5.086475135486073e-05 1.6972847943223042e-05 0.050841264639538315 -0.029318566041969623
0.144 -0.08106367414422103 0.18657280914617835 0.0001717028205872793 -0.00035001177681064755 5.213103834185023e-06 7.822895386686364e-05 0.04785094410428714 -0.034410616441091016
0.145 -0.06417117232616919 0.1919178579264113 0.0002408704396039248 -0.00034663269522534044 -0.0001173884674215231 1.1497111800782301e-05 0.044321692599003384 -0.039550480536813246
0.146 -0.048745099265406204 0.19926362017994473 0.00015048633615521523 -0.000543067496884591 -6.731651088246253e-05 -7.020467294977958e-05 0.040570763621756205 -0.043988374501283664
0.147 -0.02934113572188327 0.20373144269496143 8.474332073960318e-05 -0.0003252982511429589 5.3702192756757904e-05 -8.708001621082938e-05 0.035982386431163596 -0.0481006997145917
0.148 -0.014686505305165798 0.20678502396896112 5.095493906650154e-05 -0.0005056880886326141 -7.78105134235341e-05 -2.0429082827139824e-05 0.03128208775832144 -0.05172605873450481
0.149 0.002944267158436393 0.20861264684016315 -4.2244776578055494e-05 -0.00034698931908385853 -0.00010118788873667599 -1.6026587125179887e-05 0.025944851348465928 -0.05475915662673231
0.15 0.020364927030382313 0.20866434330981534 -9.153206543906613e-05 -0.0003462246870083827 7.815181761274642e-05 -9.86500210055949e-05 0.020593092443613938 -0.05764054611769122
0.151 0.03819890453671652 0.2064956638081019 5.680570830624443e-05 -0.00036526227574707566 3.220287589486035e-05 -4.296697224973761e-06 0.01466688731561511 -0.059586586555640184
0.152 0.055199948557475585 0.20378443815889596 -4.46242857410967e-05 -0.00042568839577586935 0.00010304578299675583 -0.00011141333019493136 0.008830816939550738 -0.06108102133386011
0.153 0.07426999864767926 0.19955608042517062 -0.00012276935439892584 -0.00031723655791733357 -7.966638700270522e-05 -0.00011310119818505164 0.0021952951174822777 -0.061778176453701115
0.154 0.0909900919570009 0.1932338289015428 -0.00011370728673055298 -0.000317654020154881 1.0624858610692094e-06 2.8373345049264976e-05 -0.0034070188778880886 -0.06193906715606659
0.155 0.1054297055601776 0.18634637371186374 -0.00015541181894321564 -0.0003008431463467288 2.4823702041315597e-05 -0.00011785265674459485 -0.009604226428128925 -0.061838732461412166
0.156 0.12057376140547556 0.17829871466774708 -0.0002743710268719504 -0.00023995587971398796 -3.8949966996945384e-05 -6.652778837310152e-05 -0.015861112572071217 -0.06058010232906327
0.157 0.1358867048885913 0.1684156371391322 -0.0002579984025498558 -0.00024111410054514627 -5.2521702277080436e-05 -4.963317504184553e-06 -0.021619591343740304 -0.05933639639155378
0.158 0.15077476041227916 0.1553139233290933 -0.00040580527456622346 -0.00027331676104323674 6.888291053039957e-05 -1.106276210918657e-06 -0.02753802632733198 -0.05675565026483117
0.159 0.16496085296664986 0.14455739285836738 -0.0004277851272323621 -0.0002813865594163487 -7.053385404627444e-05 -8.995010660547982e-05 -0.03304974667475587 -0.0537511522549128
0.16 0.1756158790316232 0.13096151470861914 -0.0003419018381313871 -7.60913314670072e-05 -5.1179388596136246e-05 4.531703419292223e-05 -0.03867637086451555 -0.050510898739523614
0.161 0.18753546856556486 0.1157103732421237 -0.0002922492874690136 -0.00013482541578941368 3.570877435283933e-05 5.932397450754437e-05 -0.043484762071437935 -0.04729967796146074
0.162 0.19819546450809053 0.1011090620185305 -0.0003850632223336847 -0.0001607300685968679 -5.9902907681837485e-05 0.00013613971365736068 -0.04827800743302138 -0.042210741535793225
0.163 0.20658198353484927 0.08391952061812497 -0.0004183716436878436 -7.083268303857844e-05 4.405759246445748e-05 -5.9727567875457696e-05 -0.052086047834785695 -0.037853581036565
0.164 0.21374035542513367 0.06667982753990144 -0.00032764689722845696 -0.0001337310689608107 1.9639321137018222e-05 1.6064985831888667e-05 -0.055949029511125584 -0.032220863868804676
0.165 0.21978700563102613 0.0488887356302267 -0.00043391305359968477 -1.3257242818799071e-05 -7.537809498489223e-05 5.7351284577343536e-05 -0.05944531614063419 -0.026709938939356324
0.166 0.22436198833942658 0.030778767512086358 -0.00019668296611734804 -3.396199996619899e-05 -0.00010485518155963546 6.835830764147173e-05 -0.06183259050660576 -0.02110223045171371
0.167 0.22718248839047261 0.012176000212778884 -0.00040058624667075704 0.00010511518714460538 1.522975381757788e-05 -3.40689720309062e-05 -0.0638549923238538 -0.015035854807635356
0.168 0.2290738696098444 -0.007200597373999058 -0.0003339799440490369 9.03687988724832e-05 -3.263495180351441e-05 -3.114749823264588e-05 -0.06547505737344134 -0.00861995483289159
0.169 0.2287678115975858 -0.025858444244053626 -0.0003863197598374393 0.0001583551358122317 -5.324026746567914e-05 5.2662650921397476e-05 -0.06619623145235778 -0.001597931890572218
0.17 0.22703064875620166 -0.045302025677387565 -0.00037881836580976866 0.00018405922700706252 -2.477474177551581e-05 -5.888957305381335e-05 -0.0664270474086865 0.004963705970676169
0.171 0.22370548032078083 -0.06422492303282201 -0.00041140949183253727 0.0003067773716203659 0.00011113906771627972 -1.892268634473954e-05 -0.06593870833272324 0.011358113685092392
0.172 0.21794486246764722 -0.08285240362039394 -0.0002580439374074055 0.00026316101950705145 -6.194357594774012e-05 -9.061731405765682e-05 -0.06491369846494549 0.017887829954763176
0.173 0.21181960894520094 -0.1016672379821906 -0.00026835052088081303 0.00030929770476027736 -6.231190136339689e-05 -3.379960562614708e-05 -0.06294141336978157 0.02423975329841725
0.174 0.20475418552023286 -0.12048254604612657 -8.435825701609304e-05 0.0002540759936634156 -9.188146140317188e-05 2.077748263980869e-05 -0.06059036402004081 0.030446869041114096
0.175 0.19420786673769103 -0.13775944277613236 -0.0002256859654043212 0.0003403185689073538 -3.5581127397225226e-05 5.382895323957915e-05 -0.057793094991391 0.036409663619663954
0.176 0.18262353836655432 -0.15347287889729 -0.00015996942622429895 0.00029477079035668155 -1.613693570620512e-05 2.706912228470233e-05 -0.054061276765617644 0.042439472971343685
0.177 0.17088159631345326 -0.17069529500116204 -0.00016566357194412718 0.0005319866870842891 1.4825511094916334e-05 5.074809562072949e-05 -0.04979368894355691 0.047667087242071575
0.178 0.15618135148636292 -0.18549955055321185 -4.8815234349982467e-05 0.00030984769234117265 7.606334543417786e-05 -4.3015746524924215e-05 -0.04518392458608779 0.05262688324044238
0.179 0.14053694225100039 -0.1980090261107787 -0.0002343247817715887 0.0003433966332107534 -4.376391109829663e-06 0.00011256028221000065 -0.040216024546923704 0.057061039777320965
0.18 0.12259856006538339 -0.21094965115491499 7.623798160268566e-05 0.0004173750540401793 2.3963398848951127e-05 9.059775087477842e-06 -0.03414238301753429 0.06135750474071237
0.181 0.10459210084296666 -0.22082971377984575 1.5219153472563013e-05 0.0004178495146125324 -8.77299765633512e-05 0.0001273872597361227 -0.028031515120585986 0.0647576278397663
0.182 0.08589824249615377 -0.23060761195312107 0.00021037215948728686 0.0004306932032146701 -5.074693305006164e-07 0.00011277829676967791 -0.02144216948195982 0.06760387741589471
0.183 0.06600970338981009 -0.2396722458694001 0.0001515012017632816 0.0004131758293422471 4.178039816594728e-05 -3.144584434049987e-05 -0.014882057970264003 0.06973399877436796
0.184 0.046459017239784725 -0.24552872002039336 5.8930299438302665e-05 0.00033328017122429644 2.8071506753416125e-05 2.3541748614068492e-05 -0.007868450007763088 0.07121810889148097
0.185 0.026773137361893653 -0.24997414684571695 0.00017657061801996146 0.0004901082413740765 6.602736610666637e-06 7.100690778862101e-05 -0.001120133499395226 0.07205474000239609
0.186 0.0036225481203590155 -0.25180499846137744 0.000255007296536798 0.00044064430118617986 -8.551749519866738e-05 -0.00010664192588875595 0.006954769407400654 0.07202216570038572
0.187 -0.02021383453338755 -0.2526564287373021 0.0002748208595201626 0.0002746897357205434 -6.916694797037954e-05 0.0001067465928370476 0.014115189263853514 0.07126651438196534
0.188 -0.03912673614951397 -0.2528345512742315 0.00024991480506797366 0.00025454068882873953 -4.122159225985613e-06 -1.450999206193414e-05 0.02111366832516185 0.07010108146530004
0.189 -0.061218629404759355 -0.24871051923612372 0.0004691822732600793 0.00033086630586963753 -8.761787782475445e-05 6.961641622289e-05 0.028457596619365425 0.06787664103626452
0.19 -0.08301703525706819 -0.24271047587691227 0.00042058848226100224 0.00021652660890682392 -1.6227700425169432e-05 -8.647065388887124e-05 0.03562508853445345 0.06542697675105308
0.191 -0.1057753675822402 -0.23442838526910417 0.0003088961078724007 0.0001703508669386715 5.0822265952201195e-05 -0.00010193369577073275 0.04216715520337225 0.06147023476334598
0.192 -0.12554052388037878 -0.22535652516458876 0.0003105118002282634 0.00011286723723199272 8.83921001678797e-05 0.00010589756273556509 0.04840026977851278 0.057113462610556276
0.193 -0.14559485107896758 -0.21636196855567466 0.0004665214028076053 6.794280220862847e-05 -2.3928427064843455e-05 -9.373610445763643e-05 0.05485909033245924 0.05242663215384426
0.194 -0.16412734334741574 -0.20217259299007587 0.0005121967958172139 -1.29913887241412e-05 -2.8609611775540498e-05 4.87989210104463e-06 0.05951550038825096 0.04690179141850116
0.195 -0.18222880148254944 -0.18747180333513197 0.000597617852170398 4.598316297998294e-05 -5.499154655476325e-05 -1.8416591161267627e-05 0.06458211046744261 0.041047461338804915
0.196 -0.19693155564485657 -0.17156749670727603 0.0004165704409462866 -7.885300014500333e-05 -4.393344121736265e-05 1.711927213724043e-05 0.06817301376833984 0.03410740664777517
0.197 -0.21225983295895673 -0.15585797340303134 0.000532699878090103 0.00011913545027579394 0.0001378943872457562 -0.00010842543873056079 0.07201863364105814 0.027168974937046453
0.198 -0.22494467404291282 -0.13641586039170772 0.0005221843717854262 -0.00016730954413621385 -3.1496983261855635e-05 -2.703705062526447e-06 0.07455755851870317 0.019780955987699998
0.199 -0.23737754877896283 -0.11786751486398386 0.00034081142523705255 -0.0002311840793734374 2.399213459509749e-05 -5.454644829479214e-05 0.07672799730616535 0.012164586387225776
0.2 -0.24753868680470453 -0.0968847744506022 0.00045808579458354935 -0.0003252908752796718 -3.658413078065041e-06 -4.2618914718861336e-05 0.07764333490575322 0.004165163052186598
0.201 -0.2547107203687455 -0.07578887984995934 0.00045075130066543953 -0.00021533694167035717 -7.247870584874681e-05 -4.109785158951328e-05 0.07798650018803362 -0.0035614590951531236
0.202 -0.2611165766560087 -0.053421457988293806 0.0005280140518866983 -0.00033051570581139314 4.3821347082991524e-05 4.016071463473379e-06 0.077758369793959 -0.011742360541549453
0.203 -0.26522787841335554 -0.031611838205858785 0.00028799298255915474 -0.00036690969170683044 -5.6310762786262256e-05 0.00012232291968106816 0.07630529590686645 -0.01951827442947395
0.204 -0.26793112970457045 -0.008515156782038001 0.00042481324005168617 -0.00037537856575163976 -3.090609191774674e-05 -9.545795021494588e-06 0.07414545017060134 -0.027559198263742715
0.205 -0.2685024377410416 0.014438761921224709 8.211232337864457e-05 -0.0004925402687255506 0.00011913147180092069 -8.240405449769971e-05 0.07123560859624171 -0.034850702671494725
0.206 -0.2669288161785099 0.0366981955432542 0.00011087038920836625 -0.0003323352430826098 6.353459555457113e-05 -3.671637678044606e-05 0.06761681268978638 -0.04219881083759283
0.207 -0.2641611699905417 0.05958428121033341 0.00022845814180954662 -0.0005053171897546194 -7.836229938145811e-05 7.718012836374072e-06 0.0633033291552561 -0.048818227812334025
0.208 -0.2586331389999018 0.08193459745629691 0.00021326805227633882 -0.0004707779994185666 2.8568055971873097e-05 -4.885332080262543e-06 0.05825564688986129 -0.055259904106341136
0.209 -0.25160930607588966 0.1033769064129927 -5.840551867419308e-05 -0.0005292952438305194 8.342211961586241e-05 -4.964634808778033e-05 0.05230078278715655 -0.06133789284418042
0.21 -0.2431158573242678 0.12571663639454295 0.00019974017492350034 -0.0004642095983574253 3.4718424481371806e-06 -0.00010539462437409648 0.04607158795197724 -0.06634911927543102
0.211 -0.23214103575611814 0.14567473347718682 -7.96708937532143e-05 -0.0004793057740697098 3.746253936974663e-05 1.7168375505618626e-05 0.0395172253311786 -0.07109650474240294
0.212 -0.22064806018445118 0.16542273654705078 6.148438714030004e-05 -0.000464816192731735 7.343072249194921e-05 6.988800286405514e-05 0.03219244164661031 -0.07487363258114658
0.213 -0.2061664175553727 0.18512467585930958 -0.00013711606946834376 -0.0004752443311067713 9.719903194377143e-05 -7.010416752099957e-05 0.02436857499252274 -0.07791656105951011
0.214 -0.19031568664485898 0.20280965832752115 -0.0001545526858316515 -0.0004548899375722849 -6.561144611480079e-05 -9.613772216963448e-05 0.016417873069886693 -0.08064014054570938
0.215 -0.1736440490823294 0.21891251955482913 -8.822589921680584e-05 -0.0003659482137405632 5.519580012211277e-06 7.106194100134785e-05 0.008339983152123844 -0.08181709087645529
0.216 -0.15595662792094467 0.23458089759117506 -0.00019049671324114858 -0.00043301679447536694 8.611695020862016e-05 -4.219845142409725e-05 0.0007019925791031271 -0.08303536275938417
0.217 -0.13672724351581614 0.2479765845290036 -0.00026869014717266585 -0.00046261301168385485 -6.409891872089024e-05 -1.2332629420249388e-05 -0.007874182369733113 -0.08260283726700922
0.218 -0.11531552971832076 0.2588129470027779 -0.00031140600544361937 -0.000379027571699573 8.536920044941164e-05 -6.813874341635067e-06 -0.016081324413524355 -0.08186674210704642
0.219 -0.09430672025766604 0.26993471656273954 -0.00027953928150167785 -0.0003302051354596904 3.430209069744151e-05 -1.1451970458107188e-05 -0.024066645920380502 -0.08000423742064526
0.22 -0.07156409384636407 0.2778898669258812 -0.0004715248744264733 -0.00038923533510342416 -2.8762529364107298e-05 -3.7568840942852704e-05 -0.03220623000631354 -0.07746873203082322
0.221 -0.04991095134908975 0.28487587472267767 -0.000477048300523334 -0.00026426214919884216 3.4852084471916066e-05 -6.0790763827664536e-05 -0.039493291885566724 -0.07422723882384727
0.222 -0.023026418159705894 0.28880212505484626 -0.00048211793503939417 -9.542093286334311e-05 8.957427858373508e-05 -8.473048065913715e-05 -0.047144284927025645 -0.06990455657775532
0.223 -0.0012534898949154681 0.29183690764405323 -0.0005457550314916242 -0.0002945887440841481 5.2149448348422e-05 3.230425621525691e-05 -0.05451005799357159 -0.06537785993358908
0.224 0.026290046344770838 0.2929051613654885 -0.00042887556308954277 -4.649612762164888e-05 8.171092861007874e-05 3.5576957439415395e-05 -0.060802371448972 -0.05966889428061245
0.225 0.05018997994341152 0.2924468426249217 -0.0005536149762973751 0.00012075503207935829 -2.927866910671113e-06 6.329578184193461e-05 -0.06706370192544678 -0.053719148987995666
0.226 0.0752560289280882 0.28719393425664697 -0.0006009708824680322 6.250186132104808e-05 0.00018547293214276172 1.978568870971163e-05 -0.07152912819229913 -0.04723196921128492
0.227 0.09919587596718253 0.28115568638192934 -0.0005075135256078952 7.182041882132137e-05 1.5491524179522394e-05 2.9279633570911418e-05 -0.07652493920543936 -0.040141890165952765
0.228 0.12442498962891402 0.27486100979086175 -0.0005192905745960201 8.362720297086673e-05 -4.152066508218202e-05 -1.0454552394818237e-05 -0.08040139752533174 -0.03238229717076598
0.229 0.14736562469832062 0.2635194040831956 -0.00046526669740833723 0.00031753218359130707 3.3235871798480116e-05 -0.0001312415318154863 -0.0836477237665458 -0.024864454352904238
0.23 0.16953537803168836 0.25301750247044974 -0.0006092394506387301 0.00032223540874329386 0.00014780706777036193 6.892050060277623e-05 -0.08577171553292856 -0.016260036527181627
0.231 0.1935191678207752 0.23744976468894355 -0.00048604528383170364 0.0003445971411577925 5.996086681461914e-05 -4.4762169341339965e-05 -0.08711757641733096 -0.008064880054011176
0.232 0.2101977053493409 0.22227480562438134 -0.0003691300895910339 0.00035278689609139613 0.00010695652432472967 -3.289334776415947e-05 -0.088047577244077 0.0011165830646542095
0.233 0.23354182977615606 0.20471212149850945 -0.00044201537510726727 0.000274111210679038 -7.410891623157354e-05 5.456817992892539e-07 -0.08801010144403475 0.00990594026645244
0.234 0.24880799781258842 0.18340042239314316 -0.00021201326664290347 0.000416872037132957 1.9780788092466852e-05 -5.791188261476199e-06 -0.08700247960157176 0.018071790444703233
0.235 0.26487049359642545 0.16383816664733553 -0.0002606046989895257 0.0003640402524044964 3.195467429228146e-05 -8.892488215641082e-05 -0.08516837691271177 0.02703233932878344
0.236 0.280449108884605 0.14046595543439502 -0.0003305943139132118 0.0004565932652957651 -2.3475457566271164e-06 6.874049160068657e-06 -0.08229470213878712 0.035183923560649526
0.237 0.2911318401257023 0.1171749146167292 -0.00016501684165053348 0.0006224668479302656 8.121768758116538e-05 6.942872769558089e-05 -0.07877262605881169 0.043664379631103596
0.238 0.30239269032618393 0.09144847629358613 -0.00011236956125908137 0.0004896187708009537 -3.2291836958246076e-05 -0.00010828306188555094 -0.07426151196871118 0.05099380919165363
0.239 0.3092765348200241 0.06569743639497327 -0.00010056774974104436 0.0005291150144114735 9.334871468695365e-05 -2.0443831143422306e-05 -0.06928126138596577 0.05832732412184853
