!Created with skrf (http://scikit-rf.org).
# GHz S RI R 50.0 
!freq ReS11 ImS11 ReS21 ImS21 ReS12 ImS12 ReS22 ImS22
0.13 -0.1744357058429142 0.05794251386915634 5.543815039504933e-05 -7.524110535712095e-06 -7.331923143528968e-06 4.851456481489626e-06 0.03974851889677504 0.03541366629322931
0.131 -0.1700180110111499 0.07296313129066241 0.00015509770605926518 0.00015096589309208334 3.909290425612612e-05 6.713885099408986e-05 0.04365376672576559 0.03115140242185413
0.132 -0.16399374205474096 0.08904133695365728 2.174478834838966e-05 9.495463094798684e-05 1.8790885732463903e-05 -0.000105349979804066 0.046930015475694135 0.02678770591102097
0.133 -0.15612617649803184 0.10358275656836714 -1.988438972443448e-05 -6.865561372846364e-05 5.827716945085318e-05 2.0088662384469958e-05 0.04975193327802564 0.022146923656301415
0.134 -0.1484811991496724 0.11797511213353086 5.267464937338387e-05 -9.084141567198606e-05 1.2643443151276265e-05 -6.970076457745791e-08 0.05211184520048904 0.017191788108183795
0.135 -0.1377825857865207 0.13197015821159072 4.992408406756924e-05 -0.00011670568777425866 3.0477881287756116e-05 6.401047977809691e-05 0.05406793968837302 0.011733510654328025
0.136 -0.1269115073851797 0.14523335738576992 -1.8556132588304024e-05 -3.022058095638113e-06 7.460509194198986e-05 4.3989452460007843e-07 0.05526736525912777 0.006254938866813117
0.137 -0.11405214379949227 0.15508139282774802 -4.374567132996094e-05 4.719453650969009e-05 9.896269627405302e-07 5.057044681332837e-05 0.0561706779949965 0.0005452783782554642
0.138 -0.10083640290329127 0.16678797827907377 6.408091742019569e-05 -1.8077993840583336e-05 -4.5275727315745495e-05 -0.00013030587555390826 0.05661652805382288 -0.005276538381570971
0.139 -0.08624003896802517 0.17648224555576086 1.1126731509238013e-05 7.980234513672151e-05 2.42188550997271e-05 -7.472861539283509e-05 0.05595758009851662 -0.01094684826867587
0.14 -0.07157516050913786 0.1832411094042717 -0.00013146068998472427 -0.0001655002142015667 -7.304784526658907e-05 9.237543196699381e-05 0.05501830569602556 -0.016680404682210537
0.141 -0.05478550707171151 0.19056931764974785 -1.8844717868681784e-05 8.61137118968591e-05 -9.988607422489752e-05 -8.50563631777573e-06 0.053359166216404776 -0.022238598621523796
0.142 -0.038112446658507534 0.19536034987887388 -4.8109643138740516e-05 -6.9128143574322e-05 8.831489326032791e-05 3.383357304194048e-05 0.05120332065495046 -0.02790065593147001
0.143 -0.021150642811549533 0.1992743736489288 5.685018117169725e-06 -1.2834641830027935e-05 3.24650252888796e-05 -3.054421855359469e-05 0.048332239412962975 -0.03313783789371027
0.144 -0.005082292807415142 0.2025271839417508 -5.7479328815002946e-05 -2.6327468694809825e-05 1.4463811502735593e-05 -3.5189855569625764e-05 0.04500312099078134 -0.03819813775728947
0.145 0.013684901121344883 0.20203644792286546 0.00011275524402469193 -3.069518970742392e-05 -1.1689149444048209e-05 7.794312016540243e-06 0.041037713402177566 -0.0426788405014025
0.146 0.03159065565214817 0.20141027877598056 -8.045703805813506e-05 9.069065960419172e-05 -3.748186860383343e-05 1.673701813034748e-05 0.03690217071231931 -0.047139812794275045
0.147 0.048697997730500486 0.1991887425605991 -6.535096183164835e-06 4.2553521321124796e-06 1.4495029157555886e-05 7.48701905799076e-05 0.03191511827217536 -0.05058622201670213
0.148 0.06626388900163284 0.19455323789635146 6.274428236051556e-05 -0.00010069422654194724 -3.517974028060411e-05 -2.712415664065362e-05 0.02678195880848703 -0.0539971918148397
0.149 0.08395267532593093 0.1907969683265803 -4.6868540119725074e-05 -0.00014989426301533548 1.3077080930815548e-05 -8.862173419224968e-06 0.021420917874399044 -0.05658611856717615
0.15 0.10024030912518621 0.18382689394076152 1.9807118252983237e-05 -2.889121370491857e-05 -2.5088998049399474e-05 -3.397845178568328e-05 0.01584839723792684 -0.05871448877151461
0.151 0.11589573492263194 0.17327115801935677 -4.046065976375094e-05 -0.0001536378071603253 -1.5124075295667971e-05 1.858841005849794e-05 0.009737919604225953 -0.06020695458393196
0.152 0.1307524652761542 0.16480461254190307 0.00017468345864399203 3.0529791448946526e-05 5.754246634787526e-05 -0.00014073465091384553 0.0036809454908906434 -0.06156035213450037
0.153 0.14617578866287592 0.1524889623244432 0.00014790463442357148 -0.00015615720013496034 5.738302729539826e-05 0.00010568638902512776 -0.00247211972740239 -0.06132103885152233
0.154 0.1592252946026889 0.1397809326740848 -0.00016559256867508217 5.555718179166525e-05 -4.761639459448006e-05 2.3514102483170586e-05 -0.008688155819367958 -0.061484833211194106
0.155 0.17103608351797922 0.12693035915666323 -5.481858350109495e-05 -6.525792722025122e-05 -3.7462866238528405e-05 4.205432582951492e-05 -0.014784407713627533 -0.060294239188575474
0.156 0.18234439194794175 0.11155277254634577 -3.9528911539565365e-05 -1.5427824850961988e-05 9.578721747158322e-05 -8.11291105273566e-05 -0.020720980654549734 -0.05923196435454354
0.157 0.1921126583898423 0.09706281511486767 -4.351789507490156e-05 -2.5826195628526832e-05 -4.8002225790107936e-05 0.00011008954714151202 -0.026664316634217426 -0.056766990545741906
0.158 0.20056281427920214 0.07995305546002093 -6.421168131252097e-05 -0.0001444337542771352 -4.155156076476488e-05 2.0028127802354473e-05 -0.03242171597353254 -0.05395879667734626
0.159 0.20704409141590294 0.06299501448074624 -4.903918936646649e-05 -0.00010200622986943506 2.628369621333397e-05 7.746130915506974e-06 -0.037688302051412374 -0.05091103643156427
0.16 0.2130388439542137 0.04516327099777639 -1.8721479565844116e-07 -9.80718137050498e-05 -3.3948091642520413e-06 4.489569143267033e-05 -0.042457843630944826 -0.04703799947661624
0.161 0.2182914792484541 0.027066287009439534 5.435122945720526e-05 -1.6826749330812675e-05 4.2950009450408596e-05 -2.1235233010958272e-05 -0.047278936286210646 -0.04285113005724363
0.162 0.2206053016903868 0.008956650083257474 7.644340092901422e-05 -1.905463685641055e-05 3.075160430424102e-05 4.429073307205998e-06 -0.05134613782858702 -0.03811345778989421
0.163 0.22117273412150176 -0.01046736152423523 -0.00011903546664569897 1.8017723566643304e-06 4.9915156229259014e-05 3.446380120350984e-05 -0.05508982870663976 -0.03296854189073653
0.164 0.22094126924842103 -0.030115773562515952 -0.00012628348386036381 -0.00016588335363913783 -2.9788844165463226e-05 2.9216418848238674e-06 -0.058304880950141504 -0.02727517148902438
0.165 0.21858981189071694 -0.049726254322144336 -4.372315806341268e-05 -1.5268463241836734e-06 6.485698379559217e-05 -3.5567379550636675e-05 -0.06118352794979811 -0.021929466387829277
0.166 0.21505426189894655 -0.06756463652069743 -0.00017952445579434074 0.00010535269813745798 -6.8209740303062545e-06 -3.7897519960340754e-05 -0.06343107484346241 -0.015686589935802575
0.167 0.2096378529948939 -0.08648341214280716 -0.0001964266480633405 -8.186509825014777e-05 3.330776416923398e-05 1.108342336749019e-05 -0.06463427221743877 -0.009083754567820426
0.168 0.20275594456075222 -0.10564910783784173 -5.680364898981061e-07 7.787519116383575e-06 8.893089514593873e-05 -3.507634391017387e-05 -0.06586589960423239 -0.0027138169049078214
0.169 0.19433658882017626 -0.12289529285906907 -5.586116453810518e-06 2.929212774203291e-05 -3.5348894435346868e-06 3.596574557020206e-05 -0.06581728032439464 0.003908465737069136
0.17 0.18270806020342392 -0.14027600500355625 -0.00010057390929440175 4.533823955027026e-05 2.319002559170095e-05 -1.5870647477516286e-05 -0.06548299793730826 0.010517984348674162
0.171 0.17094701872686643 -0.15724547218503196 8.301248480314897e-05 -5.580754517777274e-05 -0.00012499690438887563 -7.867560907760113e-06 -0.06468326609857236 0.01690713475019159
0.172 0.1584038575767731 -0.17218277850663327 4.3558110494780025e-05 1.6074068318424725e-06 7.200881621129478e-05 -5.968332813596369e-06 -0.06299810888112037 0.023290037430144548
0.173 0.14175455843956067 -0.18701141256232312 8.806825695544606e-06 -0.00013202144604263391 0.00010739560414877582 -9.789259467894254e-05 -0.06042225728057783 0.029817447409537644
0.174 0.12638520477059387 -0.1985194092763266 6.943338820940078e-05 -7.1882801722903095e-06 -2.752565756166257e-05 6.932295773439018e-05 -0.05756025699072427 0.03571712869263905
0.175 0.10921067067264195 -0.2100364203561829 1.766827178322073e-05 -5.56515685488633e-06 4.091823401442905e-05 -2.2501353339975067e-06 -0.05418355511584157 0.041541300586366965
0.176 0.09051700459590915 -0.2201387590483296 -4.862746140370372e-06 4.581518869047838e-05 2.852091081359191e-05 -3.631845047887859e-05 -0.0499316001485789 0.046945299214807217
0.177 0.07146530323855667 -0.22894280312817256 -9.740391166892385e-05 6.397528236132612e-06 -6.971131331955231e-05 -4.627773183164683e-05 -0.045414351934311176 0.05201361725774293
0.178 0.052207989189989444 -0.23458660960533528 2.074187343936454e-05 6.0790250365758784e-05 1.9947898898909616e-05 -6.438219817479112e-05 -0.04008959856042187 0.05649633777511884
0.179 0.03013380926277986 -0.23869070609982931 -5.565640621637503e-05 3.192110021921195e-05 1.0137153128135385e-05 -3.220452501130201e-05 -0.03448038795727308 0.06056755592680516
0.18 0.009359621279072588 -0.24372446369458436 -9.638783664083059e-05 -8.289289995669508e-05 -7.303143247767185e-05 0.00010856068717406147 -0.028268684209249762 0.06407948795552133
0.181 -0.011921848088119599 -0.24403269208925715 0.00012588802659509093 7.474161659534152e-05 1.5345919757398935e-05 3.215646218849225e-05 -0.02194218001941664 0.06723461787283704
0.182 -0.03441633393416289 -0.244884940430607 -6.581662190769791e-05 1.1039485162173554e-06 -9.971211527158504e-06 -9.51818428835542e-05 -0.015411924441496255 0.06938436912204685
0.183 -0.05690252598454121 -0.24136133781982488 4.034805562794939e-06 3.457447990219698e-05 2.096817353619211e-05 -3.9020478366789874e-05 -0.008353598256791064 0.07099383205171347
0.184 -0.077745058323468 -0.23512235575732504 0.00010388280026013173 2.9874161013907413e-05 0.00016415061482769072 -1.620344344586143e-05 -0.0010380259982004445 0.07147607498491941
0.185 -0.10021248068096794 -0.2285528430908959 -4.594270685834413e-05 7.026216820111447e-05 -2.4845791865162157e-05 -0.00010195778477349151 0.0064555813734153466 0.07154007299791143
0.186 -0.11935169995486529 -0.22194282598938248 7.416187653819736e-05 3.5517809286121474e-05 -9.938548681343456e-05 5.062236622104514e-05 0.01381578596389831 0.07159713523785043
0.187 -0.1396424874376327 -0.20865084277225435 -6.478275621493849e-05 -7.893801684520897e-05 -5.5997517603983206e-05 -9.788237368185377e-05 0.021307988810454887 0.06969529099530714
0.188 -0.15829228175305077 -0.19877803833553767 9.964849555759543e-05 3.084381544358022e-06 9.135452300385145e-06 -7.386103775314556e-05 0.028095937891401086 0.06789504725033721
0.189 -0.1754974877448224 -0.1821798483598638 6.467005878297658e-06 -9.348999780510824e-05 8.63245649084546e-05 6.862723132310876e-05 0.03478813829998387 0.0647650525805259
0.19 -0.19221797784440917 -0.16622021198027062 5.8463109371144905e-05 -5.465471885054511e-06 7.832006942360705e-05 6.801006413392535e-06 0.04142996491785264 0.06120168859815851
0.191 -0.20892924151974807 -0.14911376195600262 -8.377738989292206e-05 -9.73042076508787e-06 5.843812480868377e-05 -1.3786635920720584e-05 0.04782830910250412 0.057066687624282464
0.192 -0.2199884326654567 -0.13079815033814668 -0.0001121981322419968 -0.000157796074719525 4.0036737745631594e-05 4.075557305793763e-05 0.053429673993134634 0.05217682802077971
0.193 -0.23198160598127826 -0.11064955008909488 2.5744924231859088e-05 0.00010373920244406931 5.9101390608640514e-05 -4.077964464093017e-05 0.059526958589836976 0.04667116566769828
0.194 -0.2422962156213308 -0.0892001675936915 -2.7169907164933962e-05 -4.00509212844618e-05 -4.3646387727241496e-05 -3.8087749011491315e-05 0.06366169910091848 0.04059664808645658
0.195 -0.24949205075219655 -0.06816555295623496 6.57831929224135e-06 -8.469270060386428e-05 3.586491372130412e-05 1.8029901233815064e-05 0.06845611823192838 0.033898185469702774
0.196 -0.2553094358188927 -0.046311284024460816 0.0001152410277731084 4.269410189338622e-06 7.019529763196711e-05 3.7656144019162487e-06 0.0714137090802007 0.026521671237025514
0.197 -0.2597617050995096 -0.022940363501003484 -0.00010617503408601792 3.357238402896489e-05 -7.498892164016769e-06 -4.596591026168196e-05 0.0739292108583941 0.01942621417864406
0.198 -0.2613372802734375 -3.2004586378473994e-17 5.176404751738532e-05 -4.224300231438293e-05 2.754953197153656e-05 0.000100028599754143 0.07611583961367502 0.011658247664650621
0.199 -0.260881302157572 0.022573266201712676 5.376086338731404e-05 -3.3126472350518136e-05 -4.490409475014058e-06 3.700942383130121e-05 0.07711249633516283 0.003943938754097877
0.2 -0.25842507865525494 0.04553098190942967 1.9173900047670417e-05 -6.978505759634918e-05 -7.321872341426425e-05 -4.4062215770192796e-05 0.07756221273744544 -0.004321250155118949
0.201 -0.2544870757371993 0.06863610251449098 6.991068356191904e-05 -6.405695469341726e-05 0.00010548322178462729 5.288394628597197e-06 0.07695576306829985 -0.011993039061002983
0.202 -0.24878655928881382 0.09051248724088014 -4.486610849220384e-06 -9.183808716562927e-05 7.11129073504238e-05 -2.3398464354958553e-05 0.07572741308826848 -0.01992287278943265
0.203 -0.24028810400416 0.1129669663484036 0.00013990996405723795 -2.9381307025244504e-05 2.48154626760703e-05 -5.08660353506679e-05 0.0735589676959234 -0.027830296167114413
0.204 -0.2302605174892883 0.13373755335384208 0.00011135303146937711 1.7738742790685193e-05 4.157559436860617e-05 -7.939621008797203e-05 0.07062595674640713 -0.035479235893936215
0.205 -0.21831427658258576 0.15455724823713593 7.066206158248459e-05 -9.556922132820071e-05 4.721136508528547e-05 3.603515907493019e-05 0.06687169396444016 -0.04238756224469305
0.206 -0.20525715844788836 0.17227890475220445 -7.164274136711039e-06 -5.3020783137098055e-05 3.962086235881665e-05 -5.156936466028818e-05 0.06240340824747462 -0.04927080896384198
0.207 -0.19063307524981793 0.1899584380185989 -1.6974560710176847e-05 7.078917299901143e-05 -4.4315787560413394e-05 -8.052946844040406e-05 0.05736891541954007 -0.05572646450622303
0.208 -0.17441851902856031 0.20786389666724833 -1.9803212843393152e-05 -0.00010804026509187276 1.593806268837846e-05 -1.0816095039801729e-05 0.05136931209273668 -0.06152986796328827
0.209 -0.15610128468688025 0.22342168393435907 -1.1240251598336253e-06 -8.121100075626329e-05 0.00010312060099431778 -0.000122571548016772 0.045154643605001404 -0.06656206315588394
0.21 -0.13672225915623795 0.2366608289440339 -1.995023004783399e-05 -2.7924869573411794e-05 6.86855675755389e-05 -6.42124832176861e-05 0.03829988424320068 -0.07093699944289539
0.211 -0.11686120495723956 0.24901218532225805 -3.278227389624638e-05 -8.450407713532631e-05 -3.7123174178398684e-05 -1.707720553647394e-05 0.031236118254260387 -0.07476109300922998
0.212 -0.09570756174737585 0.25780167906363877 -5.819135031572162e-05 -3.5062156026184395e-05 -9.495361428625844e-05 -1.1212244374325641e-05 0.02319126060391195 -0.07753474385141675
0.213 -0.07276835094063976 0.2679908854843562 0.00012067476435286136 -3.625315281555056e-06 6.983909906807944e-09 3.414601016148966e-05 0.01523291808720296 -0.07993665428642123
0.214 -0.048937755986761776 0.2735035879491 2.6503404870779135e-05 -4.9048188495291684e-05 5.22947774956303e-06 -2.9284105646758553e-05 0.007395801969625969 -0.08152480826570856
0.215 -0.025566052637989813 0.27948802103643355 -4.4167880264118347e-07 -0.00016196011876951457 2.6254561578414904e-05 -8.608466701178066e-05 -0.0014234976858228576 -0.08219440045514106
0.216 -0.0012749362158974075 0.28333758569615336 -0.00016488611863815425 -8.13407876190823e-05 -4.534660789603936e-05 -0.00011375229183321024 -0.009201929829241668 -0.08215840657303065
0.217 0.023830213494832077 0.2842047092655937 -3.1509096156288735e-05 -5.946522316673341e-05 9.788949951945816e-06 -8.28515961932118e-05 -0.017197894254817468 -0.08082843714426266
0.218 0.04783105946153389 0.28181261622410986 -0.0001355868542175278 -4.9391457144340166e-05 -0.00010443214828815336 0.00011421757747562732 -0.025592117684859427 -0.07885589371959284
0.219 0.07309325770775603 0.27878527838628353 2.799760319555881e-05 2.457181763070957e-05 7.416149031630252e-05 0.00015297899120031368 -0.03348906508107311 -0.07619422400035628
0.22 0.09713023606179311 0.2717528358432519 -1.7487884812008276e-05 5.450412848597399e-05 6.61868279506686e-05 -2.7301474012456165e-06 -0.041099660420492144 -0.07275910075851831
0.221 0.12211538511099142 0.26479377715403846 4.4594647441016246e-05 0.00010691802044044229 -2.7211456586943307e-05 -4.075489062463489e-05 -0.04809933811823334 -0.0680491454099412
0.222 0.14466333879748913 0.25369014712372173 -1.6725737244137897e-05 -0.00011541080916096848 2.6356637938530648e-05 1.5876434264525617e-05 -0.055173464178214685 -0.06366240945882204
0.223 0.1669078537523914 0.24172099196670674 -6.107493929888531e-05 -0.00014850641226085972 -3.315324124358971e-05 8.213775417042104e-05 -0.061492437124182855 -0.0582108915370273
0.224 0.1897035834355776 0.2276829998149306 -0.00013949602464044774 -1.6221203037689186e-05 -3.6554930469212966e-05 7.663900549034167e-05 -0.06764629355406236 -0.05220053679927686
0.225 0.2089644346328727 0.2128903923141718 -0.00016498271585652013 9.004490540130213e-05 5.672460769960361e-05 -3.824154042222854e-05 -0.07219458215641772 -0.045030097402388676
0.226 0.22872822589003738 0.19311131371972307 -5.024867564223847e-08 3.2044907750659756e-05 -4.714105387754355e-05 -6.968433881873971e-05 -0.07722126641188506 -0.03772852078186199
0.227 0.24715085357476835 0.1738742799110079 -1.95938501283248e-05 1.2777639174493931e-05 -5.1841426672135334e-05 7.909483485060629e-05 -0.08053851671169505 -0.030425439827440726
0.228 0.26256590866696516 0.15242902911152895 3.572741031508609e-05 4.575471369284937e-05 6.326805337214632e-05 -3.5230932693789626e-05 -0.08374673132090411 -0.022378684944059018
0.229 0.2742517555242489 0.1292369726020574 1.2141472182420064e-05 0.00010391789466474078 9.009614971820577e-05 -1.4188858184411183e-06 -0.08569174235391554 -0.013799905257924232
0.23 0.28686675465984335 0.10558083412566477 -0.00011846803312855363 -5.226220627303662e-05 -7.349976972887594e-05 1.6736683636644876e-05 -0.08683994844299904 -0.005608553309031561
0.231 0.29653489782537507 0.080844692273361 -5.031842080648066e-05 2.70989885278107e-05 -1.0549426861635076e-05 1.5734864469794158e-05 -0.08753837846375946 0.002985205065828817
0.232 0.30239999725288086 0.05368805002771956 0.0001280443436632264 2.8239601981007595e-06 -3.213262374646599e-05 -3.6166740659797027e-06 -0.08713847689049187 0.01201638690114362
0.233 0.3100534347161149 0.02690119045656251 -5.166905068889674e-05 2.6220292799910826e-05 3.5194966296468374e-05 8.697399191617091e-05 -0.0859277750897845 0.0206046514340878
0.234 0.3092792206164934 0.000852490658794804 -9.817170811946238e-05 3.911999748099615e-05 -6.851267056395835e-06 -3.814834785815266e-06 -0.0837196074512513 0.028941941612782282
0.235 0.3105834257139928 -0.026971175041089118 7.225810761021525e-05 -3.0435106653380086e-05 2.109668049507222e-05 -3.140164659578527e-05 -0.08077449795745739 0.03737118434272889
0.236 0.3084071024876977 -0.05468135319051184 0.00012674279281716552 9.815548893697085e-05 2.4232097838246725e-05 -7.61837598045077e-05 -0.07702463930474907 0.04515903391441111
0.237 0.3029803784378815 -0.08167891803876833 -4.90636685807845e-05 -1.2781557197415672e-05 -1.8834394919163844e-05 -2.1050100641762048e-05 -0.07236479349588008 0.053060061868501866
0.238 0.2949688145571968 -0.10746236358703092 -1.7188147753017495e-05 -6.670547409925026e-05 -7.530360934982705e-05 6.058962356830568e-05 -0.06732067896911359 0.06003654552791327
0.239 0.2849423314494249 -0.13314287321128893 5.543814388544063e-05 -4.041982183884646e-05 0.00013161887609557224 1.1337164908242455e-05 -0.06102215323571563 0.06663046556607402
