!Created with skrf (http://scikit-rf.org).
# GHz S RI R 50.0 
!freq ReS11 ImS11 ReS21 ImS21 ReS12 ImS12 ReS22 ImS22
0.13 0.01191826882908248 0.02205279736685681 0.01817739193892092 -4.596887888996827 -0.0002414546572568562 -0.002017645287984364 0.0030626794898237866 -0.006589036250809098
0.131 0.013976662677426135 0.021432490779853697 -0.4983696283110096 -4.556321340182083 -0.0003130295642191978 -0.00203010341189058 0.002440219390335478 -0.0068126340306131775
0.132 0.015978410000454527 0.020549439185182258 -0.9375103521467978 -4.499561065537831 -0.000652646236230431 -0.0020451071985870036 0.001870437328060281 -0.007181923866325039
0.133 0.017840874292523724 0.019326566434523112 -1.4041797774452613 -4.359004736128641 -0.0008722985522385824 -0.0020962071539237593 0.0012568662746484179 -0.007344528375024253
0.134 0.01977432086922637 0.018007299522076185 -1.9040732025556268 -4.135443812774658 -0.0009880366383020962 -0.0019187130253783284 0.0005167410137912173 -0.007567665361578297
0.135 0.021711435735570286 0.016314372908081253 -2.3414857891952656 -3.94057341452038 -0.001133591358001858 -0.0018612271947258624 -0.0001402066546036803 -0.007672697882877479
0.136 0.023515361722051202 0.014696258129344572 -2.7408992333895554 -3.6846376143005752 -0.0012862567063965705 -0.0018734298563085644 -0.0009718030861365142 -0.007787383583347788
0.137 0.024875322546947756 0.012801442202919943 -3.1216346278104274 -3.3411439369160445 -0.001478228177120562 -0.0017028503258051453 -0.00171261136254474 -0.007792949732947835
0.138 0.026544651027424194 0.010545165862106617 -3.447294680639275 -2.9876215994781847 -0.001685308295431027 -0.0014816384513907828 -0.00250042934458478 -0.007688395411534063
0.139 0.027589546411828113 0.008151428687713477 -3.734537879353613 -2.614192763591102 -0.0018492520167000186 -0.0014310374230388824 -0.0032930399012044203 -0.007420783816138701
0.14 0.028498034986635955 0.005654979325113751 -4.013889830545208 -2.192137226952741 -0.0019596216867206217 -0.0014151930560636979 -0.004190358873336788 -0.007149439284280799
0.141 0.029256431342130625 0.003042208118263336 -4.216113567872105 -1.7571574675363384 -0.0020410871527628566 -0.0011981722113075172 -0.004900542639581335 -0.006863376631727716
0.142 0.02967518695721864 0.0002724233842807314 -4.367712837485274 -1.2898895663309513 -0.002204442378347304 -0.0010696026205100338 -0.005666405577697559 -0.006388890779571952
0.143 0.029959764457945782 -0.0024853511631483713 -4.473589314177633 -0.8089567285811526 -0.0024167745270630633 -0.0008643640456474213 -0.0063457064982269055 -0.005701178066740739
0.144 0.029835687595743902 -0.0053555312155607795 -4.524023295621961 -0.33123120823522323 -0.002416455240296645 -0.0004940357636782662 -0.007038046518286814 -0.00504484540760987
0.145 0.02940722564729619 -0.008434556047183584 -4.5406779974222715 0.151745488454977 -0.0025132004133842666 -0.00041809994087354163 -0.007565821743958863 -0.004170906556923349
0.146 0.028684375493620295 -0.011202048354019842 -4.486807564808515 0.6330753816703625 -0.0025037448212336605 -0.0001384057956809677 -0.008026052009560187 -0.0035289351875196925
0.147 0.027547763926566368 -0.014083633973812192 -4.390676990680744 1.1189145012900987 -0.0025425581855123692 1.6987944785134884e-05 -0.00853823836219074 -0.002854265707029817
0.148 0.026246967526219266 -0.01687249943474814 -4.242330690809896 1.5591664091788915 -0.00262084783659785 0.00032143690657664836 -0.008782478682646304 -0.001830506516107734
0.149 0.024639552743055165 -0.019440605423480892 -4.046107685378108 2.01593737035597 -0.002643197907339979 0.00045789585659712536 -0.008982412376375412 -0.0007611818539714434
0.15 0.022717485057854807 -0.021757651741454862 -3.8189579179641977 2.4146823018402284 -0.002480668572845828 0.0007292919296657466 -0.008958287779820589 0.00022846945639733385
0.151 0.02052341965209601 -0.024134598787383783 -3.5272593838849713 2.8159316668237633 -0.002633776123609627 0.0009545511233947376 -0.009031254836535729 0.001237880766398986
0.152 0.017957526986383046 -0.026252790817495205 -3.213685086874974 3.1718909923904235 -0.0025376126995741693 0.0012376764107409127 -0.008898423839958761 0.0021735728901015436
0.153 0.015053530204657996 -0.027474486795778484 -2.8483458325023565 3.501765813783431 -0.0022699560242335002 0.0014816188201798868 -0.008602903132787347 0.0031817770896916753
0.154 0.012338768455472968 -0.029057300355472746 -2.4814892746452815 3.783774861206026 -0.0023304992640253556 0.0016143724691821406 -0.008241709250708811 0.004134452243098236
0.155 0.009441324494785618 -0.029979686573582107 -2.037982857397464 4.012607711030652 -0.0021586785121896156 0.0018330215285121616 -0.007840891620814909 0.005014760677572141
0.156 0.0062533332838199925 -0.03108306851055001 -1.6008260803681214 4.199363739626353 -0.0020967992020450633 0.002084825376689903 -0.007134333092781114 0.005899084823665806
0.157 0.0032361832951374584 -0.031429057938676175 -1.148741140334112 4.3620166064099495 -0.0019103910901028835 0.002244205901142465 -0.0064723653235310005 0.0066386336050968065
0.158 -1.932573178167287e-05 -0.031496042044572375 -0.6802845808402693 4.454209424392433 -0.001726608043903453 0.0023467342098631824 -0.005734228340712373 0.007304513549775235
0.159 -0.0030810255202587703 -0.03145806270103133 -0.2009292241812931 4.489646690347169 -0.0014750535427483558 0.002606319046308623 -0.004893042087019997 0.007877032215717613
0.16 -0.006333418717524 -0.030839065944841402 0.28020948554730774 4.500807334495558 -0.0012002275024424285 0.002904884910982072 -0.0038844259271661684 0.00848218298698369
0.161 -0.009278750326345014 -0.029717834389795673 0.7593359391820637 4.426306779031497 -0.001042571647016773 0.0028638345411094103 -0.002945745494292151 0.00872279951572883
0.162 -0.01228892667509737 -0.028896107344663694 1.231213263908252 4.314837917013635 -0.0008227223652117488 0.0029393863288131473 -0.0017650369306602437 0.009027740237826614
0.163 -0.014866000011489975 -0.027299819786569413 1.6755507699769512 4.17826679344824 -0.0005017475367174116 0.0029709438827788598 -0.000846393790789265 0.009197473333411746
0.164 -0.017484103059994063 -0.025720286333800288 2.1074299158422187 3.9491980457164906 -0.0002715099799431217 0.003125459947267395 8.425923300291925e-05 0.009087171929835025
0.165 -0.019956909548296865 -0.023672063875245647 2.526568802918331 3.7140281673612807 -4.331096174958758e-05 0.0031921309652528673 0.001257088838081915 0.00912054688940918
0.166 -0.02200416590897953 -0.02170615775072758 2.904140216426319 3.4163152240268952 0.0002739707704067637 0.003183997303957086 0.002211559628035934 0.008955871269636768
0.167 -0.02388457357611375 -0.019411547976982472 3.2468224069983775 3.0977796471374983 0.00045910042768142927 0.003241012818045964 0.0031241311334966105 0.008688386200936706
0.168 -0.025576845599957106 -0.017034467423936713 3.5785313439485678 2.7138697657583504 0.0008959360401293208 0.0031992802080833397 0.004047315198152444 0.00824821440794248
0.169 -0.026961847795806335 -0.014639088933517083 3.868936267174662 2.3152777307831176 0.0011953416483141605 0.003199080982277182 0.005012631531571896 0.0077702843822838085
0.17 -0.028417993832628805 -0.012021586411044994 4.077206237704791 1.8857724757715053 0.0014881495506959257 0.003173253993752096 0.005755857987976523 0.007208323500928216
0.171 -0.029350755992829426 -0.009386427505825487 4.249158161604273 1.433273895072675 0.0016735193647348366 0.0030070103188342013 0.0064655299245218335 0.006475234803194638
0.172 -0.030067726920170037 -0.006631452067189998 4.377447275558882 0.9857320635062554 0.002062018233802069 0.002822313167017619 0.007132167530461836 0.0058919746378630665
0.173 -0.030568972988150922 -0.003939703032833952 4.449672112892844 0.4921542291678842 0.002252988803561128 0.0026206780327676614 0.007796612250524482 0.005186495225850611
0.174 -0.030852672393811023 -0.0013428418929478305 4.482660741551928 0.006876320849700825 0.002562925762866196 0.0025215012950353956 0.008160898280919971 0.004408339787752862
0.175 -0.03092170909250296 0.0015021807292218722 4.46334951295571 -0.4606771934014106 0.002631726026656467 0.0023333170435262274 0.008476901737126182 0.0032524858455653376
0.176 -0.030794996169311518 0.004101237221607665 4.380225490853986 -0.9389686995825872 0.0029610065561311992 0.002119841951132229 0.00900648422586152 0.0025667097164571093
0.177 -0.03068522815120237 0.006842269273017056 4.259379678714284 -1.3939960928236736 0.0031108765526101706 0.0018693475448677101 0.009200595363290008 0.0015814357749953318
0.178 -0.0300553129093337 0.009359389272968342 4.083000051379313 -1.8354079646887156 0.003401984302434796 0.0015956285986787665 0.009487577519650106 0.0007380248492336087
0.179 -0.02941591471004644 0.012043734079579718 3.863808662240832 -2.2563082396198353 0.0034658375295572724 0.0011974817857031725 0.009530940814896444 -0.00019465953870115158
0.18 -0.028663931264349893 0.014408621028262155 3.608819198267541 -2.6730519570051987 0.0035831514709540324 0.0010648995891622628 0.009450672744513207 -0.001197612653522387
0.181 -0.027813014387679504 0.016892921916746295 3.2816679728433433 -3.022772536559496 0.003795076171261406 0.0007493079450855727 0.009394196403888852 -0.00215760876182158
0.182 -0.026501881173421483 0.019343222380299088 2.9433503370593566 -3.357632896005545 0.0037766699902407504 0.0004109419940579387 0.009236639566390342 -0.0029957714390187098
0.183 -0.025014507598441923 0.021714856208122472 2.558704448641883 -3.652088511942636 0.004089548027927231 0.00011844141241831544 0.009036356345148521 -0.003984367412548214
0.184 -0.023420436587828265 0.024179888046759683 2.1631335894481887 -3.9008281565904026 0.003953527530134045 -0.00017209995385755595 0.008711323688413293 -0.00482197435444315
0.185 -0.021738339927704086 0.02634143002159986 1.7148607186751985 -4.102020010053005 0.003893422406838099 -0.0005645871380503034 0.008313309239725548 -0.005701903864252315
0.186 -0.019997817483653833 0.028663700295972868 1.2623576477165528 -4.27019918938681 0.003972443162922854 -0.0009738448791545698 0.007799949472815232 -0.00662371125361619
0.187 -0.01789772235014486 0.030675312454848336 0.8089815820370403 -4.364874019588718 0.003932345347598791 -0.0012697724753249985 0.0071633003041322715 -0.007283465271795659
0.188 -0.015600348878479468 0.03263806674903664 0.34638161607541845 -4.447714177720344 0.0037070078015827897 -0.0016079476825557905 0.006696377229554089 -0.008209084088140937
0.189 -0.013013008411980045 0.03452474654876215 -0.1309921645397898 -4.425796284103666 0.00374278966431953 -0.002095811530866168 0.005855518953089586 -0.008882864176833954
0.19 -0.01027258880296112 0.035889408806141554 -0.5881364791695766 -4.379631623405755 0.0035556659289908976 -0.0023032218440138257 0.004888801509352485 -0.009650863204124473
0.191 -0.0072467551968056956 0.03737654810681368 -1.0762739533621466 -4.299213527273701 0.0033826446255861265 -0.0025789626551790245 0.004075489875371925 -0.01018703446608885
0.192 -0.004033816800283219 0.038658063756292 -1.4915853951647775 -4.133132785206937 0.0031151682560020136 -0.003018972792044377 0.0031086276556617476 -0.010746989592682481
0.193 -0.0009661120638657354 0.039685889335348216 -1.967805272748818 -3.981414734775837 0.0028095411248111987 -0.0032244519494173266 0.0021354092852243693 -0.01114795351122461
0.194 0.002623205426211134 0.04040222021840019 -2.384592172174993 -3.7290189240165894 0.0025961839217829544 -0.0034464744683680953 0.0009886719452509062 -0.01146256838549708
0.195 0.006571992516671602 0.04059775183220369 -2.7543857035819044 -3.460799762324665 0.0024390846268628995 -0.0037238201833138846 -0.00010380528060310862 -0.011802693699515384
0.196 0.00999048219210325 0.040599865744777294 -3.0611025833615217 -3.1397391004292117 0.0020355421998888186 -0.0038682893061649844 -0.0011672950488193518 -0.01163219407233383
0.197 0.013735485787102493 0.04024696204633859 -3.3949316300686596 -2.789248531270023 0.0018234164558190197 -0.004238538363584763 -0.0025258070443823855 -0.011879005512109854
0.198 0.017447529690006323 0.03969656908112796 -3.677110648492965 -2.4237445752173565 0.0013614702493091402 -0.00426223735974086 -0.0037684547012953413 -0.011692976003699744
0.199 0.021285699704712002 0.038166888939617734 -3.915064744642332 -1.9981884232992662 0.0010253131180528836 -0.004398684199203907 -0.004902813706768325 -0.011409463191078119
0.2 0.025007840939788657 0.0368503175251921 -4.114535270460206 -1.594245145541284 0.0006307480387562794 -0.004541916855614701 -0.006122485667026337 -0.01105769865803759
0.201 0.02857327751330177 0.03471516816091255 -4.242369241998775 -1.1417008258847214 0.00019031657105092912 -0.0047774569267817965 -0.007383583471511412 -0.01049451810144023
0.202 0.03230576528126892 0.03253120583733054 -4.347890942970062 -0.6777034754424714 -0.0002683588474351433 -0.004692038971341134 -0.008475512136558012 -0.009741910125361021
0.203 0.03507774574362106 0.029621683227940242 -4.3959619714452165 -0.20274290625045432 -0.0005717560883722962 -0.004758463519626302 -0.009560908376249146 -0.0089841802837123
0.204 0.03829124892777308 0.02669915183637032 -4.391434370117038 0.2301453232050527 -0.001006089661281046 -0.004601981727603462 -0.010726490701631657 -0.008080697621675303
0.205 0.04100711776995484 0.02332820834314408 -4.321094797335561 0.7122051760426584 -0.0013838769373006505 -0.004478364966083481 -0.011472248941430879 -0.006927332082390015
0.206 0.043320685371561564 0.019889696193715466 -4.2172327768506515 1.1806964750514624 -0.0018025421709531838 -0.004509173134294745 -0.012307612902272953 -0.005763670102759485
0.207 0.04539029091142722 0.015706188492529607 -4.075025662508036 1.61676002424707 -0.002141317476338914 -0.004356379132780887 -0.012933699130343035 -0.0045780784594367
0.208 0.0470071444162815 0.011603252117590656 -3.876145068825987 2.0224980155391585 -0.0025913595535392068 -0.004224834239467634 -0.013496463051053337 -0.0030868419546864383
0.209 0.0480935063927585 0.007291570863701316 -3.6513086109408563 2.4282207626770207 -0.0029689376092612812 -0.003978717986664803 -0.01381971999022048 -0.0018078996929613
0.21 0.04891532936806932 0.0028756943162193157 -3.355565917527903 2.796992599606748 -0.0033710460315988697 -0.003681873791134944 -0.014030019628646577 -0.00030422216502677473
0.211 0.048971979692357136 -0.0017062218459181506 -3.0555322755184484 3.1451602753900585 -0.0037184186317601774 -0.0034883942287727474 -0.014014126144154605 0.0010990902977655065
0.212 0.048760720840334074 -0.006146993389433823 -2.695831308045162 3.4475988872174823 -0.004022247263439934 -0.003163775810140911 -0.01383630541664117 0.002564407631301294
0.213 0.04806915420412422 -0.01064807955712531 -2.307154809173914 3.7209464865520974 -0.004197748494293709 -0.0028841899427069907 -0.013394009832499132 0.004114938430932434
0.214 0.04690554982899325 -0.015193705560582449 -1.8900683119114436 3.9356457980518487 -0.004565741173660298 -0.0025064714951690617 -0.013044780616143262 0.00546176649904418
0.215 0.045198354666463804 -0.01924195750733523 -1.458665545966165 4.121823443819131 -0.004740118788349334 -0.0021758274132091804 -0.012545383111937801 0.006936140527188581
0.216 0.04313223656205559 -0.023378930229325776 -1.0396423658673581 4.246159818829432 -0.00495184453518909 -0.0017900993012092148 -0.011644295133121223 0.00807323214879808
0.217 0.04064593946575484 -0.027228949973419667 -0.5530698660522181 4.340393003245335 -0.005101588791136415 -0.001406558877479696 -0.01075198397915681 0.009267056976699852
0.218 0.03761650667600718 -0.030599499531956266 -0.11906281069763834 4.3868122853548766 -0.005282393909593673 -0.0008810080690984523 -0.009620819383229689 0.010373639529834023
0.219 0.03464777293356407 -0.03391618904869772 0.38636958275041994 4.36819990016553 -0.005392155304393459 -0.0005600489498273683 -0.008554812560815602 0.01128683895715391
0.22 0.031398647200880946 -0.036419834585788825 0.8403016264771984 4.287075515674076 -0.005412067734794005 -1.91869431501267e-05 -0.007279198079227194 0.011975487983614452
0.221 0.027936705833825796 -0.038842823222747666 1.3003396209893148 4.162711903177722 -0.005537215304595557 0.0004912915029945476 -0.006001857515225446 0.01264077223117378
0.222 0.023515141833053442 -0.04093540742657177 1.718190141989727 4.021097659809669 -0.005438444499325235 0.0011397107349585326 -0.004640318038857073 0.01315799661924868
0.223 0.01996722901054612 -0.042622443724277 2.1641662826426775 3.8300235381264 -0.005469009386949889 0.0015046512515021714 -0.0032113378468980568 0.013473265869437359
0.224 0.01578195345720837 -0.0436194637915932 2.5550680777415558 3.5733058329055503 -0.0053076087252819 0.001952326780456154 -0.001775185407511689 0.013729727551610288
0.225 0.011930162196293875 -0.04453611657898288 2.9027170186355815 3.2524428204579343 -0.005292464246952439 0.0024881532648626443 -0.0004950314415902421 0.013591337255342723
0.226 0.0076638447293700986 -0.0447471624752619 3.250296993739529 2.927784525877692 -0.005157654995331787 0.0028810394388384783 0.0011303695259798764 0.013659994659440188
0.227 0.0038256880760388166 -0.045329111073809734 3.511603403310336 2.543838194216091 -0.004759947012245629 0.0033406947283967496 0.0023471084209905377 0.013348361509034803
0.228 -0.0001881897414582817 -0.04452093405038899 3.7859992695162834 2.1679880118203156 -0.004551435837196011 0.003698027257966244 0.0037830601717535697 0.012897225494023274
0.229 -0.0037044758515131413 -0.04407218475482874 3.988778225877222 1.7589197410321933 -0.0043327613671174745 0.004145452885127495 0.00493667655080709 0.01229586876539432
0.23 -0.007619601946953127 -0.042870998261799534 4.157467154054086 1.3362863341929467 -0.003907159339933569 0.0044613934580655 0.006073916905400154 0.011580038690058771
0.231 -0.011196547432059563 -0.04207279258175713 4.260069415453618 0.8707292576662115 -0.0035218508504947484 0.004843244316031449 0.007159174511955902 0.010829963590817528
0.232 -0.014442862524242055 -0.04033908380651536 4.340826127176865 0.4198595627002188 -0.003108629302113058 0.005207345262512769 0.008137498990935731 0.010000785687458756
0.233 -0.018033771053385432 -0.03859108603732103 4.351468637626527 -0.05423774645560112 -0.0025904785320113814 0.005522824434877318 0.009081444721299715 0.009096316370634667
0.234 -0.020707351446069108 -0.03658847825411013 4.318422915686586 -0.519928106915612 -0.002162521888416458 0.005774324582524744 0.009794619686453381 0.00797307481940381
0.235 -0.023624514715507226 -0.03449466110505471 4.248717284917764 -0.9792538808350356 -0.0017018350688246446 0.00600134968861701 0.010529035883672218 0.007054502077293745
0.236 -0.02632461377020328 -0.03187227978732367 4.105372086882088 -1.4214244764426536 -0.0012426883363342404 0.006198810284391909 0.01103380405889023 0.005805405264275963
0.237 -0.02869690974596133 -0.029587070384061404 3.938861880281288 -1.8370484010576071 -0.0006413899492827526 0.006191739169056448 0.011462881840647247 0.004691641593030676
0.238 -0.03085506075523221 -0.02665981600243126 3.714377894266009 -2.26000766931996 -7.116044238094296e-05 0.006325559906325548 0.01185392170623465 0.0034226844151019325
0.239 -0.032959470875443236 -0.023912142027624532 3.4346824336419104 -2.625122605387556 0.0004326068166592393 0.006354644016948403 0.01210422818105041 0.0024010328096015906
0.24 -0.03470288113786294 -0.02098061107538241 3.157918993482458 -2.9832790474376836 0.0009867849440097687 0.0062523839620666505 0.012236962105583839 0.001093349634581754
0.241 -0.0364477602556257 -0.01801113167851577 2.8170436363307094 -3.2958310116778025 0.0016008552236288357 0.0061865677599870035 0.012198545663390032 -0.00025967285626677625
0.242 -0.03791145841854151 -0.014850182592526637 2.4440231783371242 -3.578243031574648 0.0020347587386544473 0.006294451825415612 0.012169091434209108 -0.001345695121700735
0.243 -0.03888859759766995 -0.011271736004758195 2.0545818842997696 -3.831277245181768 0.002552047196114432 0.00605005521343473 0.011904009919157656 -0.002457627758997904
