!Created with skrf (http://scikit-rf.org).
# GHz S RI R 50.0 
!freq ReS11 ImS11 ReS21 ImS21 ReS12 ImS12 ReS22 ImS22
0.13 0.01216523935061668 0.02230394320844537 0.026343978660235648 -4.600022221883835 -0.0002963789277179722 -0.0020871590295898626 0.003051036359319844 -0.006486307393720819
0.131 0.01431232139636409 0.021412001374575593 -0.4962269704900805 -4.574236850033475 -0.0004993456017144988 -0.002111608887312843 0.0025250534081807776 -0.006857411460646215
0.132 0.01600241127578036 0.02058030663367438 -0.9547859959017896 -4.4949286048001 -0.0006721277040642805 -0.002053342893601916 0.0019334921576245807 -0.007157303228147352
0.133 0.018007732285928845 0.019509988073926947 -1.4238120475233493 -4.3467232463701375 -0.0008277674487529222 -0.002032421169276874 0.0013214794661499014 -0.007397125800912737
0.134 0.019974443403119272 0.018087663685920106 -1.907364334578316 -4.171002606339786 -0.0010225138505401885 -0.002042121619573277 0.0004420145672685037 -0.007655029200596945
0.135 0.02189054447774753 0.01651092286205679 -2.321824551983799 -3.9269685091451345 -0.0013233320984588146 -0.0018180197257624355 -0.00024194009935288137 -0.007762715863100434
0.136 0.02371366259482418 0.014911398190524845 -2.7199721549288287 -3.670071970812123 -0.0014336518962216917 -0.0018175590480883899 -0.0009774633249693269 -0.00792506326980114
0.137 0.02515451304654278 0.01273273101891975 -3.1126771343005957 -3.3534888171596804 -0.0015143747657873057 -0.0017943021684877795 -0.0017559466716339958 -0.007779877931889419
0.138 0.026621723872375932 0.010770656297295551 -3.4399670820095825 -2.991965147249731 -0.0016685636427390376 -0.0016073606937284269 -0.00268475644780286 -0.007694702856660726
0.139 0.02787940329529973 0.008240684693883771 -3.740781003033592 -2.6193230571157993 -0.0019108257737565808 -0.0014720320914040704 -0.0033591720093717734 -0.007499370224283816
0.14 0.028787334549754 0.005803472569095698 -3.996123778075433 -2.2037044009546616 -0.001833272462615177 -0.0013319504095110446 -0.004246817236873695 -0.007147126485744302
0.141 0.029532744071686757 0.0031411727755107865 -4.199661797990464 -1.7610643475126007 -0.0020375550928604263 -0.0010769808627738675 -0.004913545645425167 -0.006684969019448375
0.142 0.030084467707107435 0.0003511809621152282 -4.350738181704159 -1.288747362467555 -0.0021592446666392094 -0.0009574796265819741 -0.0057717888423953 -0.006473847148735021
0.143 0.030205655492845818 -0.002577169586816738 -4.474249643136374 -0.8052965115627005 -0.002334148167760835 -0.0008949002029114253 -0.006395672450626121 -0.005796699619598734
0.144 0.02991002553559089 -0.0053786105455070655 -4.537856816099617 -0.3328661215863421 -0.0026078046974429073 -0.0005602551618661214 -0.006965101276811269 -0.0052859015388855785
0.145 0.02962667833506469 -0.008640320242229734 -4.5331138608259955 0.1514927016237607 -0.002438275892592172 -0.00039095773012079443 -0.007532159286563461 -0.0044547838385876545
0.146 0.028786791712233466 -0.011314487834614396 -4.508063009260527 0.6291796946752968 -0.0025507879215813404 -0.00010300762427182748 -0.008093430483184389 -0.0036193069511201935
0.147 0.02775981692914754 -0.014251180182244126 -4.391455155661167 1.1178375384355572 -0.0024507891305363128 -1.3032929449817766e-05 -0.008420512131638578 -0.0027004913372716934
0.148 0.02655211546058989 -0.016919380785466766 -4.239804572032282 1.567431291714891 -0.002522608137242854 0.00023526427719358945 -0.008935653951340128 -0.0016095389707600418
0.149 0.024616814877081297 -0.01954002926574118 -4.0429922060295125 2.015073286104982 -0.002581504258390268 0.0005058130467849905 -0.009000609902149617 -0.0008914396589998288
0.15 0.02267067035824926 -0.022039648578493363 -3.809299367905326 2.42898257495872 -0.002596658547796253 0.0007599310814215247 -0.009248466897578784 0.00020054060487663711
0.151 0.02027873304436126 -0.024178967756748118 -3.5287982967133353 2.8124363387762434 -0.0025204304431913384 0.0008994991003147553 -0.009075438344055145 0.0011734089882394797
0.152 0.01787224091864623 -0.02630861979444205 -3.198783764736043 3.179649780290982 -0.0025892810886429126 0.0012768921255736081 -0.008960614203834316 0.002168059388373094
0.153 0.015282042767389075 -0.028082068821042354 -2.845533447751092 3.510025051428837 -0.0023952668495833386 0.0013837790411632663 -0.008651975942352026 0.003038622736982098
0.154 0.012581340568558 -0.029505458357429525 -2.4680203617860026 3.759323993669412 -0.002298896029895121 0.0016880314626131381 -0.008260251642856315 0.004083311536327682
0.155 0.009201534748549388 -0.030363200660246222 -2.05181338133987 4.024197125472862 -0.002252079704704662 0.001911803836257828 -0.007753354918240512 0.004949842086376485
0.156 0.006310027441958185 -0.031112479752219962 -1.6177984230423978 4.205935979231186 -0.002061034370425442 0.0018823953222512524 -0.007338540550267351 0.0058602461863922805
0.157 0.00313766531120741 -0.03148313277914447 -1.1532449405687306 4.364615935302451 -0.0018514767128884235 0.002239791440979348 -0.006425690447177255 0.00660155633694183
0.158 -0.00022893545402516777 -0.03167832620868605 -0.6813188210495883 4.475290504429336 -0.0017524421455594476 0.002361884916867968 -0.005722116967590635 0.0072952276477967785
0.159 -0.0032826832745256307 -0.031522037628716894 -0.20723300287046734 4.4866717287245494 -0.0014248330045396537 0.0024551103316612735 -0.004853627208720622 0.007948349280559382
0.16 -0.0067697681161266844 -0.031046926260799138 0.2745313058665486 4.493574802069781 -0.0012844942992066611 0.002906325980740308 -0.00393427278128343 0.008335958966695993
0.161 -0.009649035879221085 -0.030023688223755604 0.7520766253774066 4.429279447606713 -0.0010929824477904383 0.0028157131210998004 -0.0029536776303406786 0.00880566022389251
0.162 -0.012414445173761862 -0.028917144250353015 1.2423976280823632 4.329413225265366 -0.0007379048750129077 0.003000501287579073 -0.0020067394881725397 0.008996649978664058
0.163 -0.014881092202214962 -0.02737195004003159 1.6853102196379635 4.139565506551799 -0.0005330306833704937 0.003122459496134457 -0.0009254661224122716 0.009190812175539333
0.164 -0.017691140867834527 -0.025767104909261665 2.0975733695270398 3.9690832274649104 -0.00042995286439757776 0.0030913816605603927 0.00014966267546857547 0.009300935238432428
0.165 -0.020105311532984258 -0.023815126034341893 2.533361541525565 3.718559533890481 -5.142309483514081e-05 0.0031036647178563897 0.00115005304294052 0.00926200640325926
0.166 -0.0221102082199078 -0.021444997477442367 2.8869654913267775 3.4196658390469516 0.00019912789378888156 0.003174025246555204 0.0021344597339004764 0.008866693488660687
0.167 -0.024163891872665825 -0.01924235500353283 3.2484468095734216 3.0989064381625733 0.0005603321718943918 0.003181606774655161 0.00306997038101385 0.008720309966281897
0.168 -0.026069009600487893 -0.01691425571888522 3.5808000249162455 2.7346736225355857 0.0009644823644758567 0.0032181348040351506 0.004122707271077212 0.008220393965856347
0.169 -0.027453585440888825 -0.01445359061833792 3.852806741377494 2.3146423521775907 0.0010833052516303452 0.0031870306716106677 0.004801587399694119 0.007747469603467322
0.17 -0.028170383170377965 -0.011889678621553774 4.0816059076817615 1.9173620504268483 0.001455355660654101 0.003077091011505938 0.005656877649455749 0.007322445488105779
0.171 -0.029249307302416677 -0.009086524295402621 4.249010929487511 1.4405682266977566 0.0017533830349123704 0.0031179137948114527 0.0063434186146600615 0.006524593338657953
0.172 -0.030061385717634493 -0.006449747712605369 4.384705674431987 0.9823815086385617 0.001958751564262326 0.0028171674573012036 0.0071428375736398665 0.005891782355994981
0.173 -0.030584438542062983 -0.003848461358782499 4.460947630376097 0.5033705852889834 0.0022567136969760303 0.002729640781201734 0.007820380396544934 0.005101005369535937
0.174 -0.030841792266567792 -0.0010012360050017436 4.470628538778527 0.025824409842955205 0.0024738532639416075 0.00256507269084955 0.008259283133580776 0.0043648498556298
0.175 -0.030719120697160828 0.0016183213671476953 4.456825859010396 -0.4596775850341188 0.0027775121036666276 0.0023962287015458126 0.008464616984329577 0.003405000091142322
0.176 -0.03066020423925 0.004326064851342211 4.383801425297343 -0.931571477565113 0.002918536972644299 0.0021396539089797387 0.008843630874944199 0.0026346940189235033
0.177 -0.030498104373253256 0.006874792573304858 4.265924115478507 -1.3959769422394583 0.003201384891459032 0.0018457749319094894 0.00918750447112927 0.001647710125557427
0.178 -0.029963848186882195 0.009402665742545736 4.084311880029239 -1.8372530228635242 0.003294315846591645 0.001528378906562429 0.009294341960671935 0.0008859507121096858
0.179 -0.029207173542650622 0.012004796433811474 3.8578403400890977 -2.2582933068279845 0.0035258978855508875 0.0012990657872494792 0.00947026595417776 -6.106050895041445e-05
0.18 -0.02854724606761193 0.014550451814938291 3.599393626424489 -2.6582879040639407 0.0036248208318451075 0.0009592922085500603 0.009407778225977785 -0.0011523629989140458
0.181 -0.027449545913162995 0.017032914986688467 3.2830755629560966 -3.0327690263800386 0.0035512721153854714 0.0007083113117797051 0.009266116655899923 -0.0020668451300768333
0.182 -0.02639391695465091 0.01954161235066053 2.943335745487403 -3.36316302071823 0.003792034291489864 0.00045193017534890946 0.009083896712648514 -0.002984265865261784
0.183 -0.024847171008563623 0.021706612735849385 2.5694119795686055 -3.649341586557754 0.003909154466819413 0.00012822259210996362 0.008868417211477056 -0.00395608314622588
0.184 -0.02313934405468102 0.024013859114718282 2.150680530411116 -3.8893052312031986 0.00382232047993284 -0.0002281190414920313 0.008686875483199848 -0.004773490968422667
0.185 -0.021676158118845414 0.026427167967916432 1.7138667572849213 -4.116983982251461 0.00390478267977862 -0.0006061484240478217 0.008199113656354349 -0.005669317172557144
0.186 -0.019799707731539593 0.02842514511417837 1.28230825219626 -4.2764863168705185 0.003871598119966812 -0.0008315587271060543 0.007871161498274524 -0.006535942727962955
0.187 -0.01771167639622364 0.030725881621759817 0.8063672295142502 -4.40606797003848 0.003892714365478668 -0.0013167385706986498 0.007205198867710645 -0.007342570318620201
0.188 -0.015354740945703165 0.032499261331875307 0.3431049514184911 -4.4447848821538205 0.0037275459700871244 -0.001675928193157048 0.00655758435856871 -0.00798932888023856
0.189 -0.013095851293863205 0.0341994617842929 -0.1298904272872619 -4.439750744066422 0.0036624703390561236 -0.0019136282521453726 0.00568232599291614 -0.008872006776120468
0.19 -0.010184848641119303 0.03597189749091726 -0.6030292053423886 -4.377359457919081 0.0035435253292436246 -0.0023022228055478927 0.004966279617793454 -0.009529028388172692
0.191 -0.007317705331944291 0.03734717322166929 -1.0698304715384468 -4.309626268227811 0.0033148387095110025 -0.002705323305997495 0.004158424715970331 -0.010158614714711588
0.192 -0.003922819722715533 0.03837998589418843 -1.4799394982758356 -4.151316062967096 0.0030944928560850977 -0.0029486163211133883 0.003110967492730666 -0.01070311757821747
0.193 -0.0003139599563790499 0.03935879419787199 -1.9524071793636468 -3.9816479078988936 0.002866027476199812 -0.003262465190110593 0.002253366605197713 -0.011248259829651854
0.194 0.002721747109040474 0.040101298936736224 -2.3361547954486652 -3.726745659836267 0.002714845160448177 -0.00348168809546916 0.0010122732409322624 -0.011417903892430704
0.195 0.0061031942443814996 0.040329456116617146 -2.7352746193595845 -3.444492008713844 0.0023943983145470575 -0.0036746970159521673 -9.98510775841489e-05 -0.011716417177584731
0.196 0.009855580353347153 0.04011056931367303 -3.0666175605058776 -3.1514079863319218 0.0020323201069126174 -0.0039030760064626153 -0.001201969361479267 -0.011642084767124411
0.197 0.013684969558427287 0.04009894218233609 -3.4032234853489127 -2.79761595647758 0.0016865610010225766 -0.004141020871162854 -0.002471277439961439 -0.011780379930696387
0.198 0.01746816070271899 0.039255737530854394 -3.6906372362065403 -2.4089090401946094 0.0012989672419729153 -0.004368828479449486 -0.0037037711221995753 -0.011730127765621224
0.199 0.021285212661612315 0.03789831467300747 -3.9189516123276773 -2.0210979086305616 0.0008977047540754526 -0.004505040068801936 -0.004887548165409284 -0.011335568156031378
0.2 0.024895550368741824 0.036633764405456674 -4.097499267497024 -1.6050190320643396 0.0006024068018658486 -0.004621991220482113 -0.006184931290105812 -0.011054594134673622
0.201 0.028545776020080325 0.034713094964486955 -4.262835817419885 -1.132261442762968 0.00017629542608380816 -0.004665382879596214 -0.007273650703424408 -0.010396898997965223
0.202 0.03196191616241545 0.032549086969991974 -4.324978935337765 -0.6928703589970557 -0.00010469203239640985 -0.004753390538571377 -0.008448783117125174 -0.00981611703909654
0.203 0.0353082290460152 0.02954312753211177 -4.384320643312468 -0.21119322443880284 -0.00045271650369737996 -0.0047252766517313135 -0.009641793587704804 -0.008881138829787655
0.204 0.03827589336775193 0.026537473443244187 -4.376395537731393 0.25449684048996923 -0.0009188836227101572 -0.0046493516328240695 -0.010568665740200612 -0.008063926523262882
0.205 0.0410985617296667 0.023108407396968934 -4.33160311456036 0.7084781825458814 -0.001407332193809895 -0.004586395707096859 -0.01146689886670909 -0.006977553060319953
0.206 0.04328040466843676 0.01951770155513166 -4.232680147839244 1.1707190311257412 -0.0017634556014183584 -0.004451852070844809 -0.012105115640975455 -0.005775870208200742
0.207 0.045374245961910406 0.015524190778256668 -4.070781736656739 1.622147300217199 -0.0021419412275846656 -0.004319644127067789 -0.012844856984014972 -0.004491520822064448
0.208 0.046832909417642864 0.011489132156861415 -3.8771921405481993 2.0378648705847424 -0.0025501039471783663 -0.004179919367630452 -0.013341313440695578 -0.0031165126665311555
0.209 0.048049322595777086 0.00707095692126155 -3.638050616651056 2.434457018687504 -0.002945078146623508 -0.003931065003677877 -0.013808081774229259 -0.0017260062201879078
0.21 0.048583892596192266 0.0025128573368275496 -3.352416430546513 2.809896959185039 -0.0034063926531496896 -0.003908907951440945 -0.013892191272901054 -0.0004453020447279719
0.211 0.04885627343501329 -0.00203644408319524 -3.0393277467549944 3.1421674531687653 -0.0036727201827415966 -0.0034492907992646218 -0.013848325060790243 0.0011088885527421244
0.212 0.04867190360352244 -0.006374233499849292 -2.6863765075528683 3.4534247566352807 -0.003985909588048018 -0.003150176793447477 -0.01376969036487541 0.0025365280341121304
0.213 0.04782261955634159 -0.01092702358736248 -2.2982404206886837 3.7201471372070998 -0.00424038295494086 -0.002840028861344404 -0.013494094913091765 0.0040974078417585335
0.214 0.046489602482624036 -0.015379185557163664 -1.886867995876786 3.948278110985248 -0.0045111234625986344 -0.002540915038825613 -0.01303593245276688 0.005437182706912044
0.215 0.04481882729513872 -0.019448735104711363 -1.464522767549711 4.12674120943119 -0.004876220204428862 -0.0021076033048328903 -0.012422511395793333 0.006718578209364696
0.216 0.042729655302576594 -0.02356656631379332 -1.0266860566862561 4.262370651166505 -0.0050286016484738065 -0.0016909375513003344 -0.011560164290718067 0.008078081424268782
0.217 0.040470291426036226 -0.027155275511292213 -0.553063740954968 4.34506992163912 -0.005120003152576768 -0.0013816326674391834 -0.010740080510728578 0.009099693837333535
0.218 0.03760032794943726 -0.030601250875605335 -0.09845039015205213 4.361926218823774 -0.005359522888524946 -0.0009487965063154803 -0.00966822426928295 0.010308562709340913
0.219 0.034171432911802115 -0.03374773484196684 0.37549624624111555 4.3919363584859825 -0.005528510973496147 -0.0004814033064199703 -0.008591825217772832 0.011216072360121438
0.22 0.03127292592531159 -0.03658557655296454 0.8478960401622576 4.294787893760929 -0.00548761794253981 2.6189222588442947e-05 -0.007260156536636313 0.01206056836130014
0.221 0.027381668296980115 -0.03867419417212734 1.2968607827291565 4.196771937388025 -0.005554388492855078 0.0005157233729877305 -0.006002094953463709 0.012570417945321885
0.222 0.023386762292660623 -0.040953985387733295 1.7342099609852695 3.9958575386662356 -0.0054619923298529615 0.000918618395463334 -0.004486661207736629 0.013073627305748639
0.223 0.01955199848691403 -0.04227503447976214 2.180563723465207 3.829423471926519 -0.005431073501827791 0.0014679586744659162 -0.003267682312254495 0.01339345955667234
0.224 0.015803565347621822 -0.043512218057833986 2.5333498811650834 3.5552132214516066 -0.005259245965675284 0.0018486881362662693 -0.0018388926575409357 0.013553417825183864
0.225 0.011545420483648214 -0.04405992155810717 2.914710345283489 3.2685715631510672 -0.005262892227839944 0.002348351673788604 -0.0004107803975840871 0.01368955513218034
0.226 0.007434952098408775 -0.04471035646135394 3.243675051054116 2.9449346644349874 -0.004999340975810232 0.002842906996316523 0.001072424322006042 0.01341593406080873
0.227 0.003560587808135392 -0.04473462241891032 3.5477598810350996 2.5554908537350673 -0.00472571235040822 0.003265950370010796 0.0023180187804894945 0.013235824267356531
0.228 -0.000624012154739554 -0.04421366005718846 3.7907139688660276 2.190637732607262 -0.004486289183969303 0.003710556959435154 0.00354403189590325 0.012755723922141153
0.229 -0.004085770621957676 -0.0435844696874035 3.993223142327957 1.7778159372852689 -0.004231116205992368 0.004166988581137615 0.004981491353967538 0.012281383128427295
0.23 -0.00791923191557745 -0.042663417258966774 4.161929060411244 1.31747833624991 -0.0037912636155275903 0.004532039561907271 0.005914756418303954 0.011541173736435291
0.231 -0.011255373682128833 -0.041250983677206435 4.272015758912235 0.8781027101208249 -0.0034395704026461004 0.004859143778900941 0.00715724063929859 0.010911738269505672
0.232 -0.014613606444444644 -0.0399893027352664 4.347461143356604 0.40420237227052613 -0.0031020176094548103 0.0051954650115919486 0.008226256929737599 0.009950188374424363
0.233 -0.01775365537425505 -0.038283876375602814 4.348125524377945 -0.04783791324720065 -0.0027501207967868166 0.005641511487951795 0.009018920373072087 0.009106038170261902
0.234 -0.020785114063187473 -0.03589341767936479 4.330612488172352 -0.5187563065205719 -0.0022149046412905018 0.005711751028870492 0.009687998446343334 0.008015054348830132
0.235 -0.023584361886013913 -0.03406609854146757 4.2477658002199306 -0.9692038210971043 -0.00165153317646578 0.005923858102742238 0.010335214218394954 0.006947123808452099
0.236 -0.026347268176509977 -0.03165280081172418 4.112522366735185 -1.428376029000059 -0.0012496772629682102 0.0060913262363987185 0.010998784719810317 0.005942030851451074
0.237 -0.028634674998188274 -0.028838429504375006 3.9310522288322303 -1.8422238410032465 -0.0006538446622795383 0.006152315623163674 0.011425582373400672 0.004775580983595316
0.238 -0.030723773034411837 -0.02648789927683693 3.7106667409724063 -2.267032505089428 -0.00018830590251206437 0.006451481802825997 0.011823695442633701 0.0035190043748094084
0.239 -0.032766587587756135 -0.02352757169628066 3.4481164413433496 -2.62683511398183 0.0004590144524528917 0.006425696204436188 0.011854959133558553 0.002363664900508038
0.24 -0.034663656134308864 -0.020641911391551648 3.1505790065605774 -2.985708195264366 0.0009272694032778423 0.0063860677539489255 0.01207282062382391 0.0010818989036172103
0.241 -0.036004941175118016 -0.017688584841947255 2.80127706190342 -3.3140387304049836 0.0016600130742970857 0.00630517132079115 0.012085432494566489 -1.1297097495730263e-05
0.242 -0.037459996678157394 -0.014250763279451845 2.441637864518411 -3.569523139677506 0.0020922356646479916 0.006178747103706865 0.012068855721756746 -0.0011901843789180737
0.243 -0.038427975854800595 -0.01105875007891586 2.0537598365150775 -3.8347646802417104 0.0026504011732467856 0.006136649850712159 0.011830832645129656 -0.0023407239319254715
