!Created with skrf (http://scikit-rf.org).
# GHz S RI R 50.0 
!freq ReS11 ImS11 ReS21 ImS21 ReS12 ImS12 ReS22 ImS22
0.13 0.06313926439960665 -0.172777005331065 4.840140111180106e-05 3.403630428047508e-05 1.2105405082473412e-05 1.8643471720942307e-05 -0.05255258522670199 0.007985949509958765
0.131 0.05147633211071981 -0.1788747582980339 -3.166147776170069e-05 -2.0134188923868443e-05 3.759098257119379e-05 -2.3795251835579336e-05 -0.052084556386612 0.01243681411738204
0.132 0.03936229258805534 -0.18219010788362333 0.00010299765986325847 2.018199772872012e-05 1.876539909758321e-05 -4.82356719569233e-05 -0.051296565926602075 0.01695385456756777
0.133 0.026312617620080733 -0.18685425207267994 -3.3985257714753435e-05 -4.4478518081144496e-05 7.509019363098211e-05 -5.5160807307836514e-05 -0.05015776797869 0.02120197943597184
0.134 0.013949368326371062 -0.18945909048196702 -0.00013804188243493653 -2.1786514081028582e-05 3.2581414191461516e-05 -2.983289779339763e-05 -0.04847994515828817 0.025548749414593994
0.135 -0.00038842593536110896 -0.18991049144645497 2.2960581564313522e-05 -2.4920297383575043e-05 -2.687548669623434e-07 -5.7970482000475396e-05 -0.046299962074515325 0.029772211962392166
0.136 -0.013535880917287524 -0.192066650532154 -1.3893035847344753e-05 5.287191663678387e-05 -1.0498546738171335e-05 3.868484822361917e-05 -0.044125750879125666 0.03374431162818724
0.137 -0.027405523643365775 -0.19093722931903698 4.1274343944357734e-05 2.199109724646922e-05 0.00014355114965604633 -2.779688673401307e-05 -0.04139858224898196 0.03755234499088551
0.138 -0.04049444616872011 -0.19147402423219123 -4.583239152462195e-05 0.00014494817312264883 4.7617417811064204e-05 -1.2495839112051969e-05 -0.03846318857112856 0.041257997325664944
0.139 -0.055736132714859624 -0.18987207539959416 -0.00011249428556021395 9.101990870013786e-05 0.0001267426865700732 5.5433241321055176e-05 -0.035078457996364394 0.04460930188321471
0.14 -0.06909473468441259 -0.18441887263880158 4.407096065339131e-06 7.464403927129852e-05 -6.296293657687611e-05 -4.9552506283363895e-05 -0.03126285006206009 0.04767668165683848
0.141 -0.08242344975648977 -0.18187944337501258 -5.0257436334243534e-05 -6.86067722680927e-06 -5.9880229998435935e-05 -2.824134992632536e-05 -0.02748109183083483 0.05063033692863206
0.142 -0.09630325064572093 -0.17573647771473655 -7.207070404290254e-05 -3.430361361262329e-05 0.00012147075640729884 -8.77422482031255e-05 -0.02346626457064177 0.05315409932096573
0.143 -0.1088647936592051 -0.17014022983145083 -9.142844018322808e-05 8.25485514331194e-05 7.686550362625554e-05 9.678884868613298e-05 -0.01891976307585502 0.05530193299895237
0.144 -0.122092636226251 -0.16359490913945454 0.00010860283291864635 -4.233991629766665e-05 6.635979883376592e-05 8.499040229529019e-05 -0.01430295226337015 0.0569687402492641
0.145 -0.13421384486723342 -0.15494923865653232 -5.194581665896094e-05 -4.846674901092973e-05 -3.072189415435271e-05 -2.850018425637592e-05 -0.009465996222310237 0.058500420539114736
0.146 -0.14661892295254775 -0.14558300432739193 -3.24058240520398e-05 -0.00013188630250116025 6.180767093431353e-05 4.213578853692397e-05 -0.004553299601061955 0.05962176522777453
0.147 -0.1565538812208511 -0.1368792079044811 5.400758889263461e-05 -4.76016623805188e-05 -6.9533753155508735e-06 -7.806732939912649e-05 0.0006018020442084968 0.06004604134919985
0.148 -0.16751165345932142 -0.12622908490368734 0.00010589787162462708 -9.403215047283593e-05 -1.5182518148581463e-05 -7.624616799624847e-05 0.005613616243154515 0.06041442354046666
0.149 -0.1781255487782981 -0.11317141899087053 1.523870842395852e-05 6.242204946148395e-06 -3.156859859181251e-05 8.83232301161563e-05 0.010600719790041234 0.059880912262417395
0.15 -0.18683747132234063 -0.10081860812462054 -0.0001134229197628676 -0.00011668627096533372 2.0405559396298657e-05 7.454623061593562e-05 0.015808024956092903 0.05938485528744869
0.151 -0.19383928961264318 -0.08750906788576472 9.594725276087406e-05 4.268124369771421e-05 -7.225084592099527e-05 9.191468527818485e-06 0.020547508244221618 0.058352891358910086
0.152 -0.20134562023449168 -0.07424913168711432 2.25975681621774e-05 -1.6445179322224614e-05 -2.385476120328232e-05 -2.2986040027472774e-05 0.02575045164360131 0.056894356630228134
0.153 -0.20784115953744475 -0.05959749346812254 -0.00012372372028603376 1.892203062367429e-05 6.790266160887535e-06 -8.192132281576078e-05 0.0304024163664747 0.05482537110478814
0.154 -0.2128710802085251 -0.04503482760658082 -7.086880383019377e-05 -7.829888950906489e-05 6.486997082845989e-05 4.748968560381617e-06 0.03544593583957158 0.05228506275741085
0.155 -0.21685725387731802 -0.029573213202549898 2.1218090136654792e-05 -1.5307807657493498e-05 -2.196144904738494e-05 -4.544367052598198e-05 0.03999854490539841 0.04971552643781619
0.156 -0.21993665031866774 -0.014716617173287207 -8.308222850921063e-05 -5.2152120359802425e-05 -3.443707378584702e-06 5.162396118483927e-05 0.04453672497524022 0.04628934700028062
0.157 -0.22149485035277344 0.0008758531433737046 -2.1935870096332806e-06 9.602783400412784e-05 -1.5184743503087167e-05 -2.5232674191142267e-05 0.04835250840231285 0.04234572821004466
0.158 -0.2222105323673752 0.01703111713201221 -4.54553317304013e-05 -0.00016495425689048616 -4.2691093735552755e-05 -1.1028247556019553e-05 0.052261861616291524 0.03849832838672537
0.159 -0.22180657184305264 0.0337369174615108 7.050419451654946e-05 4.391567978993395e-05 0.00011197753144250822 -8.688558084113427e-05 0.0556572409811345 0.03399859059960398
0.16 -0.21956959420200106 0.049683526727138015 -3.660951053474163e-05 1.796701269755859e-05 -9.905671020495837e-05 -7.695747993445752e-05 0.05842375936025754 0.029668116994666864
0.161 -0.21700582824841355 0.065505007824962 4.3877336140142536e-05 -4.94786345091494e-05 3.947278671918998e-05 -0.00017662503423360312 0.06126807567081868 0.02456582647075
0.162 -0.21306994195937068 0.08129027074869606 -4.613238682086846e-05 7.51959359860758e-06 5.6607194731946505e-05 -0.00014477565484564183 0.06391501379201954 0.019019024167076317
0.163 -0.20687754899938643 0.09725961762821726 -6.731138286999442e-05 5.122090807769725e-06 -9.847441080999493e-05 -7.016010996809505e-05 0.0654021563397574 0.013868455744955413
0.164 -0.20134012630126275 0.11268377200391153 -8.62653055024432e-06 -4.525202665117231e-05 -9.729393855853848e-05 6.844276640610429e-05 0.06706172821834762 0.00820746043762615
0.165 -0.19418154119989997 0.1277657895866829 1.9297615283933475e-05 -6.588929694810694e-05 -7.030530642196485e-05 -0.00011280272045576134 0.06803928346341553 0.0025892135511712323
0.166 -0.18444000656328813 0.14112664543707998 -6.735661917079345e-05 -8.947406327962903e-05 -2.8981822888731926e-05 -1.5807133837374968e-08 0.06815310018242154 -0.0031500777052524934
0.167 -0.17488868922395306 0.15652308013840355 5.442062424906061e-05 3.691761753077104e-06 -8.963269216926476e-06 -3.400721168107884e-05 0.06814973685379835 -0.009111264314538313
0.168 -0.1644771160537303 0.1683805271299285 -8.928858074711749e-05 -7.368565481644289e-05 6.324378554791734e-05 -1.5526505939889403e-05 0.0675782636166806 -0.015115932502055868
0.169 -0.15380551791994 0.1802323620583645 7.097094708187547e-05 9.12669230155885e-06 -5.7881912361950695e-05 6.754758499443615e-06 0.06620323189237347 -0.02100040543163145
0.17 -0.14115263607265194 0.1923428590176326 -5.0875625971035806e-05 -7.55817304301409e-05 -4.9481883581716714e-05 1.2301392936701327e-05 0.06469463714811341 -0.026761231223386986
0.171 -0.12676653528399032 0.20085210776475096 6.705168769478957e-05 -5.431199944136731e-06 7.528998850541212e-05 2.5399729542664924e-06 0.06247869491891625 -0.032194812593055816
0.172 -0.11327457153175813 0.2109521856772626 7.599485089861282e-05 3.129766584325188e-05 6.828757954543907e-05 2.6182435943895126e-05 0.05975826225571858 -0.03777019258458839
0.173 -0.09797003993347145 0.22122038880061307 6.53564118429465e-05 -6.496104400435003e-05 -3.076110682527079e-05 2.9503672216042052e-05 0.05678602459432947 -0.042782234671770177
0.174 -0.08344322639810897 0.22599295121212318 -4.3052943865836564e-05 -2.0398455665178756e-05 -9.553838938111583e-05 9.672849302834398e-06 0.0533917063262866 -0.04754285751146904
0.175 -0.06825058159308539 0.23315093848510726 1.0021397380686773e-05 -1.58541975291429e-05 7.654118922889773e-05 6.0879351090727316e-05 0.049344857710396976 -0.05241931245151384
0.176 -0.05172404602220501 0.23901228363751817 -8.215802851089378e-05 -9.13383514185327e-06 -7.342889087959627e-05 -1.7660488323571043e-05 0.04478996495719158 -0.05643890523908733
0.177 -0.0345126211646335 0.2440007162586985 -2.8701091444434047e-07 1.7466459592701812e-05 6.650216179627554e-05 -4.583596146366753e-05 0.04033796911113633 -0.060423529258876375
0.178 -0.019601824742701668 0.2460619035101484 9.566678172133697e-05 -4.343255804077866e-05 -5.079438159239462e-05 -0.00019029355051976743 0.03516370642914855 -0.06399664606052431
0.179 -0.0014564016347948909 0.24839355753791845 5.398239922031487e-05 9.894009378438714e-05 -2.0772447355443373e-05 7.016173647637161e-05 0.029921390556586897 -0.06673868143425354
0.18 0.016540009482577653 0.24845824830593655 -4.985985517629173e-05 -3.288432114907788e-05 6.319157338052382e-05 1.332712740244778e-05 0.024346527055086862 -0.06974830013089076
0.181 0.03288367533138469 0.24859749737250317 -0.00021464068801316114 5.905262854602762e-05 -6.143133704978602e-05 4.417338457991579e-05 0.018390988982271567 -0.07163628314860829
0.182 0.05037504084127768 0.24588462663257393 -4.0131961131582226e-05 -2.2317098573197747e-05 -3.241679596717904e-05 -4.278139436923734e-05 0.012619423340399016 -0.07314191182075824
0.183 0.06836134573587803 0.24289807348968062 -6.394716856509617e-05 -1.4726634996514493e-05 4.6136754346943044e-05 1.0203524567560419e-05 0.006444454365952444 -0.07430219634998943
0.184 0.08650649485425452 0.2372216458591997 5.234373258157194e-05 -5.523415357806571e-05 -9.402479970754752e-05 -1.2078736864769897e-05 0.00036182569157141756 -0.07474811719843817
0.185 0.10204103805611131 0.23363217246390627 -7.88082464855536e-05 -4.6118155040651746e-05 3.874321330956116e-05 -3.933944970435947e-05 -0.006008526721060389 -0.07490894731351652
0.186 0.11823708413312325 0.22705572982543223 1.3732702028341457e-05 7.3252422207766174e-06 6.835885015156354e-05 0.00014341795000454927 -0.012166624145591203 -0.07438618201812472
0.187 0.1343637981757791 0.2198164567686345 -6.020321985326323e-05 9.056185936686017e-06 -7.31881896247352e-05 -3.953144571568344e-05 -0.018600633461064355 -0.07349213226376336
0.188 0.15015962809152283 0.21071348843921223 4.966889237064316e-05 -2.6682603897224202e-05 2.0479301227434413e-05 1.6548009108893532e-05 -0.025258734519869125 -0.07196714865836809
0.189 0.1638140055983004 0.20073563679720938 3.5611719522203715e-05 -4.295526820223905e-05 -3.0658573236537004e-05 -3.586685751211232e-05 -0.03125875265820363 -0.06973435916918658
0.19 0.17917167058413153 0.18955672635056997 4.609304725441798e-05 4.1098863820603726e-07 -5.9718697993835764e-05 -6.47448690204702e-05 -0.036339189976998726 -0.06734394068218193
0.191 0.19303716129745532 0.17886930112328503 8.88531516911856e-05 -9.126631431566219e-05 4.421408915693123e-05 -1.8584827590109656e-05 -0.042307458206499546 -0.06456799233891648
0.192 0.20697370255017924 0.1664157759290788 -4.6119665844937316e-05 6.805447989181405e-05 -3.378295061660472e-05 3.05771552453002e-05 -0.047240759784813964 -0.060669773562234866
0.193 0.2187071518330868 0.1508517517767269 1.2841129030439256e-05 -0.00010417158141411861 -0.00010534657466838409 7.026573334907319e-05 -0.052658913986388965 -0.05753008433158131
0.194 0.23066533349079352 0.13603648131138202 -1.9470226145036103e-05 5.674665491465813e-05 0.00010763699250956093 -1.948099064719388e-05 -0.05735978019821041 -0.0527767865898379
0.195 0.24033947804990738 0.12078168690050084 -5.055397088733742e-05 1.0163343430531938e-05 1.488886866251357e-05 -5.43924827234797e-05 -0.062169854997179294 -0.0480828308612224
0.196 0.24901989032810673 0.10585297767085203 7.725499115038811e-05 -2.999280988461087e-05 -2.7123745007704045e-05 -2.9584172160332926e-05 -0.06537908177254566 -0.04326065123844049
0.197 0.2577152085437899 0.08851250971373888 3.598934710853923e-05 0.00010367037694868066 -4.965043800183145e-05 3.388510736488368e-05 -0.06942885703598614 -0.037439779988889955
0.198 0.26481037409525077 0.0699577103214455 5.384201128391247e-05 5.57702510836373e-05 5.515859434162071e-06 4.22532258022368e-05 -0.07248545513782481 -0.03161163591310382
0.199 0.27056648922557164 0.05140209853481884 1.4609723389936626e-05 3.238520365298319e-05 -4.7768094544012424e-05 -8.913940756156596e-06 -0.07540488393063055 -0.02591798928605014
0.2 0.2746043449518248 0.03262022167828024 9.535487530402802e-06 1.0297108181999161e-05 3.8561249926397156e-05 -0.00010424023577593563 -0.07708328917010955 -0.01992388085040352
0.201 0.2776666693959461 0.013607087692945845 -2.062789944950171e-05 -3.690455354381049e-05 -9.905202096309145e-05 2.566737873817303e-06 -0.07886118693858862 -0.013506552336258136
0.202 0.2795513840936106 -0.006071528859074374 0.00018078904485066154 -5.530308420648538e-05 2.88833845662265e-05 -3.6431045801372403e-05 -0.07997956483839883 -0.006942363529814002
0.203 0.2798151594989768 -0.026334359075577345 -7.307005806334663e-05 6.211537294507593e-05 7.634550160004527e-05 -4.132090086212421e-05 -0.08097665913225607 -0.0005299985625112481
0.204 0.2790554952678868 -0.04514929483437606 -6.787691169247198e-05 -4.579702234773355e-05 0.00014174652735900886 -1.4190764121008155e-05 -0.08075891686846642 0.006211844596618816
0.205 0.2761129495102793 -0.06500106825931248 -4.911277736819779e-06 4.688141101312001e-05 3.075539152935449e-05 1.3778694421131103e-05 -0.0805905901592221 0.012674195056954343
0.206 0.271875263202507 -0.08499397474023308 -1.7866252525486133e-05 7.322955776086382e-05 -3.9917860156140336e-05 -4.7624981343983306e-05 -0.07947396200182638 0.019378255880782562
0.207 0.2666607488112963 -0.10433755888365115 7.557601127187453e-05 -9.953530442795817e-05 -8.368293088231958e-05 -1.5261993903128526e-05 -0.07794030212789056 0.026043013401037308
0.208 0.25937295661151005 -0.12456761687480261 6.535777590205028e-05 -4.659236174505932e-05 -1.8307085701381998e-06 -1.4053663726950543e-05 -0.07561215265987217 0.032522190179618514
0.209 0.25208151442769045 -0.14283079218780365 5.5297160513694996e-05 3.7260021735081534e-05 7.349436014944737e-05 -0.00014279376904041243 -0.07326495610632355 0.03866142966638749
0.21 0.2418980313707625 -0.16088074442673547 4.6220511714282785e-05 -7.5578173004458396e-06 7.0103647840626804e-06 2.7275774263557147e-05 -0.07031249082849414 0.04461897386162528
0.211 0.23013386903218802 -0.1779503865761948 8.241443288361623e-05 -8.155054835373642e-06 -2.038508925342129e-05 -1.6650681947351722e-05 -0.06686498852025072 0.05022932082188628
0.212 0.21723176172114173 -0.1944062377718402 0.00014941475417587494 -4.050677431053472e-05 0.00013636857714384492 -0.0001285458690692068 -0.06243125261821807 0.05609015926053124
0.213 0.20487261838737691 -0.21063778125315874 -8.232079836109483e-06 7.530891182036213e-05 -3.90819218776098e-05 5.3453710010145815e-05 -0.05784632811876823 0.061458865927844955
0.214 0.18937952384477502 -0.2260847369944329 -4.969542612596977e-05 -2.433881647170253e-05 0.00011431804457906536 5.77139208012387e-05 -0.052710769415254995 0.06634075704052227
0.215 0.17315898466854607 -0.24020474272976874 1.1602967678401251e-05 6.0350849999304716e-05 -5.6375056253228355e-05 7.1561908095028735e-06 -0.047406418127771306 0.070927780422639
0.216 0.15698328081047927 -0.252603240475497 7.669398820378862e-09 -0.0001124925908812164 5.4050505168690956e-05 -3.5921162775411264e-05 -0.04181609897030333 0.07500350598529577
0.217 0.1394102604355389 -0.26262435461710376 3.5500038214713046e-05 -7.791180024683506e-05 -6.296667807143505e-05 3.063653841212434e-05 -0.03540060694872303 0.07852923861942093
0.218 0.11968072847323742 -0.27458106577603275 4.028685132735943e-06 1.4352033504177032e-05 8.484049708872991e-05 -3.694645317925133e-05 -0.02913822642395822 0.08141838722174143
0.219 0.10087576549482759 -0.2841868764738532 4.6666243841910304e-05 -4.269155061267745e-05 3.691923838846171e-05 -3.17262254308208e-05 -0.022390981312152936 0.08411456767429183
0.22 0.07907501036185012 -0.2901217215792793 3.6560743958240765e-05 5.117136139786418e-05 8.753352651382629e-05 6.484993672534176e-05 -0.015331659901983888 0.08602388888983957
0.221 0.061273954500393864 -0.2969203984157387 -0.00010429067502116768 6.698154079534296e-05 -3.9398812724820065e-05 -1.8990488972988425e-05 -0.008090217909896556 0.08758644297177826
0.222 0.037532204135635766 -0.29876871862832965 -5.242812495695318e-05 -2.248257082198291e-05 -4.247959953834824e-05 3.991716745037419e-05 -0.00036762778289058584 0.08839721529141925
0.223 0.01634187439914869 -0.3042794987800935 4.329306441047854e-05 -0.00011141787043666733 5.8304592078304065e-05 5.0217675468697886e-05 0.006991060562207401 0.0887524865848592
0.224 -0.004677894982880836 -0.3022404126759747 -3.0375574570290122e-05 -7.289697536622222e-05 8.152759279448979e-05 -4.275722076818481e-05 0.013600998979897626 0.08777003055335285
0.225 -0.025790827479046933 -0.3033642750758837 7.008647645237573e-05 -2.5024802060814103e-05 4.245406370522768e-05 -1.1293363602405436e-05 0.021828900955428283 0.08691954556299411
0.226 -0.04684390926483247 -0.3008024544300625 -2.5935699261198907e-05 -2.4371219634903327e-05 -2.817384992430944e-05 -0.00013044699203363999 0.029247996399651532 0.08473585997679936
0.227 -0.06979745960164176 -0.29750999802257144 1.901358886343762e-05 -0.00020387214989562685 -2.5584399778934262e-05 6.2308913561473764e-06 0.036221253584284435 0.0831016867944682
0.228 -0.09116364653506812 -0.2933830260410428 2.7661181724365954e-05 3.161320028548596e-05 3.4282330931490925e-05 3.485979681149543e-05 0.043190112367847436 0.0801577485191125
0.229 -0.11073490935989988 -0.2878289314786257 2.6610849438904037e-05 -3.7210359970012495e-05 7.685592078378739e-05 7.373940327052737e-05 0.04991173339464032 0.07637763776015069
0.23 -0.1313679434966361 -0.27839229756480455 -7.39221499808227e-05 -6.650506890269736e-05 -6.851504095455618e-05 -4.7738444931300295e-05 0.056305348371371175 0.072133425737463
0.231 -0.15093365894762292 -0.2713309553666176 -8.803509806829575e-05 -4.878578090455676e-06 0.00010905170743938172 -2.0376923650425214e-05 0.0628712485123195 0.06686606900958054
0.232 -0.17038449938194986 -0.2593393709619967 -6.897514868702514e-05 -4.52220890729535e-05 0.0001457885810301862 4.958002120364803e-05 0.06833726654964355 0.0620774541880182
0.233 -0.18933135150019498 -0.24901860095958453 -4.4992540039930525e-05 -8.810969137781011e-05 0.00011573977405261676 -1.591477299424396e-05 0.07349481859969521 0.056697674298644515
0.234 -0.20484960889640935 -0.2331369465676382 -3.303729553708387e-05 -2.7736939039371696e-05 -6.964555674593249e-05 2.5574989800807257e-05 0.07849200395919027 0.049877120802022376
0.235 -0.22180454443092845 -0.22017735689084603 2.9402399395404093e-05 -4.8086994849083905e-05 0.00010070072489344851 -4.7018130936447065e-05 0.08255394351950911 0.04327396468431221
0.236 -0.23907663078349298 -0.2036276031833101 3.2625526086814025e-05 -5.8749330374804516e-05 3.2517271101699975e-05 1.3580914368227974e-05 0.08608618549129979 0.035843861278995144
0.237 -0.2519029953737833 -0.1883189790236422 -1.7863462847741295e-07 2.6201220373899558e-05 2.7580847579653876e-05 5.101719234929555e-05 0.08906065382415793 0.029364433310017795
0.238 -0.26313688855592937 -0.17011893800463518 8.380584523108272e-05 -5.805224852789089e-07 5.9218477116543195e-05 -4.4659147608259885e-05 0.0918124296454202 0.021429931582817616
0.239 -0.2771263328814184 -0.15100595751160384 6.0431928601751555e-05 -1.7519351493774776e-05 -7.894743180898613e-05 -5.959248448873194e-05 0.09307677585953454 0.013897442772811302
