!Created with skrf (http://scikit-rf.org).
# GHz S RI R 50.0 
!freq ReS11 ImS11 ReS21 ImS21 ReS12 ImS12 ReS22 ImS22
0.13 -0.16094674578514215 0.08733013072967176 8.346605477020473e-05 -4.525760262274277e-05 -9.289298188590474e-05 -4.593579031841738e-05 0.04446557223887677 0.027252707826429273
0.131 -0.1536963197089586 0.10290892852419309 0.00010342589915368673 -8.402151124596952e-05 3.536150095699069e-05 1.970031856098572e-06 0.04747722136375574 0.022913261701660716
0.132 -0.14492139364919873 0.11715884897335635 0.00021871464156272266 -2.296190254591013e-06 1.3897852147944853e-05 2.2645031893116727e-06 0.049628152604637515 0.01799997278208692
0.133 -0.13431739529115755 0.12999225279034032 0.00029893521919574175 1.3615286500252837e-05 8.812581699417007e-05 -6.496360961900731e-05 0.05178446591966432 0.012831190752712234
0.134 -0.12348709308257245 0.14240823197724195 0.00011824135153109814 -0.00017971941123714496 -8.508840027705022e-05 -5.5819584259490935e-05 0.0534247067064038 0.007381180475415458
0.135 -0.11220531309211706 0.15443736432079744 0.00012687953159493676 -0.0001882173396325754 1.1062363582077614e-05 -7.655304394240958e-05 0.05404117506388741 0.0018646231514819805
0.136 -0.0979082259582356 0.1652861828377164 0.00016639015896892544 -0.00023788857192146392 1.362099978709912e-05 -0.00013149204785295368 0.05437732914595334 -0.0036915015974538353
0.137 -0.08282826346787914 0.17450960518883982 5.718601076827811e-05 -0.00011964096771841597 -1.3008225348744412e-05 -0.00013795395661464458 0.05421367491100848 -0.00945932530270521
0.138 -0.06790709215421883 0.1820039448725018 0.00020608021196043185 -0.00015150429848580547 -4.1969832114311596e-05 4.54524177411498e-05 0.053324882647815694 -0.014995519368448245
0.139 -0.051346277031651275 0.18986537394277828 0.00010671487973508367 -3.9193645250007114e-05 -2.4797180161696515e-05 -7.80524358691485e-05 0.05170673978694828 -0.02055640040928922
0.14 -0.034100899904785736 0.19316477717455502 0.00014883033409480043 -6.157919964156863e-05 0.00011893994213380677 1.3706560964926683e-05 0.04959953003704912 -0.025877930647612134
0.141 -0.016691534489608452 0.19681085846996288 5.371811303781332e-05 -0.00021513913073603494 -7.473897023317977e-05 -7.032661439582664e-05 0.04704828443577183 -0.031214438878744248
0.142 0.0005556506729480083 0.1987830979188633 0.00011230844904801556 -0.00029686062231435605 -9.23129035042444e-05 -9.757017785536352e-05 0.043796126787985445 -0.035992549554468255
0.143 0.018008693140613458 0.1982115985017758 -0.0001076821924851509 -0.0001898441411256665 6.140624249293983e-05 1.8195050121827324e-05 0.040002123970946296 -0.040703681519927724
0.144 0.03543501064960976 0.19842948859355877 7.552403106124142e-05 -8.514189764432221e-05 1.3111954224505546e-05 5.544720725573817e-05 0.03594704982032049 -0.04483290998230182
0.145 0.05406500146845627 0.1961459389293937 -7.538548245143623e-05 -7.311742453656401e-05 -9.31542421823102e-06 1.4617888140521234e-05 0.031391207378536276 -0.048349044408212
0.146 0.07112899222011246 0.1909969981710535 -0.00014791959363165776 -0.00021807897394292188 -7.792418607416317e-05 -0.00010025868477958123 0.026296626561120355 -0.051675339770468516
0.147 0.08679104838194182 0.18366621535179167 -0.0002644130568778706 -0.000259342357768176 3.9999219512654074e-05 -2.9515652693956717e-05 0.0207854671967076 -0.05425853113508547
0.148 0.104280890917995 0.1774623869369776 4.980651962660656e-05 -0.0003204011518825033 -4.5109844270378385e-05 6.449837776315494e-05 0.015508577247209297 -0.05636957697575991
0.149 0.11785723839523674 0.16701767891495145 -4.569424687677359e-05 -0.00011303066416685668 3.7137335241272203e-06 -7.435351420715926e-05 0.009813374797887645 -0.057651976117791104
0.15 0.1347354543764841 0.15645445224893376 -9.200171744438528e-05 -0.00017623464928375992 -7.591141848792725e-06 5.220480599847619e-05 0.0036995867822721927 -0.05871382029884984
0.151 0.1485730705384675 0.14610193822911235 -8.389427837886853e-05 -0.00013395388820120879 -0.00011359840222858625 -5.367119025425191e-05 -0.002242301767242496 -0.0591253580890234
0.152 0.1621552041499408 0.13276311689850245 -0.00028506085498747645 -0.00017872085649972094 6.852564405297474e-05 -2.6414474919273346e-05 -0.008313715802935951 -0.05889293763245881
0.153 0.1737092037472565 0.11849117854243327 -0.00016706957129248814 -0.00023988572360987085 2.29631445310988e-05 -1.0724572079222874e-05 -0.014011354275015894 -0.05801289854820491
0.154 0.18343262100690177 0.10379356569571128 -5.983462141359888e-05 -0.00012983788863540793 2.1461953052758172e-05 -3.6886810107736454e-07 -0.019976180976344706 -0.05610689622721523
0.155 0.19243570193424325 0.08729824267414912 -0.00010300075356424376 5.5943032455943026e-05 -6.218216070181253e-05 -5.8033376459517725e-05 -0.02573362826241625 -0.054160584256067235
0.156 0.20100250325884214 0.07102068126793752 -0.00012483648842085416 -1.257037339767336e-05 -9.90249881875318e-06 1.80849423835592e-05 -0.031426493236857346 -0.05178129772319696
0.157 0.20726103918244518 0.05323780701867349 -0.00018865605451520067 1.244267663960957e-05 -3.50789900988169e-05 -3.4356617807814335e-06 -0.036239546701034075 -0.04835849269962365
0.158 0.21206611202279466 0.03490830017331926 -7.761820961232671e-05 -8.090418109761308e-05 7.055439155770648e-05 -4.498192414893393e-05 -0.04089185612364197 -0.04471123307945538
0.159 0.21546645400008865 0.01596114911673099 -0.0001803350590698388 -4.464929207642889e-05 8.775385927873665e-06 3.6873126313831726e-05 -0.045621848030194735 -0.04025203603111953
0.16 0.21693235544042583 -0.0020278766519729085 -9.787302740883067e-05 -9.047289592652615e-05 -8.112455395484907e-06 -9.690974331603655e-05 -0.049590289051385024 -0.03637150252162353
0.161 0.21720385173459347 -0.021771247846430624 -0.00015649395003361925 -5.9558822959298135e-05 0.00010228989873998781 -7.304161944816256e-05 -0.05299855765085828 -0.030560202016599883
0.162 0.21531637556285707 -0.041120579622608545 -0.00021089120351242279 6.397314718745457e-05 0.00010938902675338382 2.8497888259164158e-05 -0.05651149427521787 -0.024976101344859225
0.163 0.212244831201398 -0.05947669450667659 -0.00022075149102980093 0.0001499521651376493 -1.48570313011785e-05 -4.483940957848296e-05 -0.058789165885908774 -0.019501368273006133
0.164 0.20815585837949696 -0.07918793716089635 -0.00017956885692893071 0.0002043090279799529 9.369568175451069e-05 -6.408227747658807e-06 -0.060534277888891826 -0.013402807846233055
0.165 0.201245171851771 -0.09742455302954568 -0.00023361005135444796 -6.283467013260762e-05 -1.4333170678170344e-05 4.59060517325427e-05 -0.06200077051667264 -0.007432588787571188
0.166 0.19345641143534373 -0.11539378867226542 -0.00020844774410205992 0.00019284530171587657 -7.954102757028373e-05 5.574373084388618e-05 -0.06290737996117554 -0.0010294114674211222
0.167 0.1825987407814231 -0.13268477209090274 -0.0001560194599614899 0.0001084552806791315 7.843141218214927e-05 -9.665919396106911e-05 -0.06261525645501206 0.005349100281795211
0.168 0.17190424819677783 -0.14916679893674445 -0.00016182532675305695 0.00022462802990150967 6.326037120329919e-05 -9.620176829464924e-05 -0.062207720899338806 0.011652394057601757
0.169 0.15750922137432033 -0.16683225032229834 -6.366187552281625e-05 0.0001862891829240473 2.7296668722670314e-05 7.767059992863745e-06 -0.06113100795078885 0.018035318351263332
0.17 0.14363206219258895 -0.17889936722284674 -4.1665878457970965e-05 0.00010316716695170405 -1.3900088262406135e-05 4.7773897738019074e-05 -0.05931458807528992 0.024247357897660714
0.171 0.12839403133818666 -0.19241072069537962 -0.0001254616610582186 0.00019090634865866435 -2.349450862972712e-05 -3.368543968488122e-05 -0.0566875674699881 0.030171065250678464
0.172 0.10938287230150172 -0.20462418197312127 -0.00015105233752139009 0.00015476374852143785 6.426460690803993e-05 4.688537917288066e-05 -0.05363108159881804 0.03578227863344384
0.173 0.09269694505020187 -0.21422602937609192 0.00011286069199015085 0.00020482288363733476 -8.810695493658792e-06 5.920220940275747e-05 -0.049918934372019934 0.04157474645041899
0.174 0.07158354952352067 -0.22468162752492113 2.9361703018783242e-05 0.00031622826096353235 1.0462922241315937e-05 7.275521696132475e-05 -0.04588524564866848 0.04647717038073349
0.175 0.053000125252718314 -0.22921225734702352 0.00012368896487354787 0.00018286502574917118 2.0033742394524825e-05 8.437405938914242e-06 -0.04098461091801548 0.051037248256448405
0.176 0.03307408538577869 -0.23545081877783408 0.00016563351618530155 0.00029994309127579763 0.00015803748935372926 3.944036762996197e-05 -0.03588009876930323 0.055765147352981964
0.177 0.011764714324879253 -0.23815105462280073 -8.55713330440502e-06 0.0003201116010402452 3.1248420009724465e-05 -2.0431054088373284e-05 -0.03021235040558909 0.058946924918898747
0.178 -0.010407113447693284 -0.2376185806246128 5.751669887927213e-05 0.00015156317086518809 7.331981919842166e-05 -1.5950702250944503e-05 -0.02415812447136964 0.061860178751122416
0.179 -0.033496061723001264 -0.23821901874066032 4.37949679554882e-05 0.0001846359041086616 1.2590372448158658e-05 -0.00018494238155258782 -0.017947427079423036 0.06464786530776588
0.18 -0.05381698253493392 -0.2365627727770009 0.00016557222591696483 0.0002105435551947797 1.2848943059337024e-05 -4.0780723023027814e-05 -0.011408594011118496 0.06652997955348387
0.181 -0.07630329771059843 -0.23182208778225233 6.921218731446139e-05 0.00022861079442870278 -1.2861391861454981e-05 8.348609023861592e-05 -0.004283424749809024 0.06775872678269478
0.182 -0.09738708628039346 -0.22506511724908393 0.0003072959029069069 0.00013755188099363793 6.758298366658335e-05 -2.3577774173295953e-05 0.002587131716195155 0.06773014786468319
0.183 -0.11848159334778498 -0.21624302922441754 0.0002957006867692985 0.0003067297108013582 -4.0906140795703734e-05 3.667077577334292e-05 0.009963633204610207 0.06761393520582956
0.184 -0.13801910224039807 -0.20405107853291982 0.0002621049829450246 6.180712423577179e-05 2.205528722801819e-05 -5.3732516780278224e-05 0.016554229431689174 0.06606907732396039
0.185 -0.15522062873663311 -0.19296930188073103 0.00010927113469947833 0.0001081298509702235 -2.8106381405301127e-06 -7.87919297637155e-05 0.023419529149770597 0.06483934137384784
0.186 -0.17475958857367113 -0.17778815124401756 0.00025222713760123216 0.00016432435529572368 1.4642860043399357e-05 -4.928536427287385e-05 0.03022165663791142 0.06262324321692954
0.187 -0.19131828024036773 -0.16232147241410308 0.0001975831897021688 -4.014439791369685e-05 -1.2288070531141237e-05 3.371827419153051e-05 0.036803146383428284 0.0589152201800081
0.188 -0.20529116089665903 -0.14445675431787594 0.00032163415264360685 1.7656060030464918e-05 0.00011068332725656374 1.9779161386522573e-05 0.042753736007867076 0.055310635395223885
0.189 -0.21909325655223985 -0.12546002253630023 0.00024351754111886833 -2.1200469639527612e-05 -4.066711268815062e-05 3.694952586497117e-05 0.04893567517700939 0.05065363789011698
0.19 -0.22922286587210672 -0.10476500262630652 0.0003509159693476599 1.6311706222961157e-05 -9.239543153741382e-06 1.4670370988344994e-05 0.05369464334527102 0.04543073966997413
0.191 -0.23906339058805917 -0.08476685727751124 0.00029633475699392467 8.56822434628792e-06 -5.260425968851937e-05 -0.0001715169370715064 0.059323415593044396 0.039855462382371476
0.192 -0.24717628360493524 -0.062451983803765806 0.00024830931342905533 -0.00010804849019100269 -7.421045920059126e-05 2.1082529042925573e-05 0.06256112938503151 0.03385203681082067
0.193 -0.25241579916536033 -0.03973180351924571 0.00020648572272797392 -9.411371649670893e-05 -9.013544889357069e-05 0.00012910106805627577 0.06665444823104429 0.02736193553950755
0.194 -0.2562844620701719 -0.016587209377987883 0.0002313666240459066 -0.00012418567111716452 -1.3167077180998573e-05 -7.184048344428862e-06 0.0689152395600977 0.020418734750111876
0.195 -0.25718133657457903 0.006488894397709105 0.00023050579849722094 -0.00018485839590826408 -5.044833376394601e-06 3.6620198322315776e-05 0.07122653572064186 0.01278459698386814
0.196 -0.2563602888062466 0.029137748681755914 0.00029232724991503967 -0.00023127741015711926 2.6043195437455923e-05 -3.362341263035435e-05 0.07216125278527546 0.0056238366573964456
0.197 -0.2531817151997426 0.052085878909240005 0.00020119644201654964 -0.00015457969258946463 5.257965092622313e-05 2.892901923503229e-05 0.07292829899831337 -0.002147137390253618
0.198 -0.2491237897731975 0.07534836188777061 0.0002219585365962667 -0.0002628232385775024 6.057656180582788e-05 7.271935224682954e-05 0.07244046225245003 -0.00966197697858312
0.199 -0.24159881666860228 0.09822592698578429 8.897380684635651e-05 -0.00036838897430701087 -3.795408260020901e-05 0.00015060602804423215 0.07172270951840395 -0.017236554460045565
0.2 -0.2327052960402015 0.11957021177495857 1.9632345678132546e-05 -0.00035735721892960214 -3.1431327111370276e-05 -7.744540379038942e-05 0.06932200230725809 -0.024729197314691215
0.201 -0.2223731673404682 0.13996811308516036 1.41570049890065e-05 -0.00027588963978388914 -4.65455994533003e-05 2.9111399746360636e-05 0.06692854652571893 -0.03182111987410662
0.202 -0.21013464552001151 0.1592932367618602 0.00013475108831758356 -0.000248523973086085 7.374419272753715e-05 3.133964392121463e-05 0.06327153028729474 -0.03892728369336308
0.203 -0.19546380860570087 0.17832664692739383 2.906445573683411e-05 -0.0002698040879514211 7.24632120380891e-05 3.9031440591032855e-05 0.05923080805202615 -0.045346830328027804
0.204 -0.17974009327361157 0.19679740254419445 2.014120196081189e-05 -0.0004921011727680064 7.719060241101051e-06 -5.035702804802617e-05 0.054308767245929354 -0.05133340684952523
0.205 -0.1636461488783084 0.21179902251486288 8.607269770767149e-05 -0.00040304817816508564 0.00011100971284630616 2.036020895121199e-05 0.04904990477147489 -0.056803718874919557
0.206 -0.14256147522388346 0.22904851078592858 -6.903309122294723e-05 -0.00035105373999979944 9.493456322451988e-06 -0.00012453275128302291 0.04306596150651866 -0.06157155053336881
0.207 -0.12201380114160708 0.2394252131813391 -3.565199311983981e-05 -0.000372121469619486 4.0993080956247564e-05 1.1067603426452145e-05 0.03669788880160856 -0.06632199497173895
0.208 -0.10164219232920536 0.2509327049199918 -0.0001831637876225986 -0.0002538096384967123 1.532732180082665e-05 3.962191800266802e-05 0.02951200062708469 -0.07000311804587543
0.209 -0.08009075789636556 0.25861907926434313 -0.00011615441275216717 -0.00028052974352882804 9.118401232879459e-05 -9.17640009962432e-05 0.02252067356279797 -0.07251096544384476
0.21 -0.05778789184405102 0.2681823461971081 -0.00025278482857767206 -0.00034196027552625284 9.805969191347067e-07 -6.956660279424127e-06 0.014919090489431752 -0.0749766175400347
0.211 -0.034644229118184246 0.27441786195672013 -0.00033372439998833865 -0.00036730127013557553 -5.770681008712735e-05 6.1050103437100405e-06 0.007185769861590004 -0.07654102932299899
0.212 -0.010053779292522613 0.2760315680484835 -0.00019309203690247935 -0.0002629305764536236 5.8137340848497675e-06 5.948513232246992e-05 -0.0007681993632325797 -0.07664867737323774
0.213 0.01424973150062035 0.27881089778641005 -0.0004403225931722795 -0.0002596934206776949 0.00011725054939883059 2.249061847622484e-05 -0.008594383401338971 -0.07603099408313803
0.214 0.038935666261415654 0.27855728260890605 -0.00034116838890664174 -0.00022129288254617332 -2.8597661915035242e-06 1.9108406722483357e-05 -0.016181016042386972 -0.07589667388226345
0.215 0.06475417351166964 0.2736627382499266 -0.0002828661464181493 -0.00017054109314111664 2.8399685014203852e-05 -5.0979987439498916e-05 -0.02354306361970159 -0.07354850985709581
0.216 0.08920536076742053 0.2683688907135696 -0.0002799281910694368 5.750874013143184e-05 -8.222712878320767e-05 -0.0001300468986329079 -0.03167430916388206 -0.07157460822087017
0.217 0.1120974325191477 0.26052197133872534 -0.00026110410248606327 -5.056878188230282e-05 -4.301636543227223e-05 -5.011609577262035e-05 -0.03806999741667746 -0.0674386007080667
0.218 0.1360526128670911 0.2510060736529421 -0.0004131165610592394 -4.461666195487027e-05 2.694571475259261e-05 0.00010854613249794088 -0.045619357747858254 -0.06388225209044106
0.219 0.1596918849791988 0.24028807498332339 -0.0005636834685156915 -0.00010877153291859053 -1.2335444211470226e-05 -1.255263922518731e-05 -0.051846427851889025 -0.059103261412330146
0.22 0.1816801909031704 0.22766960289155921 -0.0004591298144342061 -9.621780240933012e-05 6.516291298570368e-05 -1.112215500817899e-05 -0.05785279532140948 -0.05377189637675211
0.221 0.20269381035449885 0.21199697105932258 -0.000446374104452196 7.619989762224302e-05 -1.867015138926961e-05 3.114926574598123e-05 -0.06312918319278142 -0.047909518228869664
0.222 0.22171454439312613 0.19350444753068086 -0.00041451385025736086 0.00014380419443825514 5.297004784622208e-05 2.7207158880043882e-05 -0.0682908751169741 -0.04179748518049701
0.223 0.2380362395504125 0.17107838254334887 -0.000249355935451796 0.00017904640309348178 5.297327396163305e-05 -2.2647966070527806e-05 -0.0719890720315282 -0.034192548454489
0.224 0.25530643242640644 0.15111469735602617 -0.0002664829441760959 0.00014304600194454056 -3.9499273909878214e-05 -2.315092503583219e-05 -0.07544509470620306 -0.02678599287017039
0.225 0.2689834777403933 0.12880539667938304 -0.00023389713104977623 0.00029029282156421455 -3.0642595619572736e-05 1.7182639428648216e-05 -0.07825722873729096 -0.018957267394964908
0.226 0.28119402642704044 0.10481741814732576 -0.00027965525237779365 0.0003117834882416477 3.394189080456104e-05 -3.96641247471953e-05 -0.08000268837540565 -0.011343779179055576
0.227 0.29067340689084625 0.07908169120898097 -0.0002455112798365446 0.00034809488177595934 9.163031465046992e-05 6.25127835805784e-06 -0.08140767870709656 -0.0031985164076478406
0.228 0.2979089067619923 0.052971890302100186 -0.000225416608226545 0.0003085750239883019 4.426036601694038e-05 -1.1514140539672854e-05 -0.08092940866939484 0.004706219680444851
0.229 0.302869227752803 0.026731715570793124 -0.00032738103338422476 0.0003719743471401365 5.7841756468718426e-05 -6.086390980917093e-06 -0.08030146802793584 0.013269074157322177
0.23 0.3051724137212964 -0.0014336544443343464 -0.00018710498916277022 0.0003946948023702109 9.902486312792552e-05 -4.3910859401418585e-05 -0.07905896510801382 0.021287805777159087
0.231 0.30523215042759944 -0.02871200540027254 -0.00021678199681300403 0.00033581639176280423 6.5907293107292e-05 9.374398355073444e-05 -0.07688388386011978 0.029164668068953806
0.232 0.3019273638623642 -0.055107694696639016 -9.166294259833538e-05 0.0003035125696249534 1.692004849962147e-05 3.088610189299056e-05 -0.07365238744299776 0.03711126605785341
0.233 0.2980343472080432 -0.08366516098267517 6.942779137100495e-05 0.0006123290208836611 9.09484367773924e-06 -6.281651563330423e-05 -0.06988150185784443 0.04447924944254731
0.234 0.2886145012715512 -0.10849765622825958 3.9025364936641094e-05 0.00046164542739734517 5.59756971955139e-06 1.1396743118341397e-05 -0.0653432193617661 0.05151244057596625
0.235 0.2797340758435518 -0.13619352354426395 0.00011381744536813691 0.0006231088679499857 3.8185844867121496e-05 -6.740208554664795e-05 -0.06021319970197034 0.058020409709289414
0.236 0.2658021696736145 -0.16035200641735547 0.00018403329273633417 0.0005336440315495707 -4.825884835159566e-06 -1.6645532896198435e-05 -0.05391505978882372 0.06381044609865615
0.237 0.2515254293185089 -0.18320282215623246 0.0002557844608927284 0.00045959821529985463 -4.508592489507943e-06 -6.821770066497844e-05 -0.0474517751754058 0.06938677897291505
0.238 0.23307014384379685 -0.2060331397775877 0.00017915110888849764 0.00034734872493803173 -2.5814180307503087e-05 -1.9562979572014825e-05 -0.040486895667544924 0.07392928817532504
0.239 0.21611123727223752 -0.22576814997318234 0.00022604494199069308 0.0003072089928724707 7.095228001076246e-05 -4.8330930416149595e-05 -0.03290691744929625 0.0783542303376445
