!Created with skrf (http://scikit-rf.org).
# GHz S RI R 50.0 
!freq ReS11 ImS11 ReS21 ImS21 ReS12 ImS12 ReS22 ImS22
0.13 0.06443480741410737 -0.17294952902103136 4.033572206085162e-05 6.256126864022276e-06 3.0342539983030988e-05 4.600936888015107e-05 -0.05261069862342998 0.008222447214902617
0.131 0.05153688506717523 -0.1782617597072426 2.310406772812619e-05 0.00010226722811551553 -5.4281303266327135e-05 3.9698364069006264e-05 -0.05219580407936288 0.012553688029885959
0.132 0.039178911648356685 -0.18303333739102537 1.2185513145496865e-05 9.314697063313346e-05 3.853478381743815e-05 6.134698725587063e-05 -0.051195587585286306 0.016827611682885137
0.133 0.027851218917218905 -0.18653083901481102 5.5551371410972036e-05 0.0001727309074227046 2.2230850628688613e-05 1.7907026072808588e-05 -0.04994731661595007 0.021442927362983557
0.134 0.012753840183177809 -0.18982624825304806 9.868080344861901e-05 -1.9811613987361235e-05 -1.0927836406707526e-05 -6.803465998405634e-05 -0.048367614113497624 0.025565441131282545
0.135 -0.000442108271868473 -0.19072672147959516 -8.72494336932972e-06 -5.360286970925826e-07 6.39916897042837e-05 -0.00013713297180718023 -0.04665641497231616 0.029660846126630492
0.136 -0.0141050444541491 -0.19246938538902297 -0.00013302773235416914 -0.00011320921909221593 4.722771360734969e-05 -4.1026168753844344e-05 -0.04414398895073387 0.03374872052399381
0.137 -0.028276725009634164 -0.19116493237803353 -6.607864586814727e-05 -8.403226452746948e-05 2.3259634769810962e-05 3.195225554597949e-05 -0.04134816174154208 0.03771265928066773
0.138 -0.039942893831487684 -0.19157425458476215 -4.485101865040078e-05 -7.762312306868617e-05 -6.207444021283332e-05 1.9786235602379603e-05 -0.03827445949363925 0.04120174130628475
0.139 -0.05488253779378775 -0.18786430080123723 -1.7044923067909355e-05 -8.885226948968374e-05 -0.00011690830997291474 5.737561248572698e-05 -0.03492216683359204 0.04468577466148032
0.14 -0.06887882848068602 -0.18627391779738475 -5.155938248535922e-05 -4.749178974485807e-05 -6.336810929054327e-05 0.00013388613158574973 -0.0314077047971169 0.04774127845708441
0.141 -0.0830673536768644 -0.18096523716530155 -3.517605113754471e-05 5.2559309490434294e-05 -2.8042453630046667e-05 0.00012665478011793683 -0.02774943968276148 0.05059690859129398
0.142 -0.09585497378797396 -0.17703189387508897 2.477364168018614e-05 1.4133545926085711e-05 -1.4479203556077775e-05 -6.244157711991835e-06 -0.02318467579391392 0.05323175905139405
0.143 -0.10921349293314592 -0.16981683679167334 -2.9406275695438673e-05 7.829246898221985e-05 3.4472839051506176e-05 -1.1225594153184916e-05 -0.018671543043218008 0.05548887598191928
0.144 -0.12207078650947435 -0.1634493630395382 4.8249512309399484e-05 -2.8528498279250197e-06 2.512591197187358e-05 -4.9279151628336786e-05 -0.014392441385369355 0.05697964166552244
0.145 -0.13339255504924322 -0.15502328312595182 2.5627187306848343e-05 -1.9541191074158487e-05 -3.341622738526156e-05 3.5155709175499864e-05 -0.009450827078892242 0.05828067353055653
0.146 -0.1456329340470053 -0.14747138966426945 0.00010878912448623732 -4.42580792600657e-05 3.5647779168737064e-05 8.66083792754908e-06 -0.004677858076615124 0.05948967548871013
0.147 -0.15710225703298653 -0.13743427962875146 -3.9178061089156117e-05 -1.8562538828128223e-05 -3.6820459073940886e-05 -2.6127665636671036e-05 0.0003475977930670873 0.05998129263056665
0.148 -0.16688063680195084 -0.12564658473143375 7.784189029237715e-05 0.00015911741904533122 6.362232633831224e-05 4.925617577274829e-07 0.0058689185532351485 0.06051855007043873
0.149 -0.17764364422887122 -0.112763268804947 -2.9968557748974445e-05 -2.954656464824518e-05 1.978340565014207e-05 -2.5734977008699398e-05 0.010611721376039064 0.05984797026215997
0.15 -0.18740417374448803 -0.10086060932095624 -0.0001103336447621852 -0.00010680994027044392 -1.3575604301403412e-05 9.541647599200875e-06 0.015936659391905243 0.05949264635965484
0.151 -0.19414629467095187 -0.08732918231323339 3.0602906624159715e-05 5.049410553950156e-05 -0.00010793367379228837 -4.565888759767913e-05 0.02048676041417583 0.05826912333463356
0.152 -0.20157440019090908 -0.07470840157985394 -3.614604685669039e-05 7.476908739739972e-05 -8.444735722867017e-06 -3.67610735603085e-05 0.025947894639801232 0.05648779203950926
0.153 -0.207090018962458 -0.05950436367561868 -8.481127013088351e-06 7.539748482604979e-05 1.043700674467642e-05 -7.109511404627967e-05 0.030469951481205387 0.05466561549402356
0.154 -0.21278228901193386 -0.04632110385849728 8.038019333633945e-05 -5.33365668043527e-05 3.3298952340541414e-05 -3.0466958796533958e-05 0.03505836414127332 0.05252279477505469
0.155 -0.2167612844247799 -0.030433672399751602 -6.523636958609834e-05 -0.00015138623442263394 3.321669699512938e-05 -3.547964815159166e-05 0.04009887494538304 0.049649350267010464
0.156 -0.21974138095376114 -0.014432702601069897 -4.314722700254801e-05 5.2472837489575616e-05 -2.946794676904099e-05 -2.4870679961452206e-05 0.044416361704609525 0.046230439722747
0.157 -0.2216604393359868 0.0013298831240363808 -1.213566050095951e-05 1.4853306584872878e-05 8.290092294215746e-05 -3.734244310333268e-05 0.04876525354543629 0.04254591160877543
0.158 -0.22243284366514243 0.016621109581799163 -0.00012488924471681906 1.7760472620357702e-05 5.1844969979707896e-05 3.7130185607722895e-05 0.052151029157250055 0.03858422959465706
0.159 -0.22117937861549697 0.03339471089097677 2.726629186604873e-05 3.2772788949142044e-05 9.7413844462859e-05 -2.2086140675572863e-05 0.05567847315603065 0.03419034193546693
0.16 -0.21905336531850073 0.050572454211049375 -3.587330912036617e-05 -4.39556460578372e-05 -5.333944816531841e-05 -8.385226330932487e-05 0.05902770444416097 0.02969944069758718
0.161 -0.2167704831523209 0.06546621900620957 -8.931672706482727e-05 -1.2105859758431675e-05 6.425245430119797e-05 1.1442393595277154e-05 0.06120844008402721 0.02471404032278446
0.162 -0.21203310960358832 0.0819895397201736 -5.094907645921e-06 4.994842353458767e-05 2.163607960661176e-05 -9.997842770303365e-05 0.06383923205376443 0.01940344853063915
0.163 -0.20768124815592548 0.09694680334824195 -1.8196345526412353e-05 -5.439546840768391e-05 9.628859816226929e-05 7.675231390669125e-05 0.0655727852925634 0.01403783216070431
0.164 -0.20093920132446372 0.1126033545723813 6.113293650726008e-06 -7.24340723584291e-05 7.074844794913015e-05 0.0001459893376532501 0.06692452463985082 0.008715351545115796
0.165 -0.1942690755831273 0.12778543081428426 2.980109793054048e-05 -0.00015679189801499796 -3.373585164894521e-05 3.323360734509603e-05 0.06790192049350396 0.002378719200492286
0.166 -0.18578667920128308 0.14099580960351824 -4.4722624057340136e-05 -1.1344902019864019e-06 0.00016901390625625933 -4.299129277158064e-06 0.06818833931159136 -0.0030468907653416724
0.167 -0.1749468773177974 0.15503526717687946 1.1620211358132354e-06 8.564399173017868e-05 -2.740366911515677e-05 1.220985525197072e-05 0.068104144220361 -0.009249651432696886
0.168 -0.16475324164770475 0.16792871057933714 0.00010449368501353917 1.6799473141015722e-05 7.218176535582396e-05 -9.09038223068176e-05 0.06755631369611757 -0.015109209162206502
0.169 -0.1536672445472748 0.18016981265479717 7.10388512957229e-05 -6.409533630294853e-05 -1.3492180573437083e-05 9.612780263983692e-06 0.06637802796394604 -0.020953791199094823
0.17 -0.14036843163182017 0.19064678492149567 4.2534011048059145e-05 3.3024594517308295e-06 1.3727887830999922e-05 -0.00011353200953852127 0.0647150090549449 -0.02664186348920204
0.171 -0.12621955276417982 0.20276170317242542 4.333450069421088e-06 3.7988149455547076e-05 0.0001325852974823852 -2.500474306715008e-05 0.06244917210296985 -0.032168824267550064
0.172 -0.11264454281063872 0.21147082775159048 -4.09544956166342e-06 3.763234369820205e-05 6.20896100761135e-05 -0.0001430629751166517 0.05985549768654861 -0.03751544580525141
0.173 -0.09995712205383432 0.22001127236161822 -1.6809273770729432e-05 -3.433925119533179e-05 -7.994409697631423e-05 -3.5724099744944304e-05 0.056812795379523245 -0.04277205227133112
0.174 -0.084812721443849 0.22703065067413164 2.6096966654394217e-05 -9.634348991792575e-05 -3.668326907054622e-06 -6.483556840002546e-05 0.05332927436721076 -0.04762433231275667
0.175 -0.06699919285132325 0.23468016912919104 -2.113173090142268e-06 -4.0854660863501786e-05 9.499256467205842e-06 5.075117351683882e-05 0.04943970339466263 -0.052308873735473105
0.176 -0.052639333741803525 0.23874987173306247 1.6139627912850452e-06 4.1952987964667115e-05 3.160178466523061e-05 6.516495637017968e-05 0.044585953476157764 -0.05666817955736486
0.177 -0.03510307492749374 0.242567495118441 -8.690582705230702e-05 -1.586202629431309e-05 8.587430931097126e-05 -9.479964213414753e-05 0.04058178830518741 -0.06062303382541989
0.178 -0.01692180709896623 0.24535832503547797 1.766809640631153e-05 6.522620389307953e-05 4.514453417760622e-05 -6.800430017117274e-05 0.03493084635882321 -0.06384589086766547
0.179 -0.0013880656192543515 0.24828713561908647 1.1719359659052068e-05 -5.823218493023123e-05 2.883049705108063e-05 1.0668523560728158e-05 0.029851802655885933 -0.06679072909559562
0.18 0.015971035439131864 0.2488700814661128 -5.767044207428643e-05 -7.200802227772381e-06 0.00011443156796158071 2.5790726957120974e-05 0.02432327062707069 -0.06933207835983952
0.181 0.034224484513232435 0.2483086368383254 6.38871445750707e-05 -2.1989582293518097e-05 -3.9006764022393736e-06 4.951962967294289e-05 0.01826129497377013 -0.07125210209822017
0.182 0.05149052947294917 0.2463705681974301 8.64063601907807e-05 -4.845762119326781e-05 -4.4686662236140266e-05 8.383644392561038e-05 0.012672326792324494 -0.07321019416214071
0.183 0.067270451467899 0.24347158404055932 8.216142535293507e-06 -8.625236286006528e-05 2.0331013499085963e-05 -0.00012478348123350335 0.006606541219075534 -0.07434540602248199
0.184 0.08632065407973483 0.23837692608963126 5.6166881484579364e-05 4.1567232284494716e-05 5.8492748918444555e-05 -9.145706731813719e-05 0.00021411473815397962 -0.07477538924920338
0.185 0.10209992123934555 0.23350652733888574 1.7081714286740003e-05 3.4289885734850044e-05 0.00011982643667239487 1.9675337392814274e-06 -0.006202259829151837 -0.07488932783167772
0.186 0.11976195829065478 0.22544337960458194 5.214546555149069e-05 1.326502374880319e-05 3.5867977328585087e-05 -0.00011303275701800943 -0.012541754445409906 -0.07447859424202939
0.187 0.13451945227246614 0.22120486103762574 -0.0001518450001198569 7.465014849502727e-05 -1.7075677000179703e-05 -5.723076095384327e-05 -0.018382037402054754 -0.07317351270547573
0.188 0.1489783674730501 0.21162495775063284 -8.876807395508786e-05 4.1850946400181145e-05 -1.7606560195139253e-05 -5.350393603377003e-05 -0.0245300163353307 -0.0719246213498302
0.189 0.16605779153034816 0.19999538080760332 -5.313211579668605e-05 3.051184578938344e-05 6.921658446985132e-05 -1.9658076622694396e-05 -0.030295319828428237 -0.06971345426136771
0.19 0.17962744841730754 0.19025966338754177 -8.30225577489623e-06 -0.00010959695601961755 1.869425772951225e-05 -3.826929306772808e-05 -0.036932688609004 -0.06781192639374811
0.191 0.19336705032681373 0.17849012674831105 -1.0838273644983899e-05 5.6854125187282756e-05 7.109472978457076e-06 1.3354689421843425e-06 -0.04249328536278473 -0.06449610461629537
0.192 0.206598933780959 0.1656395593102606 5.939243124151632e-05 -1.6179185500166828e-05 -0.00010735354162368824 -2.8922242567329618e-05 -0.047033151763874764 -0.06082121513651549
0.193 0.21910115171694114 0.15191844756511247 6.907872818571544e-06 -1.9240019409803055e-05 1.216212452445966e-05 7.483903734873e-05 -0.05269929901592828 -0.057275563812660274
0.194 0.23043394569887224 0.13812746912605656 -7.770771276594272e-05 -0.00012553600751044657 -1.8452118349744e-05 6.0679525361685565e-05 -0.057603995994660984 -0.05290005042932036
0.195 0.2387108950440737 0.12099446751918595 -2.577571088478742e-05 -2.3477231284829527e-05 -3.856975122769182e-05 -5.028637094202937e-05 -0.061849590351105856 -0.04837654413537526
0.196 0.24945595864252196 0.10513590648571208 -1.6985562508260065e-05 -0.0001002833009434125 8.183028574165065e-06 2.0645760746930264e-05 -0.06556288658796726 -0.04279343107840731
0.197 0.2576774605429464 0.08829337671961858 1.6305364723187792e-05 -4.108114846583151e-05 3.8775460306797094e-05 6.106721412307327e-05 -0.06917262054931844 -0.03749662866628258
0.198 0.2656921219269701 0.0696047763432784 -3.3411919022117924e-05 2.891680397462205e-05 -7.3963649053749e-05 5.413940312910985e-05 -0.07278143040616696 -0.03236871330625037
0.199 0.27031762533714215 0.052214579536548116 -6.369922593320136e-06 -8.003062904354787e-05 -4.700662844832429e-06 -6.669980132100871e-05 -0.07505185398850606 -0.025865321749692704
0.2 0.27507461338308925 0.032541775209421676 -2.0706450341174053e-06 -8.482063097830147e-06 -6.778042267500022e-05 -6.935115853813236e-05 -0.07752840621447281 -0.02006148786905352
0.201 0.2772601135678166 0.01316796752313574 -3.209245185909659e-05 -9.240436815460305e-05 -8.0706348324953e-05 -4.380572408150669e-05 -0.07921028743197403 -0.013410749193245902
0.202 0.2792125333533961 -0.006211470982954389 1.871900502204809e-05 -1.1734230704170614e-05 6.765629816595759e-05 -4.6366574311913133e-05 -0.08020373377643406 -0.006873682200468198
0.203 0.2798825212809052 -0.025941302909208656 4.516132672256901e-05 4.423790672670676e-05 -1.1696190089206702e-05 3.946591411731113e-05 -0.08096612979159963 -0.00036432388904119207
0.204 0.2786983169759926 -0.04525481815052517 -0.00012280317853668698 -2.7136984185319744e-05 7.249075259802153e-05 3.4643071543938634e-05 -0.08091991280805928 0.0062575262578377635
0.205 0.27692915295412385 -0.06599078940404567 8.005593707989646e-05 -8.225953079950996e-06 2.1022489213849074e-05 -0.00011558073984000876 -0.08043934047987795 0.012751583523018506
0.206 0.2725913363804433 -0.08597325888059448 0.0001751689787109966 1.698136686565296e-05 7.918239925124748e-05 -8.595247966098908e-05 -0.07952477837498557 0.019459589466492934
0.207 0.26694883705930184 -0.10514868747535538 8.223761747447757e-05 4.3143892536674685e-05 0.00015782096958890643 4.3576498047243344e-05 -0.07792099449237973 0.025859516363693102
0.208 0.2603276235252053 -0.12490599976910999 -6.285640061172795e-05 4.3149549648757684e-05 -0.00011516209552889487 -3.662146004719306e-05 -0.07582335560374959 0.03236828883744633
0.209 0.25151566850580753 -0.14243656885691472 -2.524111800714635e-06 -0.00021523992444481366 4.518200471421708e-05 4.4853601496825186e-05 -0.07315995793537991 0.038631533425479876
0.21 0.24088619333398945 -0.1606107871149752 4.600989984184808e-05 -6.70541340519514e-07 4.761818856984145e-05 -2.760503340679552e-05 -0.07017571514783282 0.04472031459918491
0.211 0.23031486241845303 -0.17811543119908396 6.765156304269154e-05 6.627007375585867e-06 4.3777947004355576e-06 7.545925720023956e-05 -0.06666380440666078 0.050135091049717084
0.212 0.21805702047159325 -0.19391667328770867 -3.51805739991948e-05 -9.958415741923925e-05 6.857871563945455e-05 -2.8690119707572842e-05 -0.06260163414815417 0.0560430156275174
0.213 0.2045668567783862 -0.2117629387696328 -3.883753998272295e-05 -7.32595331362038e-05 3.2438083388547136e-05 -5.090610267444165e-05 -0.05794945477890364 0.0614508051413719
0.214 0.1909243355041756 -0.2259815628271183 -2.0124877158911504e-05 -4.1556533327677465e-05 2.5086719094290136e-05 -4.2416685307759686e-05 -0.05319638171796841 0.0664853565623909
0.215 0.17320514798822126 -0.24009620227154546 9.370234785273447e-05 -0.0001247980379629197 -7.06405416291327e-05 -2.2450369533521444e-06 -0.04716772595720361 0.07107300218921073
0.216 0.15747517317774837 -0.25463220291800964 1.0970507330543346e-06 -1.3549336982543254e-06 4.576041747100128e-05 -4.585098135932402e-05 -0.041596419145841126 0.07498163538930788
0.217 0.14011779007063682 -0.2642181389908564 5.257402766820058e-05 -5.379237225014139e-05 -2.8002064057083572e-05 1.91205798324124e-06 -0.03488684458371999 0.07829966250335806
0.218 0.11887146849964197 -0.27338566090793104 5.474120861939908e-06 5.921992909588615e-05 4.3501721268997106e-05 1.839979212503808e-05 -0.0289053954589256 0.08167940689690233
0.219 0.10134659272125592 -0.28526648935763993 0.00010047043677472037 -6.652456069723696e-05 1.8512123300858183e-05 -4.164001647878992e-05 -0.022465370952495047 0.08420923067086643
0.22 0.07885643395850075 -0.2898649527136355 2.7057475271194943e-05 -6.571501441146665e-05 9.927413658041623e-05 -9.647800575324542e-05 -0.01467756042026978 0.08590958411214508
0.221 0.0593337464936111 -0.29389029708346653 -2.0774200974400954e-05 -7.387177307347812e-05 5.2302837456870284e-05 -6.487752112715553e-05 -0.008034106280424225 0.08743454749292752
0.222 0.039013767776078546 -0.3001330370879221 -4.140035688312965e-05 -5.932360731068086e-05 -3.2858278146609216e-05 3.5604278397691266e-05 -0.00023494982825152425 0.08836333510670051
0.223 0.018097502596864278 -0.3037062683805093 -5.094919102882807e-05 6.227199713969719e-05 -8.253578805709066e-05 -7.542333681735553e-05 0.006671691272678635 0.0888765268814663
0.224 -0.0053425770503390925 -0.304884834527261 7.628501452840676e-05 6.101564108458523e-06 5.1343452519562206e-05 3.407165375373236e-05 0.014134069069013627 0.0881880413576326
0.225 -0.02756744918519697 -0.3045715997947992 -6.675156584882591e-05 2.610506925361193e-05 0.00011946049788693396 -9.84619569939963e-05 0.021876727355437744 0.08665967625351902
0.226 -0.05074479646272007 -0.302985149238373 1.446456802014435e-05 -1.752743804552077e-05 3.6771923973897994e-05 2.232747403994156e-05 0.028879035166242455 0.08543833694416875
0.227 -0.06719934600185823 -0.29992175278562677 -0.00011115337650266502 1.5111874011140405e-05 4.377259045638187e-05 -9.601548695945318e-05 0.03640493511383153 0.08281307545973657
0.228 -0.09032507049563554 -0.2923010134526105 -7.3498516107143e-05 3.4639651760356024e-05 0.00016132379243624463 -1.1865400866450381e-05 0.043494902340415156 0.07964088380882785
0.229 -0.11169224171480366 -0.288146230190014 -5.8855006770320434e-05 7.143651529466601e-05 2.1115931913953938e-05 4.834141069873242e-07 0.05022122021413025 0.075932213254444
0.23 -0.1304376418398224 -0.27813855651151326 0.0001331313867915219 9.113163475726259e-05 -3.6433757550016707e-06 5.309090499756572e-05 0.0571763457892521 0.07146454820120296
0.231 -0.15095185645625186 -0.2699755136794215 -1.842281976240794e-05 -2.165391756368158e-05 1.583786514476498e-05 2.9091629264928918e-05 0.06234906894862485 0.06734284117422974
0.232 -0.16901747928736138 -0.2587937912795411 4.3686747523210115e-05 2.2416490769331804e-06 -4.23581397383495e-05 -7.046998362109792e-07 0.06821696065671962 0.061824013645488674
0.233 -0.18871178821682455 -0.2475725376007898 3.1253792986570153e-05 -0.00013669245884581486 5.778851149267351e-05 -8.494224573954571e-05 0.07349471359861146 0.05606481619398861
0.234 -0.2020943492096456 -0.2332526796323333 6.245349019790503e-05 -0.00013209340840617448 -1.341782282112224e-05 1.1431455675648083e-05 0.07834179786585434 0.04993551451676548
0.235 -0.22258102802004504 -0.21932715165981276 -1.8649539810541167e-05 1.1695999589710306e-05 -1.2642035728219554e-05 2.021308272384193e-05 0.08285827108192474 0.043251822794438594
0.236 -0.2377741220574951 -0.20369586151563038 2.770332927036547e-05 5.439834751858162e-05 -8.935930910584371e-06 7.621144073353549e-05 0.08630533272268175 0.03676819088171695
0.237 -0.2508473825008992 -0.18774318564854445 5.4518908741279785e-05 -9.740502851825021e-05 -2.99706235538292e-05 -2.4235919056505512e-05 0.08936603931435261 0.028784398258269842
0.238 -0.26430760782873314 -0.17097803545468698 8.203309488596142e-06 7.861637672798596e-05 0.00011711527663100027 -3.8749448170916846e-05 0.09165438906311471 0.02121685850545337
0.239 -0.27579868388967765 -0.15111269772566274 6.371661354498035e-05 -3.334979908311349e-05 -6.917349546679283e-05 -8.708480320737402e-05 0.0931991344104458 0.013404581825357635
