!Created with skrf (http://scikit-rf.org).
# GHz S RI R 50.0 
!freq ReS11 ImS11 ReS21 ImS21 ReS12 ImS12 ReS22 ImS22
0.13 -0.15401673226286838 0.09912628054894147 0.001965986768779653 0.00048384498622023063 3.120913071013928e-05 0.00011534095681740018 0.03549744489031309 0.039990519951671376
0.131 -0.1450860974765155 0.11332182719477195 0.0019505744052816432 0.000345293104650963 -7.398760525845762e-07 -2.9890024159233228e-05 0.03928813858809532 0.03674961814505424
0.132 -0.13595117813516783 0.12795999958367252 0.002138123075719288 -3.290348922736118e-05 7.041990778375658e-05 1.1037792869206551e-05 0.04308703738335068 0.0328732266436515
0.133 -0.12472044268063295 0.14004465787978632 0.002107944938745872 -0.00015747830668986473 2.171595287167944e-05 7.015629529137718e-05 0.0466986945869993 0.02836796516211676
0.134 -0.11242265213523872 0.1521690280180764 0.0019032752482637547 -0.0005136335598728491 -4.307153454804911e-08 -3.529216908503574e-06 0.04948454578910922 0.02379162386402768
0.135 -0.09880285122804305 0.16312281886620966 0.0019803808656698703 -0.0005977943779169356 -7.685902066998291e-05 2.9539492284553646e-05 0.05219632158760961 0.018744411764997818
0.136 -0.08467006364611694 0.17273174590356263 0.0021566665299010443 -0.0008372855689014016 4.761338339772027e-05 -5.245775616290921e-05 0.054220792671614566 0.013553614050505465
0.137 -0.06881294438975794 0.18036561979853324 0.0019529873128634589 -0.0010993293620818842 7.829399105867821e-06 3.3240111158786305e-05 0.05589947451205683 0.00791834963217615
0.138 -0.054011846785866305 0.18658403313187405 0.0016581485002004918 -0.0012424294095997079 -3.553198394926019e-05 -2.4030120978716914e-05 0.05650980109492643 0.002394658812866408
0.139 -0.03634496032475062 0.19100800926688752 0.001654441134807974 -0.0014849745772112161 -5.506092268829878e-05 6.60751791346936e-05 0.05698304141933995 -0.0033788619119208313
0.14 -0.01893053678509339 0.1946535450934619 0.001443845224476188 -0.0014504556076445085 -4.2551367431085327e-05 -1.0868454793680282e-05 0.05687878771233448 -0.00925434251434755
0.141 -0.002049265780071634 0.1977432879945522 0.0014510947510322637 -0.001857969239574594 5.61351531768444e-05 -3.1585499139770796e-06 0.056083195565321736 -0.014990570115150733
0.142 0.01648770388032118 0.1977697255915879 0.0011382483841932964 -0.0017502659730880723 2.0547379468011424e-05 -3.7253923426436686e-05 0.05464916471367039 -0.020772914402098303
0.143 0.032826982938383646 0.1967430657676244 0.0007884021384012669 -0.002048012897103924 -0.00017122288159399416 -0.00011702626200546112 0.052538894524423424 -0.02613346038944981
0.144 0.05078175421329223 0.1940103546294937 0.0008494682037732002 -0.0020979763016705866 0.000111951115258729 -3.370386640793461e-05 0.04993021851463975 -0.03156790912208928
0.145 0.06796637046648725 0.19048535936173927 0.0004458896575939281 -0.002178689538944196 8.406316530338772e-05 -2.277438827870241e-05 0.04678562294900024 -0.036751105140655056
0.146 0.08497484489025701 0.18369844784272424 0.0003438409873646633 -0.002326730324269113 6.394387568891344e-05 2.2685425053942517e-05 0.043073280345794475 -0.04142829077032851
0.147 0.10146228563135237 0.1769197242782086 5.225639926971885e-05 -0.00217708823964077 0.00010400095612037391 -8.077025911332593e-05 0.03894986955658848 -0.04592366656873972
0.148 0.11672346398428234 0.1681093036551246 -0.0001588967735480453 -0.0022634591269965615 -0.00014720787612720532 4.279831644702377e-05 0.034189799996404355 -0.04975010071720747
0.149 0.13273874077900358 0.15819187119980913 -0.00027752212233362635 -0.001968828462976857 -1.379114281311138e-05 9.141685894577655e-06 0.029302065950849315 -0.053195405148144595
0.15 0.14592013703499981 0.1459599360063053 -0.0006816946795511631 -0.0021833209083971876 4.19500415552955e-05 -1.666596108947537e-05 0.02438234853116628 -0.05616978826633965
0.151 0.157452224355576 0.1343099061167083 -0.0008175767050368715 -0.00210792383330731 -4.8054439619544284e-05 4.1761584621313235e-05 0.018289767723369238 -0.058564143229183005
0.152 0.17206233106822785 0.1197117378808352 -0.0011325765185775643 -0.0019448021834875737 -6.352099871749484e-05 -5.496278965146383e-06 0.01227930154330938 -0.06041794502527789
0.153 0.1813693556544614 0.10480434411758008 -0.0013422061967375326 -0.0017601044779139972 4.110617727804093e-05 -5.362736780542552e-05 0.006460857562207131 -0.06143066543053401
0.154 0.19108167788603966 0.0891821626782255 -0.0013482854069674529 -0.0018076287993813661 3.16984542760218e-05 0.00014321350232283865 0.00015266763680679677 -0.06220226626180976
0.155 0.1992947824575916 0.07341569003548032 -0.0015763097646774478 -0.0014627160039591225 -5.512458303446139e-06 9.156203535998334e-05 -0.005760552545773097 -0.062272272008823806
0.156 0.20611177260295618 0.0554779476478881 -0.001983705162208377 -0.0013118191694037036 6.670083565773391e-06 -2.293056646795181e-05 -0.011670071280009901 -0.061905526362783264
0.157 0.21047963981989606 0.03739442793696295 -0.0018904866698260284 -0.0011727224694368424 6.225938508661359e-05 -8.321555786335516e-05 -0.018273135926552254 -0.06022367521278662
0.158 0.21434180985651038 0.018706463656836755 -0.001969864944425191 -0.0009591054121245234 -6.583471037303932e-06 2.8208876496721887e-05 -0.023904565375373967 -0.05892285060667709
0.159 0.21632365767565406 0.0002903569673527374 -0.0020766573189006446 -0.0007424011086564135 3.4179685205063024e-05 -3.4432285012213915e-05 -0.029561430476204045 -0.05591845396329076
0.16 0.2165318977488338 -0.018076957262644928 -0.002186948200728498 -0.0005824767203699695 0.0001563235251515459 4.1698342136607395e-05 -0.03478996021992277 -0.0532850674140576
0.161 0.21464085932919635 -0.037652739872876116 -0.002157841655588642 -0.00025271261314981737 -1.2407942400547302e-05 5.488736542959986e-05 -0.04031819733865837 -0.04967792753597871
0.162 0.21220191015884823 -0.056655863241877165 -0.002345272557711746 -7.261482572946424e-05 3.54843388943735e-05 1.498232994290051e-05 -0.04506411735904453 -0.04617135915098381
0.163 0.2076517506957783 -0.07555500848502314 -0.0024044426012727396 0.00018725454935063042 -8.56493735054195e-06 -0.00012813226674250865 -0.04998556985900189 -0.040930928941043006
0.164 0.20121709756323755 -0.09322434628868255 -0.002277048124481908 0.000400864776281815 -4.969368263195227e-05 -2.9089568511479665e-05 -0.05408087285478197 -0.03631729456658604
0.165 0.19347847318005282 -0.11262128805626848 -0.0025237368464352196 0.0005855509956703875 1.1563585833023303e-05 -9.349273814703898e-05 -0.05754063939854364 -0.030735940518979467
0.166 0.18329630328432722 -0.12900771232506658 -0.002195093151734218 0.0008653617654843308 4.97905898455786e-05 1.4288243580901672e-05 -0.060607355470422064 -0.02558012698255815
0.167 0.1719290713315438 -0.14637566728877716 -0.0020671409276628574 0.0011114414720792179 -4.961004199305754e-05 -2.1659595744920213e-05 -0.06297508647855343 -0.019591949713146393
0.168 0.16062877872037232 -0.16221353997510907 -0.0018680322084681897 0.0013502122847938824 5.671790082781965e-05 2.3546572444848303e-05 -0.06478208535746342 -0.013253671963833012
0.169 0.14598025402434253 -0.17579016694207036 -0.0018922799869747105 0.0014462667409582339 7.085392077047918e-05 2.4640368989985317e-05 -0.06616625322012842 -0.006708162003291339
0.17 0.1295138296037842 -0.1887882574897374 -0.001742035668242613 0.0017401364377926797 2.2342760932262574e-05 6.468744986632624e-05 -0.0667034683589058 -0.0002091920010093548
0.171 0.11299783462226604 -0.2006475856470391 -0.0015656760159177047 0.0018872268261829156 -2.7070684822358672e-05 4.2891478362370846e-05 -0.06676786161654545 0.006318769550269875
0.172 0.09559045159239897 -0.21216430626907454 -0.0012202511181879125 0.002011529991966227 -5.131416254264428e-05 -7.419565274264787e-05 -0.06603820038223643 0.012845870841403768
0.173 0.07716062613134883 -0.22109937698362556 -0.0010707529186941278 0.002304846688778462 4.9333897877373746e-05 6.075152613177102e-06 -0.06495224812672856 0.019451860286331415
0.174 0.056670900364606494 -0.2282223382918385 -0.0009591429712690623 0.0023097835951556922 8.487579842109664e-05 2.3446251451794664e-05 -0.06297641370326926 0.025914821856998414
0.175 0.03593005101321941 -0.2324923953690813 -0.0006763992453730599 0.0024910394473051252 6.301129007238426e-06 -4.587839367702863e-05 -0.0604385260087681 0.03203010196860855
0.176 0.014200528034029049 -0.23694820798516053 -0.00034662745105420507 0.002502269818044402 -4.1038044797192956e-05 5.7046442080265714e-05 -0.05741626528299859 0.037991739260930066
0.177 -0.005468005996763959 -0.23937084322841923 -0.00021683522168924202 0.002554648359821418 6.389324890683391e-05 3.752899671467416e-05 -0.053569887327903125 0.04353749229281131
0.178 -0.028439105740373328 -0.23668562512664362 0.00011356458009488445 0.0024442530879341664 -0.00014764550534632798 -1.5172226294602619e-05 -0.04940825579508306 0.04884556361729911
0.179 -0.049398978787830984 -0.2361217896524205 0.0002908976840263733 0.002589267873257976 2.7865145272392113e-05 -1.1086247441206964e-05 -0.04464585807899367 0.05360642817354672
0.18 -0.07088592150402198 -0.2314059176551237 0.0007013835677917388 0.00241368669155597 -4.783568298925543e-05 4.889084761198768e-05 -0.03934186907320843 0.05839539637718595
0.181 -0.09155483921638369 -0.22611780185067093 0.0009152438675340964 0.0024741219936162814 3.5746770156309447e-06 -9.669463715524705e-05 -0.03358027835840873 0.06243466924012617
0.182 -0.1138632466227525 -0.21785818084333372 0.0012775447546698744 0.002261829084249532 -8.133781622165921e-06 -5.260745627466047e-05 -0.027036549051593473 0.06558796951434255
0.183 -0.13289620571861013 -0.20688919554896057 0.001602058362469963 0.0021378062000887033 -5.8757254465887726e-05 -0.0001180704822008296 -0.02070395563611009 0.06841968294460848
0.184 -0.1515506046999193 -0.1940577269801946 0.001623926239721377 0.002065872809031013 0.00015528586432886083 3.4178994027527015e-05 -0.014058437068448221 0.07060106525120408
0.185 -0.169744306137226 -0.1813828060761819 0.0018301133007114871 0.0017697327376041492 6.170054758479375e-05 -6.121450677365818e-05 -0.006629236409941798 0.07182300671674542
0.186 -0.18661739874827732 -0.16528666938619876 0.0021010941367392666 0.001826327525982783 -2.104557173396407e-05 3.8056593185861543e-06 0.0007586485359883616 0.0727270612727804
0.187 -0.201155597233976 -0.14825389822592105 0.002328866123700732 0.00139624633988173 -0.00014335096206248845 -9.409684299408235e-05 0.007791708518685861 0.07251579487349287
0.188 -0.21568157933463272 -0.12875544901398164 0.0023120975343210327 0.0010757988334259936 -0.00010455247262868144 2.930225106654678e-05 0.014731384291249072 0.07190507175264994
0.189 -0.22632473413570153 -0.11015683153349144 0.002497485369340508 0.0009716110047747116 1.3600897231837833e-05 -2.135234453765153e-05 0.02230732582790323 0.0703149477710443
0.19 -0.23582839126290803 -0.08993622105853927 0.0027188458696692373 0.0006504830322966896 7.834418506061109e-05 4.947631685294176e-05 0.029209894476820694 0.06851529057468975
0.191 -0.24394159376126187 -0.06797348611251938 0.0026934030664882763 0.00024475784524612164 3.5112309179651016e-05 -2.564768672644044e-06 0.036249750850566316 0.0650611274373207
0.192 -0.2502652357943624 -0.04581939790073609 0.0026500465241440095 0.000106065890326298 7.3068336066529745e-06 1.0332203430625659e-05 0.04251397202880971 0.06173640797858801
0.193 -0.2536900253551412 -0.02299692076888658 0.002812441921483468 -6.0882120689007546e-05 8.568699664944279e-05 5.221820684253886e-05 0.04935368905855835 0.057045362717890104
0.194 -0.255981359645065 -0.00020942430685888405 0.0026094979111082146 -0.0003775645159466353 -4.115575427369288e-05 5.8580785339325585e-05 0.055045575328161164 0.05213653733872326
0.195 -0.2553448182794831 0.022304693558866894 0.002821271020666682 -0.000807997775152094 1.5153185863631683e-05 5.771561954240191e-05 0.0605792518465028 0.04680975223992776
0.196 -0.25406949011773333 0.04562133383841629 0.0025631372157242345 -0.0009685388300941267 2.007934890439653e-05 -4.434823544213673e-05 0.06482039066303466 0.04034622000827657
0.197 -0.2493323574752103 0.06793927969553298 0.00242039602583798 -0.0013542949250370138 5.471714795650337e-05 -7.828609718235609e-05 0.06906360824553319 0.034115494094437405
0.198 -0.24407583020505763 0.09102868523384025 0.0024007764433870826 -0.0016002440339807275 3.2722309909175805e-05 -8.545342812170273e-05 0.07243315485696053 0.02692134834682033
0.199 -0.2347777588074058 0.113638215464803 0.002197308196945376 -0.001666502238387423 0.00013169722041553845 -5.498783561357545e-05 0.07534932678955049 0.019437342673556922
0.2 -0.22535633497036084 0.13299348637645797 0.001873682279988857 -0.0020212633208796507 2.007194872722267e-05 -4.081757439646231e-05 0.07721994814406824 0.011982313201717849
0.201 -0.2131069203030376 0.15323863030294135 0.0018538412790699659 -0.002228383744196949 -8.347332138226143e-05 4.215969442440054e-05 0.0781756790508979 0.003917495993165771
0.202 -0.2002373672663418 0.172107837055094 0.0015771624872360772 -0.0022870944207905664 0.0001980599123850749 6.451782207496963e-05 0.07854086201938372 -0.00409635282798409
0.203 -0.18336326828872979 0.1898782227486927 0.001118121382886568 -0.002662344186906313 -1.2483156567316689e-05 0.0001023013517941211 0.07809983618605722 -0.012008450614283525
0.204 -0.16773181555355554 0.20575115625442283 0.0008614126165490324 -0.0026249462920743803 2.4445913778139327e-05 -8.6882696836269e-05 0.07675812061840384 -0.020052819639091623
0.205 -0.1499509697851772 0.22214806932148756 0.0006930220705808936 -0.0029476630342320136 2.0593632958883817e-05 -2.159918681620675e-05 0.07468892308042592 -0.027519493092726013
0.206 -0.1314676627001451 0.23336959342172484 0.00037099667143467734 -0.003036929531828577 9.042532305371131e-05 -8.048643562644911e-05 0.0718166661884932 -0.03540693045260954
0.207 -0.10840120451919676 0.24558794957227678 0.00020758177887896705 -0.0027754273053331377 -1.2603645415652703e-05 5.2991096059087e-05 0.06794561796103613 -0.04264415653417905
0.208 -0.08844484827893917 0.25578565535511416 -0.00019971534269261308 -0.002828350574795821 5.6523273833191075e-05 8.784597901899317e-06 0.06336822267823516 -0.04918942407896481
0.209 -0.06516989542073262 0.26321619881801706 -0.00041513365003504514 -0.002790737996493688 -5.052730929292387e-05 -5.838177580006037e-05 0.05870578049315943 -0.05575536321974539
0.21 -0.0426573439517944 0.269209080111875 -0.0006414705189171572 -0.002742660281996436 -4.9184166801553136e-05 -5.807729402106765e-06 0.05246334325398525 -0.06127425856858372
0.211 -0.020718206316973457 0.27424292927517524 -0.0011011378131454345 -0.002575545850943921 5.457170167523303e-05 -6.0970680513814144e-05 0.0466344587626388 -0.06699385619713749
0.212 0.005965111303489358 0.27509707804377437 -0.0013315141159907424 -0.0026991156703051297 8.362085714313195e-05 -1.744372452777397e-05 0.040118717387146174 -0.07099991952770876
0.213 0.031124679144714017 0.2760217031667124 -0.0015059520830873147 -0.002455986803165999 -2.2530236049329527e-05 -5.9150855116823895e-05 0.03248180931047596 -0.07501051650143449
0.214 0.05458285972712491 0.2747981982020626 -0.0017294005757192033 -0.002403671110169283 -6.230229543543733e-05 4.177667956933713e-05 0.025065376010625508 -0.07848846963858352
0.215 0.07672177420807384 0.27055159703094084 -0.001885689223859011 -0.002205421544592761 -4.985477790073558e-05 -3.2337425942976215e-05 0.017145183297111146 -0.08087862959815607
0.216 0.10282624027181643 0.26377817700158 -0.002258661017774683 -0.0018634487545873726 2.9116960809208755e-05 3.064100998447585e-05 0.00847013563982521 -0.08209518069357816
0.217 0.12552538682283837 0.2564327197172887 -0.002548351432696869 -0.0016982341736559866 7.518135396075218e-06 1.558127806315753e-05 0.0006733466272659307 -0.08299363694446538
0.218 0.14747156048626323 0.24653669289529037 -0.002484643531328796 -0.0013433541795511528 2.9643672634807615e-05 5.9152718866263254e-05 -0.0074631922690290495 -0.0828324932589871
0.219 0.17144848506496457 0.2316662960729909 -0.0027791353296277195 -0.0010304465287057452 -4.7294148071915526e-05 6.455644089441395e-05 -0.016000348441037825 -0.08204584835472853
0.22 0.19147872904909355 0.21732137022773448 -0.0027262624504303433 -0.000744063246657922 -3.495770567056311e-05 4.534396953462642e-06 -0.024425729354384775 -0.08016655093026606
0.221 0.2114006141228354 0.2001328790502976 -0.0027903351943349176 -0.0006799685539118071 0.00010948986107094845 -9.454428979901262e-05 -0.032121095690999635 -0.07802823746647278
0.222 0.23051520169789594 0.18216990117699158 -0.003032169617651896 -0.00033667981725505095 -5.057710012468995e-05 -5.13834745034408e-05 -0.039970027140862424 -0.07452182479993207
0.223 0.24695263523551592 0.162282642210806 -0.00313173306721385 0.0001619862679867995 6.263881753309437e-05 -2.2639198943161574e-05 -0.047527018737135635 -0.07077351680966606
0.224 0.26141330284633624 0.14080139393295463 -0.002920223308191815 0.00038810104937901527 9.588409539407035e-05 -7.707880112368197e-05 -0.054247498288300125 -0.06624799840901964
0.225 0.274080000925367 0.1177263935085616 -0.0029465289450983033 0.0006709561534987064 -8.482478426857634e-05 -1.8635388538315694e-05 -0.060414097708197105 -0.0608439836645081
0.226 0.28535494877112183 0.09328775397989764 -0.002771841024173527 0.0010212981627374538 -5.6565380982965815e-05 -9.172674266390935e-06 -0.06598541517151421 -0.05456060940236078
0.227 0.29398251941993025 0.06826188195929447 -0.0027678819507321113 0.0013453174194479678 1.9367744448657073e-05 -5.331420318848841e-05 -0.07200039768577177 -0.04808073144349032
0.228 0.2996625486730319 0.04159801339703356 -0.002555547909495056 0.001538375083494629 -6.0514630434388847e-05 0.00011722141715383357 -0.07634853518053766 -0.04133263830387521
0.229 0.30327770244658175 0.015029916569679622 -0.0024018657405832766 0.0018897637969332883 4.190632095613556e-05 -1.1667431289048132e-05 -0.08024441375063981 -0.03346930036283429
0.23 0.3050354168229106 -0.012282342372107742 -0.0021147119062119735 0.0020533280145307773 -4.753433299740394e-05 4.397635881470171e-05 -0.08365088889812522 -0.025449972513199876
0.231 0.30438026200094936 -0.03960278678926808 -0.0019298474926393331 0.0024452555403122913 -5.759834279071198e-06 3.886616069910637e-05 -0.0858959511481503 -0.017061417008273082
0.232 0.2994259598469091 -0.06591278918339279 -0.0017621406765288138 0.0024948146157745357 3.084728105443742e-05 -0.00013084377001867798 -0.08773096899678963 -0.00893072469719195
0.233 0.295633773805349 -0.0941278480465227 -0.0015058225258192163 0.0026497174262079433 -6.46685546301526e-05 -5.251372531117482e-05 -0.08835909349621389 -0.00036144508766053146
0.234 0.28431784767417617 -0.11763774911932326 -0.0012157807516249251 0.0029031923108140977 5.015838962428096e-05 3.72052979380228e-05 -0.08843470336890291 0.008600492759584851
0.235 0.27591036095075805 -0.14467146230515235 -0.000887302432655017 0.002761553415552998 -9.608978010908742e-05 7.811615611977307e-05 -0.08764403028728883 0.017048676168853288
0.236 0.2610370972332349 -0.16830754276426807 -0.0006624449919120534 0.0029155785066957546 2.4110469694376788e-05 -0.00013767012699129546 -0.08583968961830185 0.025643460083306292
0.237 0.24610036074726468 -0.19124998625715953 -0.00022336442944783676 0.0033110225767986915 4.512435334521385e-05 -0.00014497508736889693 -0.08318279683211545 0.034150206651116115
0.238 0.22903705787672837 -0.21183553999227353 -7.110165555378454e-05 0.003075850867518376 1.2181671191426864e-05 -5.145061512117301e-05 -0.07978072674354916 0.0421136670755584
0.239 0.20801773930709605 -0.23191588867314322 0.0003968110177019 0.0031090300892752712 -0.00014209218463940684 -5.7228748383222054e-05 -0.07539283411694057 0.05012348532646902
0.24 0.18868834226574163 -0.2500607500744941 0.000784110731708736 0.0030191905433029085 -4.2832075212939656e-05 -2.1296979617447983e-05 -0.07074268332642027 0.05749422266364455
