!Created with skrf (http://scikit-rf.org).
# GHz S RI R 50.0 
!freq ReS11 ImS11 ReS21 ImS21 ReS12 ImS12 ReS22 ImS22
0.13 -0.1606462974811063 0.08770659003345621 0.00019132179894425634 -3.211351232735505e-05 1.0197326331932831e-05 -9.92332549109977e-05 0.044940373011932835 0.0274195264311157
0.131 -0.15411934966420102 0.10294886282912373 0.00013223762411602947 -9.952810232668863e-05 6.0398460991888156e-05 -7.90135365834076e-05 0.04778162765437037 0.022763681812249883
0.132 -0.14542182809814566 0.11717047704070062 0.00015612085820334093 -3.639386175446434e-05 2.8108306702785543e-05 7.216935458373903e-06 0.05018602525910261 0.017783356227881797
0.133 -0.13426979633629815 0.1307641670454216 0.00033009948027043354 -7.28828675759814e-06 -1.8874309365616277e-05 -0.00012163537757125559 0.05220727303147267 0.012709039718726901
0.134 -0.12301758068413633 0.14257225289837155 0.00014317697753089993 -4.1019686593657974e-05 -1.581736642781935e-05 -4.0682500992078146e-05 0.053850683474357515 0.007178302397963337
0.135 -0.11097810266656775 0.1545802134600937 7.719853462598875e-05 6.220980374795683e-06 1.699998370390786e-05 3.398926726370877e-05 0.054636170424573804 0.0015757894153249309
0.136 -0.09681923789513752 0.16539621337902466 0.00016526830335423316 -0.0002319316654759211 -1.1055975407629451e-05 0.00016224009949917698 0.05461693186919526 -0.004085417372459591
0.137 -0.08228905173041058 0.17447775537730176 0.00013869802499979087 -0.00018090796330293195 -6.316298813629393e-05 3.696263537895653e-05 0.054511046864040374 -0.009825063773282532
0.138 -0.0674115795567849 0.18249715189734178 0.00015918467654564696 -0.0001298603864264037 1.1058728786766017e-05 -1.9850511918617408e-06 0.053721184077224544 -0.015422139827443435
0.139 -0.05126652077506526 0.18880406276376027 0.00015012643571207763 -0.00014760933582586616 -1.546255667784223e-05 -0.00011332758704475205 0.05205805922203498 -0.02099257899198956
0.14 -0.03454141451592511 0.19380724744822583 0.00012504719924999818 -0.00014037301972157562 -0.00010094707012804381 -0.00010233299253749379 0.050024185919275356 -0.026525099791125595
0.141 -0.017537756870018583 0.19735768112070504 8.062749034292185e-05 -0.00021970283632464295 1.446823992960406e-05 6.44299982378742e-05 0.04730314044918574 -0.03167463253179021
0.142 -0.00039243317570661536 0.19848594017901564 6.597692262029765e-05 -0.00034342022514591655 -8.177140709027279e-05 -9.227353611100843e-05 0.04397749180229592 -0.03647689570451117
0.143 0.017519468207119842 0.1982248023541006 2.563022035700331e-05 -0.0002040250038753525 -4.381136821643671e-05 -0.00016056881683474122 0.040127067219760074 -0.04115788952001696
0.144 0.03609458372594756 0.19921780997559466 -8.628302711996953e-05 4.4513134277490527e-05 9.553451311533772e-06 -2.790231297046512e-06 0.036107978364844716 -0.04525129497946261
0.145 0.05331884598255732 0.1936450406950011 2.7382381238298332e-05 -7.140628743239317e-05 -5.2979212500444415e-05 -1.3025198948433104e-05 0.03140929168574981 -0.049217514759852046
0.146 0.07134894910527578 0.19047505983388177 -3.47472016931446e-05 -0.00019118668202695372 1.499692666433726e-05 -2.3912943799038868e-05 0.026220842445960676 -0.052158258652052626
0.147 0.08731147020479404 0.18519225276666776 -0.00010027878455814815 -0.00018119894782600256 8.286848472939077e-05 5.400035632533401e-05 0.021019801557017517 -0.05483666225178005
0.148 0.10420952847552326 0.1760607234466521 -7.028442093059483e-05 -7.763195948199718e-05 6.86176793688259e-05 -0.00015471358281385946 0.015346780425063268 -0.05701057925162102
0.149 0.11981939286263403 0.16790794052914948 -9.342347213633104e-05 -0.0002992152149179343 4.283624132387414e-05 -8.624309614288705e-06 0.009687790078468895 -0.05813540460162601
0.15 0.1342679373604509 0.1577185369919385 -0.00025198431971945026 -2.045401083234931e-05 -2.263673012940706e-05 0.00014026018170048063 0.003351301011676378 -0.05959250166754632
0.151 0.14943766060209138 0.14610285245202406 -3.355367636689994e-05 -8.492617424291763e-05 0.00010034944234402031 -3.294622177517257e-05 -0.0023069129631328967 -0.059647788881186325
0.152 0.1613193313307396 0.1340283869636446 -3.405604761135662e-05 -0.0001609222909450675 9.781821658004587e-05 -1.863269603383345e-05 -0.008577548771305756 -0.059329215301229705
0.153 0.17281075132582258 0.11954308916469576 -0.00022391898806863497 -5.4016596770140695e-05 -8.824744467613268e-05 4.0129518334803994e-05 -0.014680171596829265 -0.0582525563453886
0.154 0.18390498618658843 0.10384164086639014 -0.00017608145997613538 -0.00012087608621433477 3.1901179553194006e-06 -3.0633177135297976e-05 -0.020746208159082017 -0.05669886477742375
0.155 0.19294821557036823 0.08790376766597834 -0.0002459260042869734 -5.684713674529285e-05 5.763849408024292e-05 -5.62869575694584e-05 -0.02679588858987316 -0.05506352311374751
0.156 0.2009723359023372 0.07178929154553917 -0.00019208374192469622 -0.0001489367015161933 6.257748301375396e-05 4.285145690498505e-05 -0.031731300739737935 -0.052107158201718434
0.157 0.2079421681609543 0.0527596530285539 -0.0002591867189059632 -5.690439246266948e-05 -8.081809732884728e-05 -0.00018112148237772434 -0.03681612044308634 -0.04862862388144899
0.158 0.21242991971400083 0.03499979739269141 -0.0002271951788277372 -4.647488602471385e-06 -1.5182133770571766e-05 3.1718629272329215e-05 -0.04184611114132609 -0.04497271514818684
0.159 0.21583057759932592 0.015899352590830612 -0.0001785847107808086 -7.121985008202308e-05 -6.329052088908115e-05 -3.456535002490079e-05 -0.046664364436823945 -0.0405088910825561
0.16 0.2177029258363927 -0.002729157817402402 -0.00012220504480646777 -0.0001449947034457528 -4.115068492972959e-05 9.707468272630726e-06 -0.05046531956117419 -0.03646582019672306
0.161 0.21695767121282236 -0.021316194260630555 -0.00020626930720077903 5.260629893334423e-06 3.744606472943621e-05 1.2333001675165935e-05 -0.05424142243159859 -0.03118823297760013
0.162 0.21593672472879494 -0.041288645690142144 -0.0001173942046647786 9.148662455719036e-05 -1.952814888401441e-05 0.00014983053380974626 -0.05683644673758809 -0.025193864116654675
0.163 0.21248940475284464 -0.05987543133269411 -0.00032320569321684587 0.00011863641667345176 -2.565137891431123e-06 -0.00012214023704363873 -0.05926890749334136 -0.019660506740467692
0.164 0.20752342461254672 -0.078639771914313 -0.00016065364890650524 0.0001824864693200695 -6.201116184829754e-07 1.570103361025193e-05 -0.06126019022799046 -0.013423397814858703
0.165 0.20148321810115563 -0.09808720177803558 -0.00016060098853318264 9.844653688278698e-05 -3.1361197707428757e-06 -8.963151582311455e-05 -0.0630273610136888 -0.007276838590948807
0.166 0.19243726430918615 -0.11506176666783693 -0.00022710711454766586 7.63679398372442e-05 5.070900545720521e-05 3.543989068494178e-05 -0.06373529175278528 -0.0007561135161812615
0.167 0.1827058703819012 -0.13375491757878433 -8.096111403442608e-05 0.00013407846537913625 -0.00010117380382097719 -9.635177260185954e-05 -0.06372751570025599 0.005592947604027589
0.168 0.17148402501538115 -0.1496032851960754 -7.293544635608753e-05 0.0001919960313887275 -8.610488128671429e-05 -1.4409015489164707e-05 -0.06306410779748656 0.01207112182756806
0.169 0.1591440820036356 -0.1653052301851203 -0.00016962656918695276 0.00012858596058604781 2.1821327708218302e-06 -3.9231859597514436e-05 -0.061908709014284385 0.018485204984393957
0.17 0.14300640547246635 -0.17950720290832747 -0.00016971113501752387 0.00018490327349934835 -6.0762367493002424e-05 6.268137336860694e-05 -0.059640725101228274 0.024847031302151965
0.171 0.127139427404979 -0.1917882803566042 -9.610323754715202e-05 0.0002810321602803232 -5.8910683053767014e-05 -5.670339550155844e-05 -0.05732051794227835 0.030759147442644758
0.172 0.11026776528585455 -0.2050673727694922 0.00014952128108420122 0.00022400576162774538 5.15253126279514e-05 5.979394694198427e-05 -0.05428161962636846 0.036613414745986554
0.173 0.09172851507694443 -0.21585330126911245 1.1607126029278758e-05 0.0002762174756500494 -0.00010017290846753072 -1.4649917908747927e-05 -0.05070371900257541 0.04214645148794454
0.174 0.07291039242514871 -0.2246556626118028 -5.6721028465775e-05 0.0003012230505526231 2.390311469339777e-05 -0.00010768100521026817 -0.046297765223837155 0.04743531819354903
0.175 0.053691414666568106 -0.23069660930598984 5.4589406852371504e-05 0.00019726076948245263 0.00010518616745634833 4.968355214042038e-05 -0.041343814924015294 0.052180449559630554
0.176 0.03150011831556964 -0.235543399740035 2.8885795510308335e-05 0.0003610488610073428 -7.148081315793309e-05 0.00012093518769752309 -0.03619653651630513 0.056046793554785375
0.177 0.011966622575529974 -0.238606973634837 4.367575502947135e-05 0.0002565879361325914 2.073792552650518e-05 -4.467125119573696e-05 -0.03055651999437165 0.059970547152632
0.178 -0.009434228455299698 -0.23804860056405228 1.962038233041453e-05 0.000312741664057507 -2.3684778658276748e-05 2.9737112505560983e-06 -0.02433932414420177 0.06304611607525219
0.179 -0.03271468541211368 -0.23940566843959235 2.4066910303589126e-05 0.00017648011536663374 -5.022375072234994e-05 7.683222386487665e-05 -0.018015874320738163 0.06527409648274897
0.18 -0.05365173560460029 -0.23531714726872602 8.962258496196529e-05 0.0003115088233123214 7.277795969841514e-05 -1.596993521125697e-05 -0.011184803890700878 0.06734534667530881
0.181 -0.07589322067611139 -0.2312662066704265 0.00023979595761986733 0.00024388506468251949 -1.9128984762591825e-05 -9.026711142654073e-05 -0.00412625548967694 0.06869332275132703
0.182 -0.09801618642049258 -0.22622270901512853 0.00021204352726929157 0.00015652395796973698 5.142724571437326e-05 1.2069734853817986e-05 0.003036097733216428 0.06899832837811246
0.183 -0.11636207736213598 -0.21466116048292325 0.00011335412336075641 0.00023085049990320848 -8.736285328957513e-05 -2.398429792350961e-05 0.009806844411551292 0.06855797279249244
0.184 -0.13670655767827344 -0.20556525950814306 0.00036400952941739566 7.23415020196028e-05 1.8327812570350052e-05 1.786147195611265e-05 0.017091116919563793 0.06720040890664285
0.185 -0.15715731392869842 -0.1936408413183964 0.0002067373732752465 0.0001842670862677412 3.084217973982263e-05 4.9496612550684e-05 0.0242702595318128 0.06609252831092127
0.186 -0.17480891467009646 -0.1789575225136249 0.00030555170965248526 -2.6512100265926358e-06 3.443602603555502e-05 3.543888670172981e-05 0.031286047528862354 0.06336013493953656
0.187 -0.19117328711663853 -0.1615718271107366 0.00027203537360853913 -1.6117792434025172e-05 5.095091877689844e-05 7.54545907901677e-05 0.037666304021095526 0.05977420667667631
0.188 -0.2054183567174334 -0.14387722826491592 0.0003132475038960822 7.240886843476238e-05 6.826584579197792e-05 -0.00010644988602595287 0.04395909355791014 0.056253215271649566
0.189 -0.217901018635074 -0.12533027373233982 0.0002976741841321198 4.11991824454726e-05 5.318041949074965e-06 -6.121810739039367e-05 0.05001578029079457 0.05116786110603978
0.19 -0.22927204231187398 -0.10531703546846999 0.0002584372829038054 0.00010206583957889869 4.861744240031939e-06 -5.382516685201225e-06 0.05493560199977174 0.046397225473664434
0.191 -0.23985756980332407 -0.08490121523495718 0.0003029923075582688 1.6880066792656954e-05 0.00021206515508370523 5.057032200098872e-05 0.059965250590718534 0.040295569572968856
0.192 -0.24731166480583766 -0.06241444512455515 0.00031660097442254303 -0.0002380856067282482 6.45986638879261e-05 -3.61871151704458e-05 0.06373454603831911 0.03441679039163112
0.193 -0.25298884603736677 -0.04021095444827352 0.00027142292846968075 -4.674139547475548e-05 5.1195551223794054e-05 1.2239756021175794e-05 0.0678053187555376 0.02774258657311581
0.194 -0.2557101227620159 -0.017180374521125554 0.00018344415967932123 -0.00014469684913491945 -1.00376292199924e-05 5.8751490511364714e-05 0.07043406498375417 0.020445023573186415
0.195 -0.2576990949040946 0.005904261004154091 0.00027624876975373047 -0.0001799742938953164 -4.964732005674509e-05 -1.9158861958263573e-05 0.07285094580607214 0.012555796564751705
0.196 -0.25595249124082936 0.02948032584889797 0.00025361471389715324 -0.00018021117595653054 -4.088435547215719e-05 -9.418557803574257e-05 0.07360045944831686 0.005306450578566925
0.197 -0.2537340535033612 0.05302947042658132 0.0003477646888362455 -0.0003408165412150412 -5.335082782120893e-05 -4.5314874303573916e-05 0.07431552588262604 -0.0024554250439709343
0.198 -0.24899543390448733 0.07508725133946981 0.00020430034789789122 -0.0003252687098316858 -0.00011852821830223627 1.555521292537263e-05 0.07394199908806036 -0.010199804629842638
0.199 -0.24200302291599124 0.09743027805455112 7.362619355635214e-05 -0.000361379830547849 0.00011746131913224165 0.00011286754940605292 0.07277134529561292 -0.01792868237750804
0.2 -0.2326748685451593 0.11999604402571336 8.913784963992056e-05 -0.00039770981483622247 1.6454368359105092e-05 -1.5010714632613795e-05 0.07062927690253291 -0.025355783581341506
0.201 -0.22221408367386014 0.1393608559718076 9.323709108058041e-06 -0.00016499064374517897 -5.80641832593906e-05 7.917279714185045e-08 0.06789508239674333 -0.03270876866961442
0.202 -0.2098378377590594 0.16006169169410242 4.071231986283311e-05 -0.00026037830075275307 -0.0001026251001634748 -3.114626540385989e-05 0.06448092667348063 -0.04002522426648234
0.203 -0.1945718543319588 0.17961452210149773 1.95438964453763e-05 -0.0004000512024835831 5.752475982547811e-05 -3.283389806655542e-05 0.0601088924692429 -0.04648886039681358
0.204 -0.17955363912181957 0.19551979676502143 -3.3048138423668245e-05 -0.0003951103866037895 -9.348163249133362e-05 -1.9151831975640836e-05 0.055107803342204484 -0.052707464283949707
0.205 -0.1623197312855317 0.21279808477647447 -0.00016501911786077398 -0.0004884269442683923 -3.084751070567917e-05 -8.94489781250168e-05 0.04968519169791727 -0.05821405672356961
0.206 -0.14336475147632755 0.2266711090780248 -0.00017312865274660277 -0.00036482632566899346 -4.1343047308094075e-05 5.743737367769973e-05 0.04344429323521103 -0.06354539674587512
0.207 -0.12343465233478619 0.2396230519031143 -0.00018679620122981138 -0.000290842845451554 2.4717575453608336e-05 -7.461616027116547e-05 0.037094939340431024 -0.06769720917366406
0.208 -0.10146742790820182 0.25307598840812956 -0.00017576862668407277 -0.0003976247671757398 2.729784540701105e-05 -1.7175559320696113e-05 0.029826693705782066 -0.07136039510841698
0.209 -0.08057374899679452 0.26017869384368625 -0.00021821942554996266 -0.00035928302116140196 0.00010199664856781826 -3.956229270333206e-05 0.022454221997886895 -0.07416724898308213
0.21 -0.058066338075129 0.2665607388872113 -0.00021823071915398498 -0.00019822682865105432 7.501461096771843e-05 7.491750280617736e-05 0.014780769673637773 -0.07587474793564009
0.211 -0.034540387339426874 0.27284682511047076 -0.0002213297013777615 -0.00021467074577142812 -1.509337862581626e-05 -2.3972227706182066e-05 0.0068186554738428546 -0.07781538121832346
0.212 -0.008929844474930696 0.2768182843887226 -0.00031278106342315837 -0.0001535049569358966 2.8991969535594025e-05 -3.234045538327184e-05 -0.00127486147657558 -0.07823286890742566
0.213 0.015112474552510831 0.27890299603033825 -0.00025542302747801656 -0.00018674892357787152 2.5439761888920868e-05 -1.028337513969067e-05 -0.009098105696945287 -0.07791604890940243
0.214 0.03949008203454319 0.2768763441139293 -0.00025602625123096536 -0.0001818853439975749 -9.735090384229128e-05 -5.0087749119684496e-06 -0.016916571225859087 -0.07662705771537916
0.215 0.06576837284640322 0.2734521596790497 -0.00040683254474058894 -2.8504247813824393e-05 -2.6759481741473816e-05 4.13972710520401e-05 -0.024825283807913944 -0.07492419218884167
0.216 0.08832215204460632 0.2690784411058884 -0.00012173555183640917 0.00012307077646976313 3.058390728256831e-05 2.4680167860422022e-05 -0.03258579649017477 -0.07214068745616796
0.217 0.11266837321898435 0.2599429895363632 -0.0002450643756657064 -9.158773087927876e-05 5.281024965960871e-05 0.00010742996483239439 -0.039879479300043284 -0.06866186280928796
0.218 0.13640950417760156 0.25221833657883536 -0.00032874184712970993 -6.29245861887963e-05 9.204706607920962e-05 3.240325069410199e-05 -0.04685461332764458 -0.06461945654429557
0.219 0.16004336380905415 0.24001743747520798 -0.0005420347147929787 -2.4998781627229585e-05 7.074452868471142e-06 2.7784256489018908e-05 -0.0531954595716338 -0.05991219716350308
0.22 0.18164583711894883 0.2262312174604408 -0.00044097313198114606 7.937803777460933e-06 0.00015694543909625254 -1.632653563067438e-06 -0.05970186994379588 -0.05481160782868268
0.221 0.20198820917714827 0.21009452745080434 -0.00046408613692206337 8.948703708059057e-05 1.3388203178533886e-05 9.559301280802655e-05 -0.06446945887475154 -0.04801850900801614
0.222 0.22107045197300257 0.1932212817376886 -0.0003661024658595443 0.00022503510910728316 0.00010674275090131976 2.4360750740013407e-06 -0.06969239484183279 -0.041334058506875035
0.223 0.23974344029931022 0.174108897640752 -0.00033070039737461375 0.00021156797708851897 -4.895772816210886e-06 0.00011707668826423604 -0.07433019292151286 -0.03457440333840314
0.224 0.25586059168631736 0.1518257224992823 -0.00013983801226878312 0.00030717944048205364 8.057740563910366e-05 4.355100323198771e-05 -0.0774921197107546 -0.026990350381783032
0.225 0.267913241562727 0.12913033163473034 -0.0003212951622668007 0.0003060655102355076 4.702689603239665e-05 -7.844750671672955e-05 -0.079808363507571 -0.01922936287084083
0.226 0.2812340044695 0.10405232507831973 -0.0003940374990224694 0.00044956090806890533 7.823561927166774e-05 -3.748193273638924e-05 -0.08187918093510149 -0.011029575231294055
0.227 0.29050254681498633 0.07941822238697309 -0.00039847168819953725 0.00045014289395853643 0.00011246046805463135 -0.00013125695982209656 -0.08289474129070717 -0.0027136928509180584
0.228 0.29776802669519725 0.05315367469669221 -0.0002603270039397981 0.00036016501521299977 4.046889603745539e-05 1.4011757800482254e-05 -0.08286515634652908 0.005703669238847181
0.229 0.3023427526748557 0.026795610136396156 -0.000137501120604115 0.00038871224376432875 3.582137053935515e-05 -4.474487889275349e-05 -0.0823765518570768 0.014154880442947321
0.23 0.30515880441840665 -0.0010239895316754282 -0.00023816386331109956 0.00019923523993353292 -7.2886588803130135e-06 9.261119198539485e-05 -0.0809004378014198 0.022364416331430246
0.231 0.30563095236430304 -0.028380373044270102 -0.00014747116158346797 0.0003746020216306667 6.840289716436881e-05 2.106849529542408e-05 -0.07853725782863494 0.03046752280455502
0.232 0.30161241034777625 -0.05538758874202455 -8.76147429605713e-05 0.00039116403158719043 2.4858145435827428e-05 -9.813152284324281e-05 -0.07538823565261861 0.03867154952303878
0.233 0.2977566005269094 -0.08386374406111077 4.9938452508943594e-05 0.00045771479990813204 3.712237416958345e-05 -4.389621454103779e-05 -0.07139552940217368 0.04601954632002014
0.234 0.2889068063427485 -0.10958089734140945 0.00016267963337983439 0.0005635591285920058 7.083668743786948e-05 -7.394649011912298e-05 -0.06677627658163694 0.05284917749379732
0.235 0.27997681000765406 -0.13625267646693043 0.000160724403644093 0.00048166382302854913 -2.6598863572812745e-05 4.966519490256927e-05 -0.06124848871654148 0.059681915135036775
0.236 0.266550044266088 -0.16038210791645577 0.00012535687160981587 0.00044344025714988545 -4.056802795522818e-05 -5.978130826874521e-06 -0.05495303842843352 0.06616555068714053
0.237 0.25105395876507736 -0.1833313774231442 0.0001835054704762432 0.00042353315473975787 -6.78867904776836e-07 -9.667262494462769e-05 -0.0485117857545459 0.07133270055926375
0.238 0.23510137696905112 -0.20714443688879652 0.00020683910834865725 0.0003798070838781838 1.2119585573882868e-05 0.00010251761924507265 -0.041029376307193076 0.07633441699399461
0.239 0.2156708081973327 -0.22652613382475542 0.00022518469294552403 0.0003963715773135962 1.4328606794880151e-05 -8.279464566174937e-06 -0.03315112068021209 0.08028146863992931
