!Created with skrf (http://scikit-rf.org).
# GHz S RI R 50.0 
!freq ReS11 ImS11 ReS21 ImS21 ReS12 ImS12 ReS22 ImS22
0.13 -0.10106150938934953 -0.154926434197952 0.00016086469781000792 0.0036444941947526275 -4.719462646950786e-05 -5.685566619758231e-05 -0.016034101004194872 0.050421820134573525
0.131 -0.11300479912415816 -0.14687639008793815 0.0006158903024496808 0.003717774842340461 -6.266468161609859e-06 -1.645872451557231e-05 -0.011159697942717402 0.05213510719910463
0.132 -0.12420447500143571 -0.13893039487313594 0.0009162185287995868 0.00361381458888304 -6.146861834530345e-06 -1.6498797806705648e-05 -0.00634500541559091 0.053546127210604956
0.133 -0.13524581350406 -0.12961113838573293 0.0013741319612826973 0.0035257446101122614 6.662623934984277e-05 -6.344211349679931e-05 -0.0014466097753222423 0.054254322938223826
0.134 -0.14735285350445676 -0.11962369390758408 0.001610955059973866 0.0035076315052276425 7.2914072666603715e-06 -0.0001417163079130416 0.003601887046467074 0.05472549735520481
0.135 -0.15887194906833327 -0.10842589246141651 0.0019817749449252747 0.00330894920452523 -5.595335093328971e-05 -3.0380190803099317e-05 0.008539633711605403 0.05488543812844431
0.136 -0.16717025097600174 -0.09669823007255877 0.0022183755600048895 0.0032017352869211694 7.701547157206035e-05 -0.00012035521997512646 0.013989396066677876 0.05386567305231307
0.137 -0.1756986148229297 -0.08439285942929585 0.0026170847644103146 0.0028764537578547405 -0.00015048240115322738 -9.139920675595834e-05 0.018991960343898818 0.052942382748767274
0.138 -0.18209921876104398 -0.07030047507669925 0.0028642513780995655 0.002662754942510545 -6.498567848983681e-05 3.54796366347905e-05 0.024181799972904334 0.0508497853194352
0.139 -0.1883358396950548 -0.05651465665647483 0.0032749637935510193 0.0022894960329132748 4.062547814713444e-06 -0.00015197480733425322 0.0287950623830226 0.04948030222433967
0.14 -0.19427510354863017 -0.04162680780965384 0.0033211097887561125 0.002121833334555871 2.9595619230697457e-05 1.9022282368892444e-05 0.03357679014010822 0.04646049666061322
0.141 -0.19834771967057893 -0.02627807592855152 0.0036037476189563445 0.0017894058567388305 -9.320174615040574e-06 -2.4722200782362807e-05 0.03799686467150569 0.04362922678567037
0.142 -0.20094289506960414 -0.01108054262602264 0.0038026429352147643 0.0014286981966460787 -3.0958882248392385e-06 -8.24945314321557e-06 0.04250128167240538 0.04053922552001305
0.143 -0.20296708330700464 0.005481049640615331 0.003958510615926043 0.0010098955481900997 -0.0002085503530000006 -1.6209212946192154e-06 0.0464140234673752 0.03635952996562896
0.144 -0.2026647935889174 0.021300928145439386 0.004010764608129246 0.000694912651448374 -4.9742770183693046e-05 5.1510146417131837e-05 0.04979638722399574 0.032205578337009946
0.145 -0.20193903307750083 0.03745566925747599 0.004207181507778876 0.0002526980670918104 -1.0453565679525226e-05 9.420433560293536e-05 0.05302458317444764 0.027597107754161736
0.146 -0.199807262937527 0.05350899525719799 0.00406598006121796 -0.00014634996302897136 4.173428812477688e-05 5.2203681208565666e-05 0.055770682637745886 0.022724339555357614
0.147 -0.19601732358093124 0.06953371555633811 0.0041854082206728045 -0.0005736602873016753 5.6009428055646076e-05 -2.2796020927724055e-05 0.058099887804352615 0.017241212936546214
0.148 -0.1909236962982465 0.08500470629711457 0.004146878895305462 -0.000982728819216172 -0.0001191470415631055 3.965525722915418e-06 0.05990964164589473 0.012165893371701647
0.149 -0.18535939372147833 0.10090389777212627 0.004012736002190359 -0.001336789326036441 3.5934663940097486e-05 4.8101826250965385e-05 0.06087749160495674 0.006377501502870389
0.15 -0.1770577029254927 0.11598058412008223 0.0038560307297953265 -0.001792259014713332 -7.336485964816133e-05 -0.00010719997247640103 0.062067171662184124 0.0006754215248461377
0.151 -0.16977998312697656 0.13016645544109018 0.003659845407143056 -0.0021569061425444564 -0.00011333891680775223 -5.800380043743456e-06 0.06194654478708776 -0.004989254616895538
0.152 -0.15940794191451965 0.14408351370581154 0.003548705922629445 -0.002446624496855564 8.890820712339648e-06 -5.277572994814781e-05 0.061806931107841516 -0.010759791280562281
0.153 -0.1484124086489696 0.1571218683546767 0.003363222593379483 -0.002911549339829578 5.294244999230993e-05 8.977379942588937e-06 0.06096275846244417 -0.016688468899691212
0.154 -0.1361990676264647 0.16861450926955518 0.0029910128581740946 -0.0030964394347232573 6.969269575750611e-06 -0.0001685893098576138 0.05949787099943638 -0.02226152585131818
0.155 -0.12386348593838153 0.17993326006926275 0.0027721818403725366 -0.0033932171775070507 -1.885398285140075e-05 2.9773692515724257e-05 0.057507369458461625 -0.02791123987556928
0.156 -0.10930839941092506 0.18989535098046362 0.002360136014759545 -0.0036508885468421685 -1.6313674075989587e-05 -5.234952098810317e-05 0.05487925109654799 -0.033420683372992185
0.157 -0.095486686402906 0.19865617278123604 0.0018630562939512866 -0.003974800545222981 2.392436558113669e-06 2.2294522957405973e-05 0.05188232296992774 -0.03832525202703262
0.158 -0.07897786435026262 0.20768886409526505 0.0015146634541003904 -0.004062969355655981 5.2634416801422726e-05 -3.6834868512107878e-06 0.048430636312585186 -0.04327644506556304
0.159 -0.06396097023707988 0.21421137055400147 0.0011649796780919463 -0.00413286333861481 4.4010447827637305e-05 -4.302245506411204e-05 0.044338338822258606 -0.04801745912656943
0.16 -0.04773850472411316 0.218290647392547 0.0008168774895355337 -0.004344629583393989 5.611843446043075e-05 6.8833864863273e-05 0.03965979014388018 -0.05209258959557219
0.161 -0.030776849299446754 0.22262173579273817 0.0003432988484211933 -0.0045073616520339395 0.00011144911126701617 6.0634965025288564e-05 0.03506315027997157 -0.055706286330716885
0.162 -0.013334991386130184 0.22559652396325064 4.286384473110967e-05 -0.004396468069313631 4.352487461381639e-05 -0.000130971762893633 0.030018651778372596 -0.05899444387706674
0.163 0.0037442627037537167 0.2269207104704789 -0.00036566554308168 -0.004478332650742096 6.0767918326595075e-05 -6.756831309750834e-05 0.024486751669189552 -0.06174314393118437
0.164 0.021981344131666834 0.2273103205523313 -0.0008513876407269553 -0.004359378016280323 -1.3707861334845532e-05 -4.726268236479236e-06 0.018878210567959075 -0.06429475497083265
0.165 0.04075625725351395 0.2261775308868001 -0.0013920347536185284 -0.004319284762739111 5.98289051748012e-05 6.287029774650025e-05 0.012959969811908495 -0.06600035319668951
0.166 0.057125124957218894 0.22244989501068024 -0.0016653454265869298 -0.004115410665534233 2.041477193308462e-06 3.661302465053418e-05 0.006659509504816543 -0.06733275930175721
0.167 0.07352602831009811 0.21944777128549295 -0.0020569965178718185 -0.004148336477861026 -9.720884390621312e-05 -2.986472405340565e-05 0.0006058443254347312 -0.067319051221588
0.168 0.09122536561773902 0.2140608759758654 -0.0025163118646351432 -0.003885210339466365 4.971526777022592e-07 -2.690504165718084e-05 -0.006225358664777868 -0.06820938944488594
0.169 0.10861149780732154 0.2080516511643155 -0.002987625548075536 -0.003567423050433095 4.56752823635764e-05 -5.685876291454097e-06 -0.012233347231024073 -0.06765129643623907
0.17 0.12296344488426052 0.1997704527829788 -0.003307344433212203 -0.003250118322698546 5.486786538657599e-05 -4.653261993663593e-05 -0.0182766392820966 -0.06641304690920428
0.171 0.14009395281338713 0.19125538428076944 -0.0034889157830534866 -0.003065593180974709 8.047786316151257e-06 4.0201058347796575e-05 -0.024001177529957646 -0.06461001770392401
0.172 0.1539663736639931 0.18135782650580448 -0.0037764681458160557 -0.0025841380665170824 -3.3605116496973365e-06 5.658991332168634e-05 -0.030116683622578376 -0.0627880460091928
0.173 0.1679939764467498 0.16817732946927358 -0.004043726239573158 -0.002176326622301194 2.6493777348169794e-05 1.091963005374687e-05 -0.03560451766108812 -0.05977159814221941
0.174 0.18179237880171972 0.15726968869314362 -0.004296751406551695 -0.0017880150939511832 5.5581487224073175e-05 6.998317015463323e-05 -0.04137741722190783 -0.05648011219459545
0.175 0.19329757985143087 0.14337968389618796 -0.0045068188608362175 -0.0015807495322589494 1.1835499390808294e-05 -8.40891573242886e-05 -0.04613498769219919 -0.05265030157525389
0.176 0.20472680924209471 0.12828683203222693 -0.004652250711573309 -0.001160610188002249 -4.4977511917256415e-05 -0.00017781056568846965 -0.05131460785828901 -0.04847017560874956
0.177 0.21562091636899589 0.11382401190154723 -0.004619781351243934 -0.0006691932619268389 2.9568262198884497e-05 1.9140292948069065e-05 -0.05559496213108929 -0.04404921468583203
0.178 0.22424484136302117 0.09759079332628542 -0.00474393955313025 -0.0001300503008597793 1.6575968511168877e-05 -5.2052071719621035e-05 -0.059649957817235595 -0.03910822603440608
0.179 0.23187281788059652 0.08092927502930616 -0.004860443269157966 0.00017902072620480541 -9.029554833330443e-06 -1.1974129219529837e-05 -0.06334439608298667 -0.03365865778780658
0.18 0.24011062538160044 0.06281778245854801 -0.004698912978056295 0.0007061878849990863 -9.723584454377714e-05 -6.9317653194926e-05 -0.06614172065322452 -0.02782040047630843
0.181 0.24484064686972548 0.044776648246838247 -0.004668474940069217 0.0010617226121021866 -2.400767634735103e-05 2.435720351800731e-05 -0.06857457460856799 -0.022188228984622024
0.182 0.24859647774100607 0.02579658299456297 -0.004559808374123721 0.0014781353772583652 0.00017326694463152994 0.0001479839508390576 -0.07089239326805419 -0.015817911362227096
0.183 0.25139720777470964 0.007552215225459155 -0.004401088970057495 0.0019315135579095538 -9.178393798258537e-05 -2.6102049913308782e-05 -0.07212172571888781 -0.00936497673386626
0.184 0.2535038730862144 -0.011595324240654766 -0.004191237009409064 0.002438899165110036 5.4820960182124836e-05 -4.638050362192403e-05 -0.07315406826431861 -0.002704412303698982
0.185 0.2525525706299777 -0.031186534654773702 -0.004044196878499628 0.002817829009306787 -5.787354856539841e-05 -3.9961567679715145e-05 -0.0731130445430704 0.0038716799530206874
0.186 0.2512951361987598 -0.050952640280090486 -0.003857217424839408 0.0031497251344892964 2.129739961794662e-05 -4.691074558788886e-05 -0.07336498549079004 0.010576140473326199
0.187 0.24772577195683798 -0.07068935452091007 -0.003439547714180763 0.003497246417613982 6.1551440848525446e-06 1.6479804114784164e-05 -0.0722364880174627 0.016988644709234668
0.188 0.24347103241462853 -0.09020328079241745 -0.00307730474558024 0.0038385292201293998 -6.252000810569686e-05 -6.6055956877153575e-06 -0.07080752017682912 0.02361673834452198
0.189 0.23635585489760827 -0.1101017629191554 -0.0027241172491190586 0.0043588375981506175 -1.293814715910522e-05 -7.113337557681592e-05 -0.06841573186511747 0.030092508286863395
0.19 0.22846468658488786 -0.12804869730552895 -0.00245749368437323 0.004501226889874163 3.396720820492217e-05 -1.3712868915401525e-05 -0.06587081752224573 0.03617303111335706
0.191 0.21932585012352476 -0.14646234795017385 -0.0020109643309618183 0.004743828288839533 -2.5090935500453807e-05 1.3214087411424892e-05 -0.06269147719668666 0.04237305278898316
0.192 0.20875622708277938 -0.163407880941972 -0.0015354624843706168 0.004948570987086181 -6.486388941011368e-05 -8.041361913402273e-05 -0.05884992320154651 0.047788739353527974
0.193 0.1960958209756504 -0.1802798768583013 -0.0009595366288705297 0.005167365198460458 8.458427148757583e-05 3.691894116116917e-05 -0.05471236541469088 0.05347318388802046
0.194 0.1819533495361294 -0.1966073280171438 -0.0004406353434108709 0.005170438419472192 3.679964289476299e-05 -1.8447191347779335e-05 -0.049551966696588255 0.058082016257618156
0.195 0.16589864924210107 -0.2111659606850569 -0.00014715767149276601 0.005276058672318146 -1.7608665787141047e-05 -9.042415298414086e-05 -0.044411335763041404 0.06302273698780812
0.196 0.149248517895344 -0.22520624739775594 0.0005250406611757878 0.005268224367718246 6.661096448019418e-05 1.3152990695831988e-05 -0.0385314133717293 0.06699127013062953
0.197 0.13498537128757915 -0.23654961313604314 0.0010120466148275135 0.005185762103636987 4.594411734377142e-06 3.205638010513827e-05 -0.03257044482169461 0.07065075640483363
0.198 0.11446268707393993 -0.24726821634000803 0.0013804566517163007 0.005177340229992644 -4.487508703729745e-05 -5.989037098794603e-05 -0.026357355175131644 0.07342705458036435
0.199 0.09393772028845117 -0.2552185940340849 0.0019270766628162518 0.0049856328607145286 -2.914774681519254e-05 6.850800217591511e-06 -0.01918433949808352 0.07601623197968377
0.2 0.07373789578446668 -0.26455900967230733 0.0025255034763790114 0.004808543067684137 2.560605605865004e-05 1.2300364689165338e-05 -0.012598401756984684 0.07782522373770091
0.201 0.05636770377683386 -0.2692483729622309 0.0028362975261787536 0.004670841994419492 -2.4822508401835527e-05 6.532961358398109e-05 -0.005232640211013927 0.07917297569766286
0.202 0.03228116192844861 -0.2748287746853328 0.0034043314339720406 0.004432855368573497 -2.9800226896497118e-05 -9.62736256730053e-05 0.0021139801004191987 0.07969150956740954
0.203 0.01027874325346628 -0.2770157887638375 0.0036257143176703804 0.004108837069006402 -3.5043804658498515e-06 -3.362863514636015e-05 0.009573568883518575 0.07963058457953898
0.204 -0.010086515434927923 -0.2774503834091959 0.004221328180959418 0.0037421616805396185 -6.795697575168622e-05 -9.016916171692126e-05 0.01708554524565851 0.07825372418624432
0.205 -0.033166672980041806 -0.2779506603856711 0.004653055330548958 0.003215502572878432 4.6277369046892734e-05 -7.456735857870731e-05 0.024214813851513296 0.07678132446675319
0.206 -0.054663600889514594 -0.2741286914434451 0.004837672977727776 0.0027097686408021483 7.125872692641312e-05 5.862752335590139e-06 0.03156408636727863 0.07481370838081694
0.207 -0.07759805461914941 -0.26971414288033524 0.005205835458455751 0.0023601237854661526 -1.3029562493049298e-06 2.8209488288771528e-05 0.03784486368972862 0.07240978456397458
0.208 -0.09577227013763462 -0.26346743410171536 0.005323310414903915 0.0018532845061219477 -3.868516152329579e-05 -4.377370600486116e-05 0.04493444864609797 0.06893033228126617
0.209 -0.11838658608535702 -0.2556076750455817 0.005319140582933995 0.0013300632150916767 -0.00012011374513912131 0.0001318009628846954 0.05158525986581082 0.06441322527950956
0.21 -0.13888243261759237 -0.24535676471297432 0.005719948188749967 0.0009487743960419535 1.8153605329971373e-05 4.9456556086048854e-05 0.05729641360560893 0.05987712645735811
0.211 -0.15840657577938336 -0.23703720863327438 0.00571214143174989 0.0002123039142728023 -2.883888159645071e-05 -0.00012617012279496725 0.06348113664301087 0.054390398415362126
0.212 -0.17565997295252023 -0.2228236134296791 0.0057566467518942975 -0.00019517548244631785 1.931743930643264e-05 7.571631360138954e-05 0.06803611988126444 0.04863124254574884
0.213 -0.1938106434351265 -0.20937661633945948 0.005638945422877429 -0.0007753819900428282 9.34840571704208e-05 -3.2930516268328595e-06 0.07270249076496159 0.04219649156155165
0.214 -0.20975406537622865 -0.1933120302074698 0.005580067184581505 -0.001362410048321949 2.068160984304317e-05 6.8111749288216175e-06 0.07686852226550946 0.035255934452733007
0.215 -0.2245382430596271 -0.17661486609752705 0.005448771883946293 -0.0019249138360523058 9.341529186148173e-05 8.970682827334883e-05 0.07980393268116052 0.02793747267739857
0.216 -0.23934805204339657 -0.15931429240521675 0.005301973665014265 -0.002568963265628416 8.216265329164439e-05 1.4908885899620956e-06 0.0822707421261594 0.020464745146955062
0.217 -0.25100486477604284 -0.1411995875181344 0.00503606126254283 -0.002904482057674808 -1.219187191273975e-05 -5.9447665478763785e-05 0.08411318404671102 0.012960933717215182
0.218 -0.2624641977808056 -0.12195364351979848 0.004725789633484346 -0.0034059965850304573 8.678913746828808e-05 -0.00011007605942656257 0.08571181101745642 0.004931741827099295
0.219 -0.2717275240485597 -0.10037187657301999 0.004545249189465253 -0.0038790628990274796 3.702304421855066e-05 4.642403768058782e-05 0.08595141331838024 -0.003275255324344251
0.22 -0.27916100516513087 -0.07947172240719884 0.004024530784411766 -0.004318731516073176 -8.576780458398049e-06 -6.556154902516103e-05 0.08580745795822198 -0.011354798212692623
0.221 -0.2854892235514381 -0.057070665563589605 0.003665302362580419 -0.004714186623684045 2.6332494162816408e-05 -8.098671837195157e-05 0.08454954413508631 -0.019105857542095955
0.222 -0.2900250404228812 -0.035128986830605814 0.003165861704455036 -0.00497914040403514 -9.954024253567996e-05 -5.3065845858767165e-05 0.08288194936211034 -0.027259904025090046
0.223 -0.2936656346685318 -0.012099656552823206 0.0027328099271991964 -0.005221832566235144 -4.353288572315151e-06 -8.575005981830426e-05 0.08006925444289958 -0.035101077926480616
0.224 -0.29468361718950875 0.0106526665682941 0.00214254889926305 -0.0056738344128262445 1.7015109940724872e-06 -4.2566563577229805e-05 0.07698668891427055 -0.04256641525464365
0.225 -0.2935975232909891 0.03308628773508981 0.001621136908334673 -0.005804121052923897 0.0001346127424028179 5.001084721424306e-05 0.07256103698751566 -0.04966250952092296
0.226 -0.2912222801816158 0.05557831400990163 0.0010307997546947193 -0.005969635281437242 -9.028217860248687e-05 1.1798219461268578e-05 0.06806523242957675 -0.05613983000954136
0.227 -0.286765139330641 0.07885367725998327 0.0005611598345246001 -0.006034804502180966 3.5453567037339874e-05 6.222767576982489e-05 0.06268632806862086 -0.06278042139359988
0.228 -0.2820868500759781 0.10054196867880755 -0.00013717014032820903 -0.006040923320803498 1.7226424253122502e-05 -1.3969139922796976e-05 0.056844440524187446 -0.06833853332145153
0.229 -0.2742116907470001 0.12289422228275688 -0.0007188109121588802 -0.006044954372303203 5.3864942045520196e-05 0.00013915906194372486 0.05046297617025538 -0.07338120721073256
0.23 -0.26456158634567145 0.1445339373717162 -0.0012439925360213848 -0.006009488606557647 9.147836917692614e-05 -7.986648943921295e-05 0.04355213556804503 -0.07812361184574249
0.231 -0.2544707629284974 0.16505799037430932 -0.0016799299848371705 -0.005873722853997246 1.4818840215239395e-06 6.354362610931435e-05 0.03622934121545533 -0.08197333044188367
0.232 -0.24103974552989643 0.18469534688426711 -0.002271254451906522 -0.00565259532525765 8.131083161807196e-05 1.5898011208575645e-05 0.02853202590956051 -0.08601314434844176
0.233 -0.2285153929772242 0.20620799093176076 -0.0028492696995664627 -0.0053852398112177804 -2.351769944677146e-05 -2.1577392413954073e-06 0.020730601654030862 -0.08774471181049324
0.234 -0.21410912902086746 0.2208109005827274 -0.0034296272594640693 -0.005081641688474149 -4.920469021353833e-05 3.7426705752439336e-05 0.012383721432167353 -0.08962164273715571
0.235 -0.19369315838261875 0.24052937103364483 -0.0039477995328835265 -0.004771804915662605 2.6146351533468367e-05 7.794888830559947e-05 0.0043583091811591765 -0.0912541674318121
0.236 -0.17845633380656756 0.25538050796633105 -0.004360553343806369 -0.004421626009573106 7.206201489316027e-05 -3.633610931706593e-05 -0.00415221667481079 -0.09097355935013934
0.237 -0.1571449495352431 0.26946089527730505 -0.004584194920982437 -0.004021336988014814 4.04614829845099e-05 2.803032901072673e-05 -0.012344868526498286 -0.09038553375681924
0.238 -0.13701928484853645 0.28264092161197835 -0.005071283309517834 -0.0036866164170595065 -4.20632108437243e-05 -0.00010419189808571772 -0.021009436606724573 -0.08938776777786919
0.239 -0.11536647628103659 0.29305061938379273 -0.005253579247491777 -0.003157643929194798 1.755471677304534e-05 -5.5229717422408565e-05 -0.029087414532126734 -0.0873882719473739
0.24 -0.09318171834322114 0.3045608607325683 -0.005674809102189595 -0.002665071687535779 8.113295774475828e-05 3.015479345451938e-06 -0.037303834457438734 -0.08510975343443951
