!Created with skrf (http://scikit-rf.org).
# GHz S RI R 50.0 
!freq ReS11 ImS11 ReS21 ImS21 ReS12 ImS12 ReS22 ImS22
0.13 -0.17326030145910465 0.05765702305230884 2.2050415754458546e-06 -9.950042550954282e-05 4.409412347637616e-05 3.860573537238069e-05 0.039307134303892176 0.03523491153051284
0.131 -0.16973632276094622 0.07350093195101538 9.972288645604204e-05 -6.01233137395676e-05 9.906127816024764e-05 4.6355523905299303e-05 0.04347706218724313 0.03149518856826417
0.132 -0.1632658205742937 0.08916564686113522 -1.0052931695452886e-05 -1.8721659106213885e-05 7.448543355185155e-05 -1.5748695450627394e-06 0.04673745106118521 0.027114681504106525
0.133 -0.15648583307392416 0.10317727263722609 2.796892984236467e-05 -4.894322288657383e-05 -8.139868204040368e-05 3.0870072417251527e-06 0.0496338519808824 0.02224759035131776
0.134 -0.14841591402640525 0.11782423385313286 0.0001423319881116778 -2.241884925309485e-05 -8.721688091498622e-05 6.842902871070022e-05 0.051989929688772134 0.017687741656498054
0.135 -0.13805406123512137 0.13219409235721044 7.180657289782893e-05 1.3934287856979536e-05 2.2387349488317156e-05 -2.124335106106976e-05 0.05434272504507916 0.012038746618179304
0.136 -0.12665729383604357 0.14458396523623918 1.3016925881902386e-05 -8.196860937930285e-05 -2.8072198872021805e-05 -3.451205440226136e-05 0.05527868437782277 0.006667373745913865
0.137 -0.11376280518136964 0.15455546470475506 0.00016147507921440826 -4.5643203334571e-05 3.73859628214844e-05 -6.106440185193688e-05 0.0563988992606532 0.0008963149945538031
0.138 -0.10065926584813024 0.16652062635615608 -4.568003386233528e-05 -8.881223221133371e-05 -4.318139156605985e-05 -9.643794192014378e-05 0.05650826958629035 -0.004882696440070309
0.139 -0.08663641312892877 0.17519922264663038 -5.5558152196687035e-05 -7.206848800878968e-05 1.9717940176539768e-05 -8.931642942078391e-05 0.056209556274873146 -0.010616143173717287
0.14 -0.07192562822602075 0.18284970024093278 0.00011527815310774735 4.289929658042935e-05 4.050566757969891e-05 -0.00013623308454840325 0.055133029464715905 -0.01652451919602282
0.141 -0.055137187230983056 0.19027723328165272 -6.787503638348102e-05 5.261370748822381e-05 0.0001106452923387226 3.3337477027890424e-05 0.05359560428203485 -0.02203645776217352
0.142 -0.03819025036983233 0.19561723224899624 -1.0998539853813141e-05 8.62686328030255e-06 2.8349924514981643e-05 5.7241798757843176e-05 0.05134908624511049 -0.027575070884214764
0.143 -0.021195591944811812 0.19879390055180174 -5.991679501234659e-05 -7.777721481688417e-05 9.66049827498108e-05 3.761881249562442e-05 0.0485975413567122 -0.032757767221400516
0.144 -0.003224268604907194 0.20037536674833265 1.8934941588231892e-05 2.0675179530568923e-05 2.2485093341500723e-05 -0.00015904551316860236 0.045061525217060944 -0.037913310148168504
0.145 0.014114024388798092 0.20263405424694148 1.942410663076609e-05 -1.5129976332254459e-05 7.385199762696812e-05 7.769105979572871e-05 0.041250225010933804 -0.042492087317117386
0.146 0.03231177349918735 0.2010794893639282 -0.00011441373950582812 -0.0001230632623882007 5.961828857482343e-05 -1.217641445636588e-06 0.03698820497565204 -0.046732261695697226
0.147 0.04847357722558529 0.19974596398943908 5.289072773688481e-05 -9.639927356374378e-05 7.848301022634134e-05 -3.201459200161431e-05 0.03245267205985555 -0.05042687859014399
0.148 0.0655148805484826 0.19413047948159518 1.955013193503064e-05 -4.282918797761494e-05 9.241244301079516e-05 -9.312714433120063e-05 0.02733351646564754 -0.05372651798210795
0.149 0.08293406580363123 0.18876121474326565 -2.849979059430424e-05 -8.416499229327319e-05 7.586461407319739e-05 2.354524750126884e-05 0.021678418044286784 -0.05664729366863491
0.15 0.09923694416830836 0.18147140693943176 -5.5671551962847745e-05 8.817507599633987e-06 -2.5654847207720325e-05 0.00011428266858255512 0.016494683567911995 -0.05862340041150897
0.151 0.11694757581155601 0.1737138208690163 -8.477591763173778e-05 -0.0001645474923813958 -2.406962848134757e-05 -4.2373571874143585e-06 0.010210655387380932 -0.060409093574989976
0.152 0.13076514843863876 0.16414150091082255 -8.988804566574014e-05 8.886434427498123e-05 -5.8452842725796016e-05 -1.558553465061084e-05 0.003946909983628695 -0.06111191970584276
0.153 0.14441048314631075 0.1532091016052405 0.0001969572532502431 -3.951760260292121e-05 -9.339669534791206e-05 -9.088380409306937e-05 -0.0019905470012316615 -0.06144542734001296
0.154 0.15751397925294178 0.14146689797292092 -3.2585434975373524e-05 -8.066761545576345e-05 -1.934676966961997e-06 -6.521604386382942e-05 -0.008347485143233538 -0.06114894918795274
0.155 0.1706385503556996 0.1266082801769349 -4.533545030991524e-06 -1.4172773653294954e-05 9.361353780964143e-06 -5.605862948924021e-05 -0.013838739712285232 -0.060091678874328376
0.156 0.18163462937016406 0.11238607558323022 9.654128112732416e-05 3.046161728647462e-06 1.9627879160973263e-05 -7.05330333854124e-05 -0.020309051782334366 -0.05889045459617627
0.157 0.19120387922075996 0.09735346793599806 -3.0381937167040812e-05 -0.0001626265000857585 -1.4914357003323733e-05 -2.087000679907255e-05 -0.026349642278684637 -0.05685067441999566
0.158 0.20039089610507826 0.07966294141761078 2.5661098898871698e-05 -4.674755101172801e-05 7.829889601788153e-05 -3.149672909841011e-05 -0.03239100218259833 -0.05406619676019898
0.159 0.2071985063345434 0.06337783491963461 -1.595753498444004e-05 -8.531980602535827e-05 -3.6098210006212844e-05 4.3766307342700525e-05 -0.03729520311753644 -0.050864239070734237
0.16 0.21320892939893807 0.04557349600912027 9.746576408334182e-05 -5.7653606372446165e-06 3.735060711565249e-06 9.870709497903068e-06 -0.042578036116901655 -0.04756087105399129
0.161 0.21723595415202496 0.026898756080270942 3.3108951659831344e-05 0.00014305460729703036 -5.5748948750388076e-05 -2.7871371566506578e-05 -0.04676067247328225 -0.042836533684838786
0.162 0.22012073352094658 0.008466800074455397 8.096824869224849e-05 -0.00010219800765319699 1.0187971036187327e-05 -1.3176494900987806e-05 -0.05139699095819986 -0.0381729488777333
0.163 0.22138640840086304 -0.010631587967017936 8.419224999056599e-06 2.259616192128487e-06 4.298997432564359e-05 -4.600982955689137e-05 -0.05509575847275274 -0.03335075084161123
0.164 0.22080698985954283 -0.030027513631595792 3.977473880282682e-05 -4.841179167994469e-05 -6.036699360594502e-05 0.00011873693752861646 -0.058429278756746854 -0.027771603787061817
0.165 0.21816019061408423 -0.04896216863949186 -3.599368022437058e-05 -4.2777006161198925e-05 8.514288175796826e-05 -3.397697663396803e-05 -0.060878118414525756 -0.021604793210657676
0.166 0.21457110850775063 -0.0681569459884002 -6.249788363690809e-05 6.794362175272241e-05 -9.161671732222367e-05 -6.550047250568896e-05 -0.06321636970304761 -0.015569479406945598
0.167 0.2089804019068522 -0.08709296893172587 9.617318120186679e-05 3.117789822026699e-05 1.0690984109757422e-05 2.9898576356024837e-05 -0.06471111859170096 -0.009112551094683296
0.168 0.20248421077195627 -0.10620183095616449 -7.191303480346957e-06 -1.2098754841455704e-05 2.0688641516436055e-05 -4.672440893253386e-05 -0.06585570799951318 -0.0024885546162997938
0.169 0.19380994689579506 -0.12420557307318063 -3.665393906720238e-05 -9.634967676984666e-05 3.406498282685435e-05 -9.230441423294491e-06 -0.06612219525727898 0.003790871821391154
0.17 0.18274788240628848 -0.14009875811681266 -0.0001033917261075419 9.142301875412722e-05 0.00011695622420010675 3.1543524835799426e-05 -0.06579531889540112 0.010227915295087283
0.171 0.17044510135135477 -0.15648370914320706 6.5545976103976865e-06 -7.62362076238391e-05 6.156541862324175e-05 -0.0001790765401516312 -0.06459497700895825 0.016761790046725174
0.172 0.15777788556936462 -0.17420037290764223 -6.447114430365937e-05 6.76422468766699e-05 1.5194367507872732e-05 4.138586936704178e-05 -0.0629464446874602 0.02331973008133993
0.173 0.14268516944766055 -0.18664818888123802 7.370944097533043e-06 -2.411515192899875e-05 -9.026943791995975e-05 -2.0322403522184596e-05 -0.0605188977499852 0.029629485914153014
0.174 0.12639918556579688 -0.20054259291807605 8.144673232498507e-05 6.896404815184786e-05 5.111418669005465e-05 -4.395547005543801e-06 -0.05778731070956456 0.03577077072298519
0.175 0.10975728217931696 -0.21096467025044813 7.594440628256157e-05 3.784347613394422e-05 -8.88336732751032e-06 -0.00010390299328432264 -0.05416643008920397 0.041469566185431926
0.176 0.08889788459319978 -0.21972801574521977 -6.530072490400495e-05 3.301483244734021e-05 -2.3335151907190537e-05 -8.51575069446903e-05 -0.050181715434870024 0.04688483451838652
0.177 0.06937787760276372 -0.22848388576294631 5.608851798220785e-05 5.3806777764616043e-05 7.22513980580682e-05 -4.839092552202246e-05 -0.045126820201408784 0.05204131475781304
0.178 0.05192027870154611 -0.23495518925458628 2.722326723496028e-06 -2.1897849115335734e-06 -3.5921629726804563e-06 0.00017104251527694288 -0.04002876940636763 0.05636174905192309
0.179 0.029916552549393318 -0.23867189900280456 4.7960079999779555e-05 -7.414497158134875e-05 7.995893350288831e-05 9.197589853021459e-05 -0.034490238555704475 0.060469741026108345
0.18 0.00912547434815046 -0.24413798363299782 -1.1140065452110029e-05 8.9517400486955e-05 -3.548993458621299e-05 -5.640992531737422e-05 -0.028427846553866598 0.06416761642193475
0.181 -0.013324086707869406 -0.24253131280204895 8.956672877898755e-05 7.116984836615674e-05 -8.740550313479089e-05 4.751906054291154e-05 -0.021845847674365988 0.06712558673421098
0.182 -0.03274391069188547 -0.24433673041042464 7.752032591449865e-05 3.660942614817897e-05 7.567926303018186e-05 2.3751532946570497e-06 -0.015452347199353057 0.06898841706017554
0.183 -0.05594419678420609 -0.2397837234505315 1.4802463629809362e-05 -0.00012767473986254272 1.3191894611376098e-05 -4.977659646809959e-06 -0.008440145575808092 0.07093749580588941
0.184 -0.07826778869272573 -0.23719140946096026 3.1411714473052173e-06 7.739251591405632e-05 2.8796441425636546e-05 -8.091518704801726e-05 -0.0009476231089616514 0.07127513392490244
0.185 -0.09998416460338433 -0.2291356952300609 4.3920175885568953e-05 -8.800007898740257e-05 -7.247831559807134e-05 7.2183281444040275e-06 0.006097741123259849 0.07172460119633546
0.186 -0.12027504460321455 -0.2182434644080242 1.3430247042662758e-05 0.00011420529120333413 1.8998841582476542e-05 -0.00014789313605117685 0.013740151077682235 0.07144077315716636
0.187 -0.1399888029559647 -0.20953897331338048 8.996136272445467e-05 8.90339000970756e-05 9.744047969885105e-06 2.6379162365675913e-05 0.02118755414036529 0.07008675582401128
0.188 -0.15800139955993073 -0.19533321861881914 -7.342049596143232e-05 6.718546087976523e-05 -2.9507002144896586e-05 4.137922482133385e-05 0.028424352475067468 0.06794019309085994
0.189 -0.17682191753358642 -0.1805744478809021 6.255344689515744e-05 -1.3932097444405235e-05 -6.862376573406555e-05 -2.3451268417716862e-05 0.035153945923062035 0.06471920603647228
0.19 -0.1935238366050124 -0.16615398633471776 -6.85991074485589e-05 3.7076894279577286e-05 -4.4295127291852374e-05 2.2190413431141707e-05 0.04157082631182 0.061382724961375805
0.191 -0.2065077220191663 -0.14806659222649257 -5.939451286009994e-05 8.31001466861106e-05 -5.062585935187424e-05 -0.00011812342792151385 0.047612268535282457 0.05656564644284853
0.192 -0.22054438891710199 -0.13051890152266252 5.688017415805911e-06 -4.903127144881024e-05 2.593504807369279e-05 8.981112639811211e-06 0.05369620325978279 0.0518750492641731
0.193 -0.2319562370783054 -0.10970712968633457 -6.215144073429613e-06 -2.18432999988434e-05 1.6751186154882232e-05 2.3693810824103336e-05 0.059507176561591206 0.04666548302474498
0.194 -0.241079279330044 -0.0902857487389351 1.121010055275795e-05 4.480506685814106e-05 3.9300193763164496e-05 -3.553430505560373e-05 0.064004828838357 0.040204292873766076
0.195 -0.24943471067529274 -0.06825954967901365 8.945400693254087e-05 -8.925906113933094e-05 4.2908459758140856e-05 -0.0001457317459546719 0.06811743072752678 0.033902684538526795
0.196 -0.25432736075702883 -0.045739234507442356 9.167283135245344e-05 -0.00012618587314026496 -2.746575102968035e-05 -9.300215808764045e-05 0.07114784689758778 0.02682938992820347
0.197 -0.25856564357552636 -0.023296716496699364 1.0630101172452667e-05 4.484284077331785e-05 -9.873134511728516e-06 -4.7000642514614684e-05 0.07394737477947202 0.019281499674770487
0.198 -0.2604217529296875 -3.1892466615368464e-17 -3.629995369843833e-05 -4.253700703432706e-05 9.370198818273493e-05 -0.00010882900608875001 0.07612746905485897 0.011221507353270786
0.199 -0.26062808410423 0.02301687612356388 3.539807774540598e-05 -0.00011755684916772583 -1.2332351762619834e-05 8.744641259781452e-05 0.07735402957466352 0.004000907098273614
0.2 -0.25824617166493685 0.04618959004661603 -3.570724037375548e-05 -2.4987969736368185e-05 -0.00011819350023543096 4.614857031612879e-05 0.07757664944756613 -0.004126280780149758
0.201 -0.2541442602434483 0.06861799788174891 7.069922955835451e-05 -0.0001532485499270359 7.172436220921392e-05 -9.167663523425518e-06 0.077103651212829 -0.012108983708859546
0.202 -0.24783193584183044 0.09027999439010674 0.00015528823668140595 -2.7037774013552005e-05 1.2011022147280452e-05 -8.170824905197323e-06 0.07563845276431995 -0.019765818750147383
0.203 -0.23990250705401925 0.11202771494806706 -0.00010249039363261797 -9.659789339576001e-05 -3.556719614642347e-06 -2.872427917604548e-05 0.07370309044137688 -0.027966707287833924
0.204 -0.23023137765695845 0.13330113036404995 4.590457783876189e-05 -9.690691610896156e-06 3.664708407886792e-05 -8.166553515906729e-05 0.07074170930723796 -0.03527352616354257
0.205 -0.21924610111361495 0.15307267429752477 -3.469741430895659e-05 -0.00014121269288540402 -6.984236408942204e-05 -5.630885249188627e-06 0.06702194157662857 -0.04262063962727141
0.206 -0.20466948752441072 0.1728347873373666 7.4331099090584574e-06 -2.4083392436797142e-05 -0.00010166176714769659 0.00010809917200026884 0.062444885678718524 -0.049255196884413883
0.207 -0.19048973002069067 0.1894535927718577 2.309506006375211e-05 -0.00017198024435158418 -0.00013654459958700545 -4.2275775337834535e-05 0.0576554867835936 -0.0555179513883981
0.208 -0.17442724094060738 0.20781673695261949 2.3569216587246074e-05 6.184056593509591e-05 -1.337201771277652e-05 -1.5630708533831495e-05 0.051435874801306236 -0.06134983710404712
0.209 -0.15610855129978815 0.22242931269030686 -0.00013286398795253748 -0.00010897803406918126 6.392175063344035e-05 -2.9880185790779932e-05 0.04522119894716068 -0.066572210441759
0.21 -0.13655636041727293 0.23693272688190953 -2.152231660059905e-05 5.192942489297952e-05 -7.225971514327768e-06 -7.799767488330452e-05 0.038255148789113465 -0.0709524669749846
0.211 -0.11621341846128569 0.24820360558443713 -6.336417458139869e-05 -7.458030416439387e-05 -7.822413504521769e-06 -7.424491035014476e-07 0.03125060286936536 -0.07501131995668446
0.212 -0.09589754085085445 0.2591795712648159 -4.502102513896074e-06 -9.49441005284739e-05 5.10352456795948e-05 -4.422059348405858e-06 0.023462526215299782 -0.07726971975391096
0.213 -0.07274937399421413 0.2676323677127123 -1.0919497655780454e-05 8.739370259622379e-06 -0.00010410391967798258 -9.583854999374524e-05 0.01545733151375821 -0.07998681145167923
0.214 -0.04889307092310869 0.2741160851938657 -2.327321486240034e-05 -2.5982577842779918e-05 2.633370216248519e-05 2.952264762876324e-05 0.007981543378607927 -0.08115140613605458
0.215 -0.025986491609182354 0.2802920859747081 -4.616329425799053e-05 -0.00010630701891444812 -5.1408509717677896e-05 -3.784538782272448e-05 -0.0009000889858652394 -0.08251080728019043
0.216 -0.0014672370701769811 0.28316880620838736 -0.00012995939884900544 -0.00011951033428028561 -1.0536593187912998e-05 0.00013002600039071507 -0.008578894267392376 -0.08205320288912743
0.217 0.023654605158839694 0.2832700524979957 -0.00019000646231156286 0.00010932062500152753 -1.0306513171551583e-05 -7.349444257896907e-06 -0.01662734364667524 -0.08040634437646567
0.218 0.047408540091556366 0.28318366064250694 -0.0001345274228731423 2.75609927888375e-05 -6.33991986115807e-05 -0.0001075801597391764 -0.02563796618591738 -0.07912575415012037
0.219 0.07299575615407851 0.2782587306886694 -8.398728186136332e-05 -9.366186377087656e-05 -2.12313335527534e-05 -0.00013346040621914877 -0.033201821080191554 -0.07603270007646527
0.22 0.09759176305010382 0.27286799836058045 7.670716426022865e-05 3.698141795640171e-05 1.63157936271384e-05 4.246082706323797e-05 -0.04140504876120444 -0.07305528771003601
0.221 0.1221069732025545 0.2629818349517659 4.633466518961133e-05 -4.5913287090136704e-05 -7.702572728073787e-06 -7.804189332804104e-05 -0.048141099238313625 -0.06901265807779046
0.222 0.14669651911669357 0.2536662891827836 -7.077252174837833e-05 -8.708071632775688e-05 8.275943288945413e-05 -5.9479808392512074e-05 -0.05529987121955392 -0.06396670536329296
0.223 0.16664455878883497 0.24088279399131454 -0.00018656175950483694 7.66126479405257e-06 1.0745363113866532e-05 -1.154901075523988e-05 -0.06127233511245546 -0.058304265012989485
0.224 0.1892297304884738 0.22807697619944983 -0.00014676400598128496 -6.015957896974554e-05 7.404727496087964e-05 3.841833529803108e-05 -0.0671526820269707 -0.05233284067261192
0.225 0.21060220223786968 0.21086080873497912 -0.0001023434904467016 6.476920570827976e-05 -6.208309912547701e-05 -4.341273197417561e-06 -0.07215637253175917 -0.045170430582072194
0.226 0.22778817476318525 0.1932772284752437 -1.8060327271761235e-06 0.00017089932566795744 -2.626347511730538e-05 3.056444173430997e-05 -0.07671923565261105 -0.03780773366794086
0.227 0.24610162579024264 0.17409101633365817 5.5606220775267956e-05 8.947648109983278e-05 8.436375827017025e-05 -9.294089222834028e-05 -0.0807012199123001 -0.03073865171521133
0.228 0.26063104758065914 0.1526272269159151 -7.037842544600165e-05 -1.5099872401119489e-05 -6.166048611257671e-05 1.653990134877706e-05 -0.08312134014087877 -0.022515427288060795
0.229 0.27456250094359697 0.12982976019667528 7.444240007571125e-05 -6.0286468766249937e-05 -4.0268246055443864e-05 -7.128688871664184e-06 -0.08553504437655073 -0.01407397350653514
0.23 0.2869667309180373 0.10441965375752499 -0.00019128513366095784 -4.243425838156347e-05 5.1404579730350454e-05 -2.3294280195990075e-05 -0.08678963942119011 -0.005961904219624397
0.231 0.296607881877851 0.07993387585442173 -9.422906068985036e-05 0.00013833308487236088 4.3041074496025e-05 9.27969388123444e-05 -0.0872916388088481 0.0025836075543888915
0.232 0.3018663948486348 0.05363842716994319 1.5166892420415012e-05 4.1520898865520545e-05 2.792581658140128e-05 5.537562273832166e-05 -0.08722919175522913 0.011544447336775739
0.233 0.3093642066382992 0.026901158295372526 -6.559636437527095e-05 5.2090139894079134e-05 0.0001705420796363933 7.2380526647796e-05 -0.08615043970801403 0.020211360543008
0.234 0.30924985794294824 0.00011118360027664742 6.266833875803065e-07 1.746782411010668e-05 -2.7381176943105344e-05 -9.304262615271141e-05 -0.08388589487025659 0.028845852501069115
0.235 0.3103628462716487 -0.028076961384213877 -0.00010190001874605582 1.611891741890801e-06 7.655342989361705e-05 -1.687500339495678e-05 -0.08100919144523738 0.037372539087974284
0.236 0.3076208247534221 -0.05369058965459634 8.537743754216814e-05 -4.0515937849407917e-05 -5.95243433866719e-05 8.08799189726487e-05 -0.07715882078307953 0.044899055616818964
0.237 0.30212661379568706 -0.08179685393300125 8.558555725259555e-05 7.525804420261378e-05 -6.050841612504566e-05 -6.182625049572296e-05 -0.07273442172823497 0.052935621363057364
0.238 0.29496092221383924 -0.10779559606833522 5.6454179427626015e-05 4.472686057759806e-05 -3.8837527914298716e-05 -2.278441861777438e-05 -0.06746949215143533 0.06007023132830032
0.239 0.2848927954265168 -0.13385996010245155 -5.902291084451147e-05 -6.073397043614676e-06 5.109382327330456e-05 -0.00010105953750289901 -0.06140549327001296 0.06646444203256882
