!Created with skrf (http://scikit-rf.org).
# GHz S RI R 50.0 
!freq ReS11 ImS11 ReS21 ImS21 ReS12 ImS12 ReS22 ImS22
0.13 -0.1382358575516204 -0.12132966587548837 0.0002680625713142053 0.0015670726848767045 -4.0928179883505686e-05 4.526880770127144e-05 -0.01836177046419378 0.04961544370118466
0.131 -0.14804143287378288 -0.11026506197019413 0.0005009672268841363 0.0016184417468699237 4.707883821209633e-05 3.87387704392959e-05 -0.01376833772538998 0.05156690757250264
0.132 -0.15809028295591634 -0.09944642112010006 0.0005321667238204548 0.0015786663313447056 0.00015020588947566675 -1.9180800762629117e-05 -0.009014957892403117 0.0530050963483072
0.133 -0.166664618188863 -0.08661574139116952 0.0009559048809187467 0.0014667048276904473 -1.977079280810797e-06 -4.9124749952461215e-05 -0.003985933961531335 0.05413660356542953
0.134 -0.17475143140561786 -0.0735877489412162 0.000985921334414989 0.0013020710948730657 -5.7924779017133485e-05 3.1830018747352234e-05 0.0009927444687046802 0.05473571847114276
0.135 -0.1816455444180261 -0.05904759923129157 0.0010434636419994674 0.0013370750902959752 -2.934431187912438e-05 8.660070505843384e-05 0.005974006545656868 0.05482455736946777
0.136 -0.18693018728060037 -0.04495884862547093 0.0013087343158081027 0.0012674561496249482 3.2798972958474394e-05 -5.1967523104345904e-05 0.010927325016380924 0.05441171972343642
0.137 -0.19210983217396543 -0.02938085048768973 0.0012765896321222578 0.0011978642314882208 -6.795052533228392e-05 -6.59241404334675e-05 0.016160318515801696 0.05350973533744875
0.138 -0.19488757640724894 -0.014509369340669447 0.001405541401797572 0.001085224178060246 9.798861558294654e-05 1.4751229014381325e-05 0.021564513165563348 0.05214175939741714
0.139 -0.19679126749309275 0.0018783842999526667 0.0015839018356383155 0.0007660144822676847 4.544487377907e-05 -7.407424848019765e-05 0.026207402783951377 0.0505246337901112
0.14 -0.1976788095770434 0.017457630047530766 0.0017952678947283174 0.0008313058025457993 -8.78693242477105e-05 0.00011158683376878143 0.030939215093978782 0.04831368977756104
0.141 -0.1969017206895218 0.03344705559466998 0.0017433053089607312 0.0006829333899573115 1.0839976349764128e-05 0.00012638210629510078 0.03543922323424891 0.0453952131311281
0.142 -0.1949098729684563 0.049925386313799974 0.0019103000594032475 0.00029717385685712456 6.81366324618732e-05 3.73266632950342e-05 0.04038195150232829 0.042495636384691934
0.143 -0.19143452233108607 0.06597459291079714 0.0017903481475152454 0.00022146897690623093 -9.045585928560148e-05 -7.814444387729855e-06 0.044388211267581995 0.038777763138121014
0.144 -0.1869112735503153 0.08160490220577857 0.001980871979758233 7.604924311506807e-05 5.286136930421582e-06 0.00011277855559648246 0.04786273620910335 0.03470705237954692
0.145 -0.18042870826866927 0.09682105884162817 0.0018406844689917944 -0.0001345863229511934 2.701908391068729e-05 -1.6027937197849333e-05 0.051578277272965815 0.03013849657382963
0.146 -0.17427151334997878 0.1117930965509387 0.00203825870097539 -0.0002740429344266678 1.4676775984486285e-06 2.107134392775312e-05 0.054390107820517127 0.02573481560361872
0.147 -0.16480643722111568 0.1260325244357813 0.0019656023528889202 -0.0004567602212747388 -7.689318944694646e-05 1.210346224434542e-05 0.057107634955519154 0.020457597089755586
0.148 -0.15492288009418345 0.14037544131073926 0.0018437860585337176 -0.0006796017019251967 6.717905691482137e-05 5.1196272482832144e-05 0.05925636702661151 0.015036299273229388
0.149 -0.14486504599790223 0.15412235731354265 0.0016084395017895716 -0.0009495862742030559 9.604538458399192e-05 5.6359175084564e-05 0.06050546061308832 0.009803662073576079
0.15 -0.13220092470422706 0.16407631540218098 0.0015151806507986269 -0.0011714442497100784 -7.554930980527703e-06 -6.46678661767893e-06 0.0617862928082928 0.004069518449456491
0.151 -0.11829982931830893 0.1769959564401108 0.0016184535073778472 -0.0012352345133046737 -3.3624625379648066e-05 -9.632833699287107e-05 0.0621332921336733 -0.0015595934230220835
0.152 -0.10486220812936858 0.18566807421026535 0.0013680443798846306 -0.0012998219208062156 -2.4646479660855293e-05 1.7943827215583112e-06 0.062150456813072935 -0.007417761901436513
0.153 -0.09034794216199883 0.19640229699034797 0.0014288052102444135 -0.0016461440535251106 -8.318098213507921e-06 7.570131078749184e-06 0.06166459041403844 -0.013305074973766123
0.154 -0.07566763186349677 0.20208821113710518 0.001159210947621425 -0.0015718442726455751 -2.4011383465294055e-05 9.067159784757059e-06 0.060509952019720765 -0.01902656921249045
0.155 -0.058608571961043944 0.20846298900209928 0.0010385225634701838 -0.0018217915341909312 7.776571635243753e-05 3.0252114961192544e-05 0.0588818087427176 -0.024890864991969984
0.156 -0.04170156224486092 0.21344802973747518 0.0007793708396694525 -0.001933183346069476 3.5092397712185486e-05 -7.997530320610064e-05 0.05667474692917546 -0.0302113632679915
0.157 -0.025669397766321916 0.21866755646536087 0.0006770806522347799 -0.0019637750607771516 -5.935673609319598e-06 4.267777716665049e-05 0.053635641302540005 -0.03560329140274873
0.158 -0.00898128485089109 0.2198025476687714 0.00048573604251713577 -0.0019850393656264233 -0.00011890562119019215 -4.1942542685205157e-05 0.05060514471973389 -0.04061492256870592
0.159 0.009570035894075676 0.2212668332116485 0.0001628897869018436 -0.0020307644504885744 0.00015140804563469948 -1.0770970100873606e-05 0.0468759728691467 -0.04530776312820127
0.16 0.026413099406412933 0.2200774519639405 -6.9145658970159565e-06 -0.00198863734722128 -0.0001489600851549823 7.34084897846827e-05 0.042878689875177914 -0.049643271901070186
0.161 0.04427210096333703 0.21798465362310188 -5.5457912133270276e-05 -0.002174504830500536 2.8511753388871946e-06 3.506591939985642e-05 0.0380417931087403 -0.05364145375700856
0.162 0.061034473055002966 0.21489695325854502 -0.00039236153248661435 -0.001954422347765665 9.362843888908488e-05 4.936834683607661e-05 0.033140847486707606 -0.057338419550230516
0.163 0.0786675668644219 0.21053722794058308 -0.0006333326959374363 -0.0021205640450091896 5.528456024493208e-06 6.284509187710557e-05 0.02787196709931763 -0.060383159512128144
0.164 0.09656164012378411 0.20441477940703717 -0.0007150474798997068 -0.001910099050029047 -2.0563760268205314e-05 -0.00013928379528861253 0.022288079254387427 -0.0628578664749299
0.165 0.11286747892318211 0.19859126111673825 -0.0009276204052638624 -0.0018481959244535853 1.1740712112838477e-05 -3.6017186816197695e-05 0.016414068755340783 -0.06530192229776498
0.166 0.1279821994998249 0.18983911157878267 -0.0010501012988062713 -0.0018483952115146232 -9.49774775729036e-06 4.987761055377531e-05 0.010411979298794968 -0.06673954514838974
0.167 0.1433216819263683 0.17927511716960853 -0.00129272117699833 -0.0016700429031480555 0.000103309252278541 -5.664532956071967e-05 0.004572762537629639 -0.06744158910803687
0.168 0.15760460121034858 0.17026267255543276 -0.001362469134156541 -0.0015357665090495473 1.5501663478634957e-05 -6.478306691961649e-05 -0.0019599534430318416 -0.06826639544816274
0.169 0.1706828441910778 0.15699173047273132 -0.0015351766752794128 -0.0013489082110228294 -3.762726847446348e-05 1.668516010476215e-05 -0.00793053611251431 -0.06791699945054651
0.17 0.18320493376507785 0.1449747446427465 -0.001689462057143923 -0.0012458633407822083 2.467851662406293e-06 -1.4291984729485334e-05 -0.014599291355886 -0.06719606875141773
0.171 0.19473297697498518 0.13097271694203455 -0.0018467488574102262 -0.0010102146804203626 -0.00013025468718426368 2.5134677148101338e-05 -0.020726410595806558 -0.06604967543848785
0.172 0.20609513488379938 0.1150914182902092 -0.0019136870767822865 -0.0008955457405964556 6.829530487396815e-05 0.00010780941382074754 -0.026621300819273674 -0.06428190083729032
0.173 0.21498966140828146 0.09963191348464014 -0.0019544684393244206 -0.0007328728378451271 0.00017061286376194077 -3.2617878013995896e-05 -0.03233723271947538 -0.06187185859115224
0.174 0.22450196122942 0.08303187724016355 -0.002022260284748302 -0.0004549827554295738 -3.9865843747135526e-05 7.280702582600229e-05 -0.038091018452907216 -0.058892074495520134
0.175 0.23099456974222296 0.06503458815950634 -0.002133058100834352 -0.0002900002347430111 1.3711397359010774e-06 -7.144884262222225e-06 -0.0433961481810272 -0.05541982168977081
0.176 0.23657940087954246 0.047817763106063595 -0.0018839298644761147 -0.00010800815987629462 -6.445789482275776e-05 -3.756718043563868e-05 -0.04829902425850107 -0.05111944749280144
0.177 0.24112894483864444 0.028807283576457933 -0.0021506231129358126 -6.893634350526513e-05 -3.4617313942437135e-05 -8.19724859544827e-05 -0.05310731527338291 -0.04723122812177546
0.178 0.2436772838614255 0.010156520742969664 -0.0021533037303022562 0.00019874912152981618 1.2659287226296496e-05 6.94120483012671e-05 -0.0567860338779512 -0.042247562099271684
0.179 0.24478362955486999 -0.008798675930779107 -0.0020759016868753363 0.0005529003412055423 -9.930093210803904e-06 7.867849728211586e-06 -0.061107131424088704 -0.03709211887102048
0.18 0.2448563988735147 -0.02813568934240364 -0.002109039871650812 0.0005886065252513973 -1.0946008458418954e-05 -6.957077497410817e-05 -0.0642001140615764 -0.03191068605636659
0.181 0.24318883567173427 -0.04735715833864182 -0.0020999036602167543 0.0009280838757614373 8.901561623469579e-05 6.407746718705211e-05 -0.06700371068464137 -0.02606683645122987
0.182 0.2400633236249948 -0.0669126621562487 -0.002119939859059027 0.0010933041383029243 7.0155467359916535e-06 5.600041657089892e-05 -0.06974910178809694 -0.0198870636995664
0.183 0.23530241040801442 -0.08597932438944211 -0.0018401641528242923 0.0012459579829538752 -0.00013628402905314904 7.318016140982352e-05 -0.07122791153959934 -0.013936037617908674
0.184 0.22918735221306738 -0.10539168799581393 -0.0017905139027494855 0.001312483747011201 8.434512692103214e-05 -5.547191673622427e-05 -0.07272269941055631 -0.007042433443321431
0.185 0.22119407694031554 -0.12363702415566619 -0.0015430144364995471 0.0016273306127844948 -3.716055026435029e-05 -8.8617854059634e-05 -0.07340430263516715 -0.000530484067891675
0.186 0.21296799118526957 -0.14186004319101025 -0.0015671357929749952 0.0018062625786000475 5.202089530570206e-05 8.072425457830301e-05 -0.07335269915613436 0.006175714461323838
0.187 0.20047069084704938 -0.1588599592884739 -0.0013139156381730863 0.001859685584521757 -9.14365440073147e-06 4.294552158946643e-05 -0.07292227725968357 0.012724925538570703
0.188 0.18862518141552312 -0.17503226700028438 -0.000998077725104783 0.0019987619800956083 1.2063732658572774e-05 2.0230200269208973e-05 -0.07185807637605271 0.01946449962143054
0.189 0.17465555825535772 -0.19044663287512342 -0.0010040642910319796 0.0021834628583086205 -7.743938664036095e-05 2.033164381203469e-05 -0.07007546714858515 0.025917357487503078
0.19 0.15850835195620197 -0.20419821396965748 -0.0006353154286127339 0.00204506537388145 -0.00012177183646926791 3.320819923805042e-07 -0.06793549687453188 0.03232401102329785
0.191 0.14336352460373808 -0.21925203734013304 -0.00035133668548677097 0.002269292250516142 0.00011806453251439171 0.00010419665912760959 -0.06514276707977229 0.03834809724221618
0.192 0.12664081613161696 -0.2313029518638825 -0.0002197812130380778 0.0022408729624583995 5.289436254627238e-05 2.439447414091888e-05 -0.0614116076331146 0.044070334760152395
0.193 0.107418081666853 -0.24099959844194294 -7.164817791968829e-05 0.0023450637580463107 4.288354516544571e-05 -5.301956143835676e-05 -0.05778907958498395 0.04975308092135911
0.194 0.08812385467969275 -0.24944845462196108 0.0001306944286110186 0.0024180881541137574 -1.44704229910172e-06 -0.00011990836364353197 -0.052887157843937764 0.05503593821063196
0.195 0.06808403841850101 -0.2568933227666988 0.00030354253489425515 0.0022815898894863467 5.508652218714138e-05 -3.934101911740033e-05 -0.04810850975769906 0.06034545203823338
0.196 0.04515674208007098 -0.2617275257546627 0.000663280315890635 0.002264115524340255 5.580198757637832e-05 -6.015198851005586e-05 -0.042678776028200666 0.06419493497809525
0.197 0.02564237258984009 -0.26841600725381654 0.0010038287955328276 0.002298783959907614 2.619019401922098e-05 -4.441710443658917e-05 -0.03692536176369084 0.06834102026163286
0.198 0.003701577152116762 -0.2701009799810796 0.001128967989477465 0.0021352055043196137 1.9729879222961438e-05 2.6596977452130964e-05 -0.0304554286799733 0.0719940076795833
0.199 -0.01838383697206784 -0.2708612198291314 0.0014365783771916232 0.0020275744738919295 2.7907407282912452e-05 6.130365853593832e-05 -0.02406481453462929 0.07487944886868188
0.2 -0.0404254861761941 -0.2697384078948283 0.0014630486385295734 0.001986244786901449 0.00010862859221924155 -6.927463616187545e-06 -0.017238907585635496 0.07671940612800429
0.201 -0.062203201834391 -0.26595493643601803 0.0017201862577650837 0.0018131931764748573 -9.499820644117493e-05 2.1754767217951816e-05 -0.010080768445676744 0.07847196644936395
0.202 -0.0831003873050228 -0.26058419197663174 0.002002295712238376 0.001667255668099408 0.00012591101394551692 -1.549641821534575e-05 -0.0030278818121498422 0.07926882174955464
0.203 -0.105997389014804 -0.2519077945105301 0.002087855104375621 0.001449240170376153 -2.097496378694227e-05 -4.0535126334743025e-05 0.0040055854079421365 0.07976016959935492
0.204 -0.12487055870445356 -0.24355150649854143 0.0022578342934011044 0.0013120927778590558 -3.4557338412536446e-05 -0.00010330440291674256 0.011725517038917154 0.07975870656658103
0.205 -0.1445070544867863 -0.2344485274621864 0.0022969538592309668 0.0009909794432478327 -4.217945581858001e-05 -3.8428740425338485e-05 0.018638556435470247 0.07843569533577592
0.206 -0.16258087346970002 -0.22358098759830683 0.0023771927479376074 0.0008332908037880525 -5.151193249837674e-05 -3.1769801115418896e-05 0.026100619628625858 0.07600364180660911
0.207 -0.1826174488391624 -0.20772051449542067 0.002535597897296819 0.0005981716921339326 3.441832299876269e-05 8.93712847936137e-05 0.03355709037603443 0.0746026080156953
0.208 -0.19962037568188506 -0.1942494758393283 0.0024468565204558037 0.0002206400037474372 -9.800114729789153e-06 -3.456809492635387e-05 0.04023711663008885 0.07113017746774902
0.209 -0.2142026541266703 -0.17682045291979268 0.002563012462961237 0.0001946162172167427 2.9487596399708737e-06 7.028655394926254e-05 0.04700744229336053 0.06760336952472239
0.21 -0.2288573953908049 -0.16113288366756104 0.002627201828806413 -0.00023290766069956998 -3.638733000441863e-05 -3.9677205511694054e-05 0.05336284529235038 0.06304345391870039
0.211 -0.24033096123721745 -0.1418749117762775 0.0024830596701021614 -0.0003276760354101073 -3.4981456440897397e-06 2.5084608511777526e-07 0.05929963616701683 0.05799213914864266
0.212 -0.25204493784141196 -0.12195353917069772 0.002516594511829795 -0.0008393706481560024 -3.786545545924512e-05 8.055655657128536e-05 0.06471005252760452 0.052807827629192984
0.213 -0.26238643781951104 -0.10253107510114597 0.0024693830043679066 -0.0009776297353918848 -1.1611820566575974e-05 -1.3178992616563041e-05 0.06924344486950013 0.04673277271836581
0.214 -0.2703689645436445 -0.0813718222893247 0.0023850724109781094 -0.0011312903819566981 3.434143464639202e-07 -2.116245063046205e-05 0.07390948503441805 0.03994057121087471
0.215 -0.2767122509727004 -0.05854101227361283 0.0024400121146065765 -0.0013263805062340391 -0.00011941685954401063 -8.099860805995016e-05 0.07755236080415326 0.03341781522070984
0.216 -0.28148540989125886 -0.03768318754806331 0.0021230145002430717 -0.0015726286694995064 1.1672066976240593e-05 -8.04603130620571e-06 0.08095290464351873 0.025875205260705532
0.217 -0.28398922360282025 -0.015155063882367422 0.002027328440657053 -0.0017064368958163401 2.156184777983617e-05 5.49929467647663e-06 0.08301097403294438 0.01829401698353144
0.218 -0.2856035406564268 0.007634673537807337 0.00178014505160931 -0.0019379075413914293 -3.733543394945586e-05 -4.6079721479847135e-05 0.08469775187549185 0.010376131106744289
0.219 -0.2855682402020082 0.03072324834704481 0.0015295259166758393 -0.002135680819671164 -4.6194170779315696e-07 5.64623354173677e-05 0.085774689381891 0.0025171270671803655
0.22 -0.2829244766653912 0.05355503321081223 0.001380117117971328 -0.0024008168364383084 4.112060304290066e-05 -0.000101977178964428 0.08598933749871919 -0.005214649788245009
0.221 -0.2787427656268034 0.07550422624209764 0.0011905257051536137 -0.0024222601313876376 -0.00012979212141836938 -6.837735046481486e-05 0.08534801263119167 -0.013533455079821717
0.222 -0.27368694717621617 0.09788466166498673 0.0010745335026398446 -0.002536729936798039 -4.5129920783328525e-05 -3.1153031832122114e-05 0.0841584263291942 -0.021712059737562902
0.223 -0.26533848816407307 0.12048504670837645 0.0006193869886168876 -0.002697117786970556 5.256500448917131e-05 5.896690337263337e-05 0.08208371994005279 -0.02970028400567131
0.224 -0.256628594601234 0.14170312204664504 0.00033937273800869496 -0.0026149794982099606 -6.693830965888312e-05 -6.503076082696604e-05 0.0793697610765484 -0.03720690056618127
0.225 -0.24504987157684038 0.16214692441217426 0.00014756413934616797 -0.002834176621662989 2.8234435944304125e-05 -4.446287558798353e-05 0.07562464807440865 -0.044409270807055354
0.226 -0.23374744897248959 0.18267485506926648 -0.00016593588188303418 -0.002719112208627321 3.482906522533279e-06 -2.144112714061336e-05 0.07156968818523488 -0.05146726224634622
0.227 -0.2186236087601489 0.2005511004407404 -0.0005025215468489319 -0.002715496256711143 7.382941542331675e-05 7.208839303065722e-05 0.06660570497798138 -0.058299262304074735
0.228 -0.20288861802717992 0.21733363150870671 -0.0005886912258981793 -0.0026778694488141797 -1.9612444292345404e-07 -0.00016921747286245087 0.0613187646526215 -0.0643435961056304
0.229 -0.1850264338796854 0.2331969412971683 -0.0008237025202670087 -0.0026883087718519993 -6.705693002037525e-05 0.00023088196945422588 0.05510215768927401 -0.06989675381206337
0.23 -0.16640802450575748 0.24996847093339528 -0.0011706605866292621 -0.002640967966313798 0.00010037305292139411 -9.912162502021362e-07 0.04850772727103634 -0.0750926158865406
0.231 -0.14715274807480463 0.2641100551204819 -0.0012701167747209386 -0.0024301549288865427 -2.8045225700750708e-06 -4.8976253456971414e-05 0.04167205075013946 -0.07915969460224646
0.232 -0.12623883084442947 0.2755607424556106 -0.001683228173406561 -0.002245163144211063 -0.0001303551306307657 -0.00018047717999788635 0.034148376095961795 -0.08312993871656293
0.233 -0.10511091900071333 0.28928069754447305 -0.0018045928624231536 -0.0022031875896740046 1.7820817816299597e-07 4.931879629432381e-05 0.026194036662791187 -0.08601229408439175
0.234 -0.08063077116366263 0.293619332685328 -0.0020519631255275905 -0.0019218731940874342 0.00012068347532623903 3.278720751268299e-05 0.017930068133356312 -0.0884996446142151
0.235 -0.05920055559684348 0.30433889625009347 -0.002147562813479293 -0.0016991832352455927 4.0217906310364835e-05 -2.4561724521838955e-05 0.01018399813123798 -0.08971005519353516
0.236 -0.03459090779572283 0.308460828255396 -0.002370398654737565 -0.0014619349376504569 3.448404905190973e-05 1.1094183495500774e-05 0.0015242111579203276 -0.09087238038244054
0.237 -0.010001797437008278 0.31336276265181956 -0.0025402336212038755 -0.0013214815816084153 -2.4369801605370487e-06 -2.794257405111816e-05 -0.006770120421880296 -0.09101900858836673
0.238 0.015411514409722514 0.3137085826191295 -0.0026656666343834994 -0.0011642548524692384 -4.058511590980371e-06 9.899466174376362e-05 -0.014404961984333014 -0.09015357234154539
0.239 0.04098110052547747 0.3140950087356162 -0.002714324687920923 -0.0007783200797125411 2.8771676864098298e-05 -0.00015715070089293071 -0.023200837360601155 -0.08856423836575483
0.24 0.06661014837003286 0.31056395393798225 -0.0028623190383299437 -0.0005782820812228628 4.786879999403239e-05 3.675219458216524e-06 -0.0313388653199719 -0.08628581661750855
