!Created with skrf (http://scikit-rf.org).
# GHz S RI R 50.0 
!freq ReS11 ImS11 ReS21 ImS21 ReS12 ImS12 ReS22 ImS22
0.13 0.06394054311702489 -0.1727017535656264 4.258954337035246e-05 6.74442890850746e-05 -2.274629596620159e-05 5.784890429391737e-05 -0.05258814372255068 0.008094089472110608
0.131 0.05263239392337829 -0.1785777853258128 -3.913109220994143e-05 -9.51489789209392e-05 -7.715397855074485e-05 6.77926110108707e-05 -0.05195881343539147 0.012264590772300365
0.132 0.03977827973732736 -0.18242771341669564 -2.0039866769429887e-05 -3.155589821680371e-05 -1.468361081246509e-06 -9.282634671822413e-05 -0.05114245756777083 0.016933867177932407
0.133 0.027312945974527724 -0.18747397033843965 6.38269202441476e-05 -2.8783344103456584e-05 9.190652749532465e-05 -4.4210790039793404e-05 -0.04993037186354555 0.02144371627088321
0.134 0.013295741768965924 -0.18976611813831942 3.755741506231914e-05 7.317942677928242e-05 -1.2456594160961504e-05 -9.617786528714735e-06 -0.04827192625799194 0.025607568064526517
0.135 -0.000790368797462952 -0.1900465742812112 8.304993001768727e-06 3.805025231574633e-05 1.406754496401658e-05 0.00011748343935811265 -0.046308661305121214 0.029599612533211955
0.136 -0.014215417990511887 -0.19271371983915608 -5.985854038173856e-05 -1.718182771672157e-05 6.72439030566862e-05 -3.865841919180304e-05 -0.044103833151873106 0.03345199395873826
0.137 -0.02682537817310259 -0.19249100390631177 7.127000363555666e-05 9.397703942585775e-06 -2.9086573666810726e-05 -3.299405548341597e-05 -0.041542366227745646 0.03753846620309853
0.138 -0.04100701064483103 -0.19081088631064444 3.517980617249823e-05 7.079531829420703e-05 -7.559467478401474e-05 5.5036573231062635e-06 -0.03845630066987096 0.041003308982408955
0.139 -0.055817682179249144 -0.18900502289234564 6.994524395669199e-05 -1.3215920631576283e-05 3.6636134803989775e-05 -4.121670462937317e-05 -0.034987356410570145 0.044668675874993395
0.14 -0.06871446265605763 -0.18497603474588117 4.74470906152572e-05 4.306249339287498e-05 -7.717861196681726e-06 -1.1943204697856326e-05 -0.03146488158558157 0.04779269978969457
0.141 -0.08207471733655021 -0.18048769030912473 2.6843426290227155e-05 -6.378250418134734e-05 -8.171093997317996e-05 0.00011595343824901961 -0.02722179932213072 0.05062083801365464
0.142 -0.09649489207102097 -0.17563132262986764 -6.711446045860967e-05 3.969385171127389e-05 -6.823976954676664e-05 2.446907275737947e-05 -0.023179049503235873 0.05328829289669403
0.143 -0.10954644785759556 -0.16952049503673683 9.796572535136818e-05 -7.576240295768219e-05 -1.573382392312897e-05 -2.3815397047752078e-07 -0.01915279419765918 0.055122728340177514
0.144 -0.1213831865263665 -0.16366628075244954 0.00010848320403888316 6.059815741271353e-05 -3.166741518216958e-05 -6.288032150051517e-05 -0.014469860064906368 0.05715483560198352
0.145 -0.13437512403408156 -0.15526372716549386 -2.466914415333497e-05 7.161267441758384e-05 -6.725071663954052e-05 3.893733615754278e-05 -0.0098054266093111 0.05837486023497958
0.146 -0.14606517621496565 -0.14523106729849766 0.00010766116504428516 0.0001233311151218641 -8.887216664106936e-05 -3.590668606978435e-05 -0.004603543981244821 0.05963703702780317
0.147 -0.15761508243780517 -0.1353984502463284 5.97462308051042e-05 1.7607954443243372e-05 -0.00019803733444396853 -0.00013806445867817373 0.00042064309713381207 0.05990071423119033
0.148 -0.16806481403063434 -0.12492976160211233 0.00019465894123964176 1.5179787580689965e-05 5.36131492359109e-05 5.777749826502584e-06 0.005029957281660306 0.06008684735913924
0.149 -0.1781556747530297 -0.11421617449032556 0.00010170030549627882 -2.737967679560694e-05 -3.5584211259865935e-05 -5.3231963158157504e-05 0.010467161115520008 0.059983787148625047
0.15 -0.1859778099894649 -0.10160244921734474 0.00010558212615383966 5.742665051282985e-05 -2.2318431990830628e-05 9.661164638252434e-05 0.015677294773570244 0.059480650312798464
0.151 -0.19525621307727775 -0.08872628363516295 6.829547659222496e-05 1.9748546681089894e-05 0.0001005275098333577 6.15467871818204e-05 0.020882054304304364 0.05806174716779302
0.152 -0.20156394167236844 -0.07567508973829253 -1.7565004443341157e-05 -4.3714988393843965e-05 7.5057764645196e-05 8.931424665958877e-05 0.025564024090301323 0.05658511907966801
0.153 -0.20815947124278994 -0.060119043416842245 5.373472570735429e-06 -6.220046552467566e-05 8.098258906406527e-06 -1.168804857515121e-05 0.03063931299959746 0.054535869584182176
0.154 -0.2128126897732393 -0.04505279203790688 -4.8609713670338465e-05 0.00010396614941846663 5.109342712062851e-05 -0.00013383878961461927 0.035501641404593096 0.05214114414812924
0.155 -0.21700738691495094 -0.02971425642022991 7.132597937064967e-05 -8.60819889603377e-05 8.394574059596689e-05 6.106888362307933e-05 0.0402118077455513 0.04943997252785204
0.156 -0.21949513274568966 -0.014687073915774724 -5.835292588159146e-05 -7.104396461177833e-05 9.031176608089085e-05 -1.9613442202969304e-05 0.04414140633782653 0.04616109023517921
0.157 -0.2218615039213925 0.0007562946729684967 -3.1364435752023243e-05 8.995184751449437e-05 -5.596799124548704e-05 -3.5644814971128146e-05 0.04864442399623455 0.04246970524647048
0.158 -0.22199288569419823 0.01707533187614816 -4.0666972613731856e-05 -6.266840472561826e-05 -9.250102443203924e-05 2.7400051734587116e-05 0.052116847288533094 0.03859193866213177
0.159 -0.22186902131148106 0.0333750772049182 4.985716934091735e-05 -8.078968662648064e-05 -6.697762052787269e-05 0.00010137224333137488 0.05583395352553365 0.034075182455184524
0.16 -0.22017335600858584 0.049189359326714414 9.763098699697101e-05 3.5864918064687844e-05 -0.0001033923186335545 -1.2737914048089627e-05 0.05878489902985402 0.02949445253293414
0.161 -0.2174587595962606 0.06489830843828867 -6.453946963796781e-05 -5.0155036928132166e-05 -4.29639101128783e-05 -5.748658728179147e-05 0.06134559689842537 0.024802259372966626
0.162 -0.21245620977572494 0.08142137423813463 4.038830755271678e-05 8.159764707728356e-05 6.33414282183002e-05 -3.057224227346991e-05 0.06372039263325603 0.01933529995648468
0.163 -0.20756788955048097 0.09713528487848822 4.538522140928464e-05 4.1011681460219215e-07 3.54126359816218e-05 -3.2301221095751504e-05 0.0659322008889316 0.013664098756594044
0.164 -0.20105459757802185 0.1135341790161214 -5.635376846853909e-05 -2.787663007417022e-05 -8.851943069946098e-05 1.0832065476704056e-05 0.06693586430921865 0.008262121752753829
0.165 -0.1927656386430437 0.12668356704232095 -7.660524617572347e-06 1.818825189846898e-05 -3.0736316627200924e-05 -3.209005156801444e-05 0.06776029486411353 0.002389946703058698
0.166 -0.18493122536639892 0.1405453941794067 7.445436125837205e-06 3.6621046383622075e-05 -7.749771818761599e-05 -0.00019709398352566238 0.06815462458266638 -0.003199334083798959
0.167 -0.1745789343017794 0.15521992768992357 -9.83110453493161e-05 -4.0345356264850914e-05 -1.8500343400383476e-05 5.541722889467623e-05 0.06795057630921743 -0.009132680875860515
0.168 -0.16552534484433026 0.16848576284452912 0.00011299587464226437 -0.0001120981162525612 -0.00010156163677939401 -2.9692688062817917e-05 0.06756749745792562 -0.015059117138423582
0.169 -0.15281068723811927 0.18075702622777293 -7.737666094861923e-05 0.00010785471180783062 1.287985360218411e-05 -2.185542937899334e-05 0.06620168349050384 -0.020980045653830937
0.17 -0.13975183087849213 0.19081560952169455 2.2700100309452076e-05 5.017291679863283e-07 0.00014993935540834382 -3.250552127708132e-05 0.06477862497108748 -0.026697755856128384
0.171 -0.12668297837442874 0.20196832407680318 -8.415310696029845e-05 5.274438348245638e-05 7.269953934966801e-05 -6.501159335560668e-05 0.0626430036190718 -0.03221734931905837
0.172 -0.11387404173876864 0.2105164343534887 -8.25717138624854e-05 1.722872503736317e-06 2.891594382033249e-06 1.4192827814634904e-05 0.059941293014210244 -0.037529387496077544
0.173 -0.09900409191881765 0.21862562612207376 2.8511159794720918e-05 -4.0701841160741704e-06 -1.5342946522573674e-05 7.752082769382291e-05 0.05679032572520963 -0.04292219530899094
0.174 -0.08350722326489479 0.22688006530191557 9.588733000545277e-05 1.3962244674348219e-05 7.265359457640918e-05 -1.90195539272203e-05 0.05334510588896368 -0.0476123273754869
0.175 -0.06801136840924452 0.2333956633504532 -7.207528830265799e-06 1.967720610663739e-05 2.8057276667780803e-05 -5.985974710406853e-05 0.04929415968323191 -0.05221546485135667
0.176 -0.05068114367631224 0.23827627105462634 8.937203223622e-05 -9.618102080074404e-05 0.00012797000496822113 -6.502142995095413e-06 0.04487406548047765 -0.05663998124542568
0.177 -0.03435246331302353 0.2447937547913527 7.08742398456725e-05 -0.00010266466651493017 -2.5801952668023762e-05 5.945123681694032e-05 0.04017819945876413 -0.06063974017992969
0.178 -0.0180976055394842 0.24534325237735263 7.097296631687988e-05 -8.540675562574373e-05 2.262221342763419e-05 4.3751396030701554e-05 0.03494492402652368 -0.06406857920732258
0.179 -0.0008964503213844807 0.2480910317589536 2.000573457586235e-05 -2.4987643273115195e-05 -5.699423687074798e-06 -2.057869586145119e-05 0.02962339712353832 -0.06680472405984832
0.18 0.015946364669605837 0.24901691905090254 4.126506487992133e-05 -2.806756905636066e-05 -0.00011900437403043163 -7.590542912907055e-05 0.024237152488640896 -0.06943496221333485
0.181 0.03296902923365572 0.2482013768975182 8.539238793591767e-05 6.41819765764948e-06 1.4509803437746847e-05 -3.835320774794923e-05 0.01827520140995405 -0.07161079313752976
0.182 0.051516211061726165 0.24708224133228465 4.8141243478846235e-05 6.327312893481102e-05 6.930482769130845e-05 7.55863781494219e-05 0.012517569984108629 -0.0732368134020231
0.183 0.06885216983214855 0.24204559292705075 0.00011581588327915936 8.715783624839313e-06 1.3146603750730546e-05 -4.558947017791611e-05 0.006242921801163083 -0.07415096141569744
0.184 0.08731412518032369 0.238274859685096 -8.276782188969049e-05 3.742002681469108e-05 0.00014686972906516205 -6.400370129206602e-05 0.000387088732384237 -0.07470602840803237
0.185 0.1016776979246194 0.23397355049599655 -2.928127281244225e-05 -1.6319718314680334e-05 -2.775098285337669e-05 2.81396551999517e-05 -0.00649306445033636 -0.07480341053524371
0.186 0.11794859396068973 0.22815088861146313 6.354264351639896e-05 -0.00010198320974712249 6.847137039676449e-06 -1.867753089603668e-05 -0.012381453246077376 -0.07436232750912308
0.187 0.1360736864099668 0.21915733717404923 -2.384316762059463e-05 3.404169214702052e-05 -0.00010588365479313339 -8.29115401899545e-05 -0.01829870986170506 -0.0734774743405509
0.188 0.15070582248679062 0.21009788693276427 4.488428359897137e-05 -7.004070040254459e-07 -2.5472263369172448e-05 2.0114525728376906e-05 -0.024792480821464857 -0.07166909613318119
0.189 0.16513844344698878 0.20053778217117113 -8.797878732740762e-05 5.272651126869785e-06 -1.3840032778355088e-06 -1.4972372377040963e-05 -0.030693146671149606 -0.07022251493720165
0.19 0.1797704117476566 0.1899565540339537 4.7386977390458833e-05 0.00013536921862790344 4.121675891084115e-05 8.153729134701604e-05 -0.036329599556411525 -0.06741412231591971
0.191 0.19382719342305735 0.17862140234415208 1.289859920710939e-05 8.703705788870705e-05 -8.975575042794835e-05 -0.0001363522201597533 -0.04222669277788256 -0.06431074631800733
0.192 0.20614765931559745 0.16510465838244223 0.00012906732454854767 -8.929626758347657e-05 3.8183592302642605e-05 -0.0001351066974218048 -0.04743147151811544 -0.06104337646821762
0.193 0.21883575233153665 0.1500723738507815 -5.12163415412957e-05 -1.4769220725264269e-05 -2.7319368098382447e-05 4.453343720863021e-05 -0.053105680909568985 -0.057591028086077925
0.194 0.2302792587760638 0.1367786623044697 4.18472355498223e-05 -8.287573418517794e-05 8.264680205792483e-05 -0.00012541300132500776 -0.05705598162790936 -0.05288646534732551
0.195 0.24022364230983564 0.12128300208096415 6.0156279304849754e-05 7.352524303451326e-05 2.99357641379413e-05 -0.00010008346868562137 -0.0617766765015168 -0.0478865303096393
0.196 0.24915746474539274 0.10545047278492163 -9.105459302441556e-05 3.616888355956314e-05 8.0147136034516e-05 -0.00013133027248649043 -0.06548950269496398 -0.04260559497021458
0.197 0.25768887738562074 0.0886360624939518 7.963786374711644e-05 3.0512502737928797e-05 1.3815039633127972e-05 3.231318331180507e-05 -0.06925328089456087 -0.03751592069345702
0.198 0.2648953469144378 0.06969526166034101 3.9206631600082836e-07 -5.476781464353617e-05 -0.0001452815577414535 5.404776735576572e-05 -0.07237997064578394 -0.031918655216614744
0.199 0.2701434846555481 0.051584164513725494 2.4919463539102552e-05 -3.1122834244713435e-05 -8.852981779718944e-05 1.1201086912300693e-05 -0.0751469629868822 -0.02618502713401041
0.2 0.2748582462657698 0.032422363701762456 -2.5873055150010695e-05 -2.7212445529367037e-05 4.3066987165343424e-05 6.496121796386628e-05 -0.07716252578381189 -0.020225217847262746
0.201 0.27752938727671783 0.013287429392493026 2.984151355875153e-05 -1.9434309561523514e-05 2.8809881291772423e-05 -2.9397221646354292e-05 -0.07894815377111832 -0.01324459132735671
0.202 0.2796035339774 -0.006468407558189338 -4.391915521979692e-05 2.183002934754227e-05 2.7188675031754202e-05 -9.874467434440676e-05 -0.08012202245657005 -0.007064814798100543
0.203 0.28012078959843617 -0.026667812314843154 9.722833482440503e-05 7.122962790795808e-05 8.018568958368266e-06 -5.089671535357195e-05 -0.08094338405630369 -0.00033111010296890805
0.204 0.2785087042801768 -0.04537507799121756 -1.1515468105712708e-05 -6.687947378338833e-05 6.506652787157026e-05 4.703003773854566e-05 -0.08082850720873033 0.006350252053037162
0.205 0.27620836867645077 -0.06539380767929788 0.00011107948731241507 5.1300199294893556e-05 1.8899963992830053e-05 -1.1770707246628152e-06 -0.08023700423413145 0.012663436572522705
0.206 0.27213319199580915 -0.08559933325963136 4.421178558688621e-05 -4.033830780342704e-05 5.90996384471778e-05 -6.724211476095991e-05 -0.07941732247279218 0.019433295174510437
0.207 0.26619605984089895 -0.10497798067990702 3.1687267809364505e-05 0.00011704472621876882 6.560219740405062e-06 -1.0877683152601077e-05 -0.07809186824457237 0.026022655243328224
0.208 0.259725672866176 -0.12443207187354476 2.466695962130296e-05 2.4008192755421404e-05 -7.204177746695491e-05 -2.712582031637746e-05 -0.07578854183124827 0.03253684697277475
0.209 0.25144816298922185 -0.14277215254404285 -2.150973073093663e-05 -0.00010642919211485505 -5.00821621888758e-06 2.5859151678447313e-05 -0.07313107835309476 0.03862903680838116
0.21 0.2409649338881852 -0.16096009994548952 3.7038141196927414e-05 9.02697517388965e-05 2.3378939203588042e-05 1.2293641608650236e-05 -0.06991156953966594 0.0447936345981099
0.211 0.23059536222498775 -0.1789990721488755 9.718926050514096e-05 -2.067812649208581e-05 9.959222524231112e-05 -9.579528535531895e-05 -0.06661428004796911 0.05039712060895939
0.212 0.21830835670104073 -0.19526252125853083 9.560465780381199e-06 -3.216282928740129e-05 -3.121715335473274e-05 -2.3785134360929114e-05 -0.0623470532252637 0.056183736289763204
0.213 0.2043122038324639 -0.21113894589529958 -6.432303180240667e-05 -9.192109198550666e-06 -7.625206772727888e-05 5.2728706720574125e-05 -0.05780342800547575 0.06144685363368714
0.214 0.18921258007760622 -0.22632392542871513 9.768242004006223e-06 5.48601725786083e-06 -1.8223631779606212e-05 0.00010253360894522575 -0.052995663237267406 0.06649430729736469
0.215 0.1723874514223178 -0.23985766098677244 5.921246329175066e-05 1.5510585769400385e-05 -1.1042864261783442e-05 5.406482987316078e-06 -0.04744730975237277 0.07105185525943912
0.216 0.15667142951376345 -0.2528506306790354 4.435114594257626e-06 3.0225585388255396e-05 -3.320094174964372e-05 7.865580234748717e-06 -0.04157107820837422 0.07485172389669667
0.217 0.13874614166264854 -0.26502710968261545 -3.907011994051167e-06 -8.483925313530103e-05 -3.486765918550361e-06 2.514539697883419e-05 -0.035238559370088754 0.07862717030039215
0.218 0.1188371264751517 -0.2730012346221607 -1.1267430936655204e-06 -7.686310723899961e-05 -4.816668517645451e-05 -7.826513205180859e-05 -0.0292105434717564 0.0814978381747076
0.219 0.09977309099144333 -0.281323767322895 -4.401178716007642e-05 3.041422900828324e-06 -8.58229493128155e-05 -5.256018277910787e-05 -0.022217984446465448 0.08443657616762278
0.22 0.07884663098817328 -0.2893615662597578 -5.455421861283462e-05 -4.181367001400983e-05 -7.000482924047303e-05 -3.6357324625134876e-05 -0.015233432895104128 0.08591349193876956
0.221 0.06039310754403316 -0.29725651982907236 2.7166292004091317e-05 -7.440964858846636e-06 -5.146038021342757e-05 -3.801356470159764e-05 -0.007917772268668485 0.08774391852824028
0.222 0.03762298187663023 -0.29932632672749154 4.0555212600032414e-05 -3.0101373854824775e-05 -5.001250701490368e-05 -2.2561812528781237e-05 -0.0006788065195361325 0.08810926266833942
0.223 0.016456503578051455 -0.30256182457917274 -1.2477262358123993e-05 -8.722640814668951e-05 -9.861938050064999e-05 -7.668242823709158e-05 0.007069394475124641 0.08897205969442769
0.224 -0.005877475772425382 -0.3056685960570175 2.1398623758964504e-05 8.934633244372467e-05 -2.0440774043368207e-05 2.252732937768128e-06 0.014012886459635554 0.08847388310949335
0.225 -0.026988908986528243 -0.303949388440074 2.290340637927399e-05 -7.323180211272298e-05 -0.00013664066270640372 -2.834355730904193e-05 0.02188480669178649 0.08664189832899706
0.226 -0.048696156463058776 -0.30146650409349285 8.225585418139058e-05 9.111050087834818e-05 5.0082941633574776e-05 1.505742983604367e-05 0.029317686662038663 0.08522023415418555
0.227 -0.06849603679062483 -0.3007081951064161 0.00010603737724627762 -7.177583379340563e-05 -2.7456276757844895e-05 -3.3651603541112724e-05 0.03669709423112585 0.083046991653309
0.228 -0.09185644110434912 -0.29342268869430754 -3.957989985169812e-05 -4.706481168147563e-06 4.5256998296714894e-05 4.064076860402596e-05 0.043182333948247595 0.08030056742313396
0.229 -0.1100245429072894 -0.2865653364427927 2.267471485866799e-05 2.2609424295445366e-07 -5.823668181076779e-05 -3.379258147714265e-05 0.05002006291703363 0.07586390893955444
0.23 -0.13161641640019575 -0.27901742714692374 -9.813157544448685e-05 -7.277933653493915e-05 0.00014089019008186663 -6.103250366281529e-05 0.056685642020861376 0.07197097162334093
0.231 -0.15115922139972673 -0.27117042041653705 -4.190442650090668e-05 7.91437294346692e-06 8.567381008998366e-06 -6.672726550864868e-05 0.06265777788452428 0.06763926537689849
0.232 -0.1693858121837673 -0.2578959066440572 5.767075587991635e-06 -0.00013250234053694714 0.00013189066114666182 2.174290804667607e-05 0.06829234388547514 0.06238168195000033
0.233 -0.19021431894760973 -0.2477871744524839 4.8613789184492885e-05 -2.8713890970549395e-05 3.313881029626019e-05 -6.792271962964435e-07 0.07329523267702666 0.05604318776955208
0.234 -0.2046636207321995 -0.23311752307293251 6.634209471206456e-06 6.904692143700385e-05 5.2588728442531784e-05 -4.867239551711151e-05 0.0786843840768381 0.050270891257034774
0.235 -0.22266257527523287 -0.2192878577299618 2.4990660754210013e-05 -1.250618729702418e-05 2.0992220831253337e-05 -2.560756312111823e-05 0.08265371405870434 0.0433136931574706
0.236 -0.2396782491640233 -0.2040272648161716 6.723615860291095e-05 5.361315529250464e-05 3.396615657196341e-05 3.8194543941897486e-05 0.08622445901600803 0.03636272991465819
0.237 -0.25170463418951666 -0.1864641696652096 -2.202010870593085e-05 1.4764471398626045e-06 9.435588538171158e-05 1.5764569801904133e-06 0.08930809855720355 0.029124019337536652
0.238 -0.2648635435011698 -0.1695501836425128 -3.248022809040329e-05 6.813207306267732e-05 -5.033096856794451e-05 1.4209813627985037e-06 0.09187311035360003 0.021639030487730162
0.239 -0.27744068390475923 -0.15122631326606295 -0.00012215665991420737 -3.987533664188634e-05 2.8988503979920196e-05 -7.561006605063374e-05 0.09314659938232658 0.013816992805216236
0.24 -0.2885039761144667 -0.1317639954786418 -4.449720247948778e-05 -3.444371150824075e-05 -1.2337690767667974e-05 -1.747511721315553e-05 0.09452830970185963 0.005884701822076758
