!Created with skrf (http://scikit-rf.org).
# GHz S RI R 50.0 
!freq ReS11 ImS11 ReS21 ImS21 ReS12 ImS12 ReS22 ImS22
0.13 -0.17427706817545316 0.05786343486127216 7.719839512643299e-05 -3.809330916098335e-06 -2.6837660932333007e-05 3.8675067239219954e-05 0.03999953061431119 0.03515591093121154
0.131 -0.16909414381384066 0.07314072338824193 6.535282977204062e-05 -2.8503677786328037e-05 -3.6864632932614636e-05 5.27629121307227e-05 0.04342267294490387 0.031358841170098746
0.132 -0.16393387397238707 0.08857517166965788 0.00012314435039173323 4.160534612114955e-05 1.0769259059485497e-06 -5.6813509674190445e-05 0.04704201850351678 0.026906942972627933
0.133 -0.15645398558266035 0.10315627433198407 6.909676610529932e-05 -9.347884677995283e-05 3.876335201835537e-06 -0.00011435661249557592 0.0495867375060196 0.0220349179158901
0.134 -0.14812967175637531 0.11895306212127785 -1.627055901718149e-05 3.747560637236458e-05 7.417503118771153e-05 -4.012655201840337e-05 0.0521617917351272 0.017404663923642618
0.135 -0.1375031320109319 0.13152286235837574 0.00015823979473993596 -6.74969048803033e-05 -6.59648408350924e-05 -2.8223604557514622e-05 0.05392337190510598 0.01200033403788102
0.136 -0.12631336520843475 0.14363722519493052 2.967163738781526e-05 -0.00013806593895111802 -3.128564359791452e-05 -0.0001841775590641276 0.05543081726432142 0.0063703405383279225
0.137 -0.11364637035368483 0.15604017119847552 -2.7010019183584606e-05 -0.00022235981014166636 9.373308529704485e-06 -5.328612718334202e-05 0.056235679481843485 0.0005297333177045976
0.138 -0.10151276727959632 0.16598381548351188 6.214901784572585e-05 1.428464827261823e-05 -0.00017528887795050863 7.936474821012312e-05 0.056554249162620224 -0.005287020517783577
0.139 -0.0860742719697253 0.17574797151666507 -3.176093669407473e-05 5.747369848986093e-05 2.6997929630469483e-05 4.9578811580293284e-05 0.056010987152654235 -0.010791857545227622
0.14 -0.07043580606780585 0.18439278587937974 5.0822501966840655e-05 -0.00012059803382339303 -1.9573454410759296e-05 3.438778898397185e-05 0.05482679760928331 -0.01670707100785534
0.141 -0.05673597769735249 0.1900614486115612 6.928778890706313e-05 1.6557730649359728e-05 3.632350190995853e-06 2.200082065547654e-05 0.05335405632734149 -0.022201255098354182
0.142 -0.03734289613630343 0.19610695904267753 -2.9295695684056616e-05 -0.00010102151228375175 -0.00011284387496926347 -7.367606182678691e-05 0.051021552694437 -0.02764391956944179
0.143 -0.02203505461953272 0.19832646654300623 -6.763634548750413e-05 -3.5891934820579865e-05 3.850511333909193e-05 -2.114427068839392e-05 0.04834202015179108 -0.033086435030718155
0.144 -0.0042686212811254625 0.2006458220836067 1.9120822143245718e-05 0.00011883567579344067 6.554180289248599e-05 -9.058665002328157e-05 0.04493527342205048 -0.03790922883559784
0.145 0.013376306982258904 0.20197300664307055 1.201162179548438e-05 -7.088764435622791e-05 -4.697065038747475e-05 -6.259813296181955e-05 0.04112195641969086 -0.042658630532229014
0.146 0.03223373662050482 0.2014706173838663 1.2449418227090188e-05 0.00015132413954240746 -3.564392863924045e-05 -6.061528683836005e-05 0.037047819946434614 -0.046869930457741044
0.147 0.04853119394162927 0.19944931196715462 2.6771499216915953e-05 2.0736008980552216e-05 8.198345160651685e-05 -0.00020705006509660437 0.03205993763390167 -0.0504719697199347
0.148 0.06592073430415123 0.19612716647052153 2.456238471861717e-05 -5.437790417976101e-05 3.493327760470086e-05 1.297218904976758e-05 0.027177049751377677 -0.05372675941818466
0.149 0.08286726165061482 0.18892385617564775 2.55534562962449e-06 -3.477122185271444e-05 -6.530964670940248e-05 -2.0601843449914947e-05 0.02144346008629013 -0.05654086303390861
0.15 0.10088329936054041 0.182115398126579 7.961070401055874e-06 -0.00012222855657122815 1.1705742002462406e-05 1.765927658760952e-05 0.015809636468847595 -0.058809869461884164
0.151 0.1158972212033211 0.17368305696068964 6.059434690904911e-06 1.4367639855390184e-05 -3.957395744111263e-05 -2.301310987001975e-06 0.009888265540023384 -0.06025009610239247
0.152 0.13108316774569678 0.1638290211748857 -7.923366463901066e-05 -8.160234156412277e-05 -6.137171166532055e-05 8.703583217455931e-07 0.0038366064820827294 -0.06095458798998595
0.153 0.1462297881090238 0.15271193865041785 1.7576364799504104e-05 -5.3192239798860776e-05 -7.610266483183661e-05 -0.00013472523621461697 -0.002222826999083231 -0.06184017515689649
0.154 0.15772255083707787 0.13928254291297318 -0.00011287126383527388 -9.27856927682723e-05 1.5363882409706495e-06 3.924008167778341e-05 -0.008341878081427079 -0.061045761955765145
0.155 0.17159360343774624 0.1273441092975543 5.327657375786039e-05 -7.379871503136287e-05 -3.259157739664261e-05 6.555876388175819e-05 -0.014918007528604555 -0.060129664690988516
0.156 0.18100063383821988 0.11177207574652227 -5.0203261071169125e-05 2.1398943559922653e-05 1.3300220553773254e-05 0.0001608604720130967 -0.020259438742955604 -0.058798612289082036
0.157 0.19044613113421113 0.0959113528771567 1.3474023002323641e-05 7.898187200641191e-06 2.943146428269962e-05 -6.405990489932533e-05 -0.026594199831401173 -0.05655758234212615
0.158 0.2006973065846708 0.07942844837334277 -8.860057272614238e-06 -7.425100405638852e-05 7.948305028080887e-05 2.0688739407233974e-05 -0.03176674441508931 -0.053594475138941396
0.159 0.20761058703409688 0.0633607330133113 -0.00015342260400201839 -0.00012556097316460008 -5.4128533450934746e-05 -5.0572351135819595e-05 -0.03739864774485229 -0.050939744083470295
0.16 0.21311555071801236 0.045206102621882654 -0.000238858428108847 2.3361086774065657e-05 6.422693420002024e-05 -1.1026062824423614e-05 -0.042455172233662256 -0.04708664782522292
0.161 0.2176460627275299 0.027431778075227703 2.3889457685735024e-06 -0.0001484634015265531 1.3135324599791902e-05 5.696621372934778e-05 -0.04682263590452347 -0.04272919182174629
0.162 0.22025798932791676 0.008667589725195981 0.00011542701776733386 -5.560022574921714e-05 -7.779553013104065e-05 -2.1654595955872406e-05 -0.05164311949691992 -0.03797468594891135
0.163 0.22019419187365122 -0.010801928381829135 5.539386978081085e-06 -8.868278944465844e-05 -0.00013136938906585933 -4.9219111652074716e-05 -0.05516697617764992 -0.03286165400751708
0.164 0.22063892392453388 -0.029676286590475342 -7.685564746614584e-05 -0.00011182566096770877 1.5748468143020398e-05 3.9450401459212773e-05 -0.0583441620469486 -0.027487723798090984
0.165 0.21883686469201494 -0.04908269479571355 -0.00011378745153105084 2.1378259361670027e-05 3.6943821073880065e-05 -7.594307280433568e-05 -0.0609306728878235 -0.021352542544762536
0.166 0.2152247964507379 -0.06750537911643752 -4.048372874277305e-05 9.192125890087816e-05 -9.52164813486165e-05 -2.067352464516407e-05 -0.06325332415209185 -0.01564263195127817
0.167 0.2088736590701162 -0.08703177047211355 -6.403470831599962e-05 1.4811170172846591e-05 1.6406907639136235e-05 -6.506699456324177e-05 -0.06455370550186931 -0.009081407830149999
0.168 0.20235517008653328 -0.10514662958002513 5.3015256149361995e-05 -6.3303731933098e-05 2.3287949750602703e-05 4.341549444170286e-05 -0.06569057228626499 -0.0027065930418428506
0.169 0.19326389178848705 -0.12252150255151281 -6.214872015941505e-05 -1.1290835037400917e-05 5.688719567464258e-05 9.189537504301894e-06 -0.06607135853722912 0.004004927465072474
0.17 0.18228984552056318 -0.14075664268997562 -5.35828654116067e-05 6.442639295257777e-05 3.165788119160693e-06 -4.182900264657048e-05 -0.0655345146748008 0.01038880767210229
0.171 0.1712148849217036 -0.15576582137602663 1.9113646879964574e-05 2.753216373152426e-05 6.150829027244201e-06 -3.4028848824585244e-06 -0.06436958230474511 0.016975256025515723
0.172 0.15762835826451113 -0.17098854956746995 -7.826827079640032e-05 2.0013991694249312e-05 6.523628468681248e-05 8.395782289832565e-05 -0.06279476624839161 0.023497521504767707
0.173 0.14203698012317117 -0.18601046564727042 -0.0001364708112518327 5.388629790718914e-05 -3.6521666596034464e-06 -1.4042860978715459e-05 -0.06050266459562952 0.029775100794254734
0.174 0.1272221388653615 -0.1988450867323883 5.2196886832234126e-05 6.606308496905785e-05 9.017037231983902e-05 -3.2662775405472334e-05 -0.057535920029164835 0.035734633435727255
0.175 0.10964189290017348 -0.20936390359013438 -3.958358441904463e-05 8.168067906497289e-05 -2.2213634154080104e-05 3.629377483739793e-05 -0.05414537281475254 0.04154720583494193
0.176 0.09031147193395263 -0.2195963325853589 8.565070344083772e-06 -2.5814521337013223e-05 7.506408271059954e-06 -6.015136335114154e-05 -0.0497520850628443 0.04680208825982586
0.177 0.07081314333452265 -0.22888182744051944 -2.958128804281841e-05 -8.05045786829052e-05 0.00015201917307038938 3.745984715784787e-05 -0.04509721507993191 0.05220819594863961
0.178 0.05142810874775212 -0.23546950484016896 2.875683009073982e-05 -1.019932686306586e-05 2.0349340451471242e-05 -5.110723377928934e-05 -0.04009813937760035 0.056377966277860216
0.179 0.028766858806033222 -0.2399658399373415 -8.013957743309585e-05 4.32720138506331e-05 -5.412326277016946e-05 4.6880457471920593e-05 -0.03446772571854969 0.06063181325399245
0.18 0.008743041879573778 -0.24323586201711456 -5.474773195434938e-05 -2.072498873750291e-05 -1.5652600897824106e-05 4.0818002972338346e-05 -0.028201436585230163 0.06402158544285709
0.181 -0.012651702665381837 -0.24459947183277728 2.8313711209100718e-05 -7.096574960157066e-06 1.6373318823421684e-05 -0.00012104995342767606 -0.02196275927930331 0.06691079069579481
0.182 -0.03516812888217656 -0.24255036277919836 6.504150261961047e-05 7.088811348361782e-05 5.200256016808405e-05 -4.38805839641183e-05 -0.014917871078100095 0.06907083749334231
0.183 -0.05631802337489085 -0.24064439598831183 5.8591029834991196e-05 0.00019583724738377867 2.345818182933473e-05 -3.737629701642734e-05 -0.008000943327011798 0.07078107251542708
0.184 -0.07965686334123993 -0.2365675268892712 0.00014592567372821792 0.0001193341504278845 -6.097532206043358e-05 -3.0505054796936025e-05 -0.0006614285901612132 0.07186203790937214
0.185 -0.09958415951922599 -0.22779518945988675 4.983335170930578e-06 3.008152272530672e-05 -0.00010589795660609161 -6.226202122548289e-05 0.006312783476266881 0.07153749696849686
0.186 -0.11880820451684422 -0.21924504933752295 -6.396533164964685e-05 1.905180012551341e-05 6.608952140651529e-05 -3.67032607638155e-05 0.01389201398705006 0.07113157095549962
0.187 -0.13938493776548241 -0.2083274672068387 7.659003475984964e-05 7.80650637992857e-06 7.614663604614296e-06 -6.00851841488234e-05 0.021107730008973428 0.06983989352532192
0.188 -0.15849287098821066 -0.19599546282022384 2.4689873703204542e-05 5.059985215290315e-05 8.860450807839425e-05 8.190728070988894e-06 0.027731002366594277 0.06753384540595582
0.189 -0.17693228217645976 -0.18187398066620525 0.00010865550688552075 -4.49566897188943e-05 9.446800274094128e-05 -0.00010847121074872973 0.03465060495814145 0.06456179121973545
0.19 -0.19314179026569883 -0.1658259723631309 9.071434927947684e-05 5.760779813661818e-06 4.748199722161218e-05 -3.427069235779369e-05 0.04204576247114506 0.06112784728704939
0.191 -0.2079731054806303 -0.14808920762799252 -3.986910957913419e-05 -3.237547956365762e-05 -7.302863017202768e-06 5.232490321630394e-05 0.04766375414842828 0.05700047197985043
0.192 -0.22107228782644756 -0.12953221392455055 7.483965481663633e-05 -8.826984914881976e-05 0.00014528364049833103 8.37339951232243e-06 0.053374893273963483 0.05174080760707543
0.193 -0.2320946749305572 -0.11019889793919836 -4.505581240607735e-05 4.219937338240819e-05 0.00010199547212172963 -7.44280262640602e-06 0.05923051572009812 0.046468093415850134
0.194 -0.2419171134552129 -0.08969791687971915 3.7821693212273096e-05 -5.389367245190414e-05 8.165428128724754e-05 -4.816277809940492e-06 0.06375346053463284 0.04015255307981416
0.195 -0.24889820050396555 -0.06767516788440034 0.00013480282266978513 -2.7103078283428444e-05 -2.893384622660414e-05 1.648475608565832e-05 0.06835439117228834 0.033422351732097864
0.196 -0.2550654600502096 -0.04551302450855248 4.0389206730981315e-05 -9.20808113059665e-05 4.148599621128501e-05 8.157202625540227e-05 0.07120773523185911 0.026940730993998616
0.197 -0.2591279410254085 -0.02334737939257205 1.297662064197368e-05 1.4886849183366763e-05 -0.00011100253888764807 -0.00012402700297889537 0.07422510407125059 0.019259367310909607
0.198 -0.261077871151261 -7.119794638513671e-05 1.418032157899358e-05 -0.00011952965722848716 8.507993503623984e-05 -0.00010119799848545727 0.07602130457407616 0.011442277272618194
0.199 -0.2605856206773416 0.02297731750507673 5.9606985358845406e-05 6.098831090833722e-05 -5.940812590690893e-05 -7.154949282609782e-05 0.07714109290077975 0.0035931786587790385
0.2 -0.25878206996838754 0.04613979537018245 0.00015523057993373186 -1.9652385867493303e-05 9.506659870136863e-05 1.2007564275850469e-05 0.07757846082123407 -0.004234454677713565
0.201 -0.25462761486170055 0.06852504852776421 5.563579040403503e-05 -0.00012087838368130347 1.7170063752147706e-05 5.4638275193828365e-05 0.07690908572026896 -0.01214290885437685
0.202 -0.24829272588383106 0.09048620076754123 -6.590402571580966e-05 4.656288714999744e-05 7.906244084068296e-05 -2.8235802235481726e-05 0.07567722910997715 -0.020053167405193167
0.203 -0.2402925613591396 0.11213005028697624 -0.0001372348966525969 -4.069154043207354e-05 -7.289171516720148e-05 -8.029150399514172e-05 0.07353046680593177 -0.027884001782448334
0.204 -0.23018823822137113 0.1335277253688645 -4.4185098374041755e-06 6.791001160027841e-05 0.00010582984259111924 -0.00016345116280358434 0.0706065411444558 -0.03519410775317293
0.205 -0.21897368205425946 0.15372784004457302 -3.8513257968095575e-06 -0.00014707619843104728 7.831666858310225e-05 0.00010110465358912846 0.06673240903573903 -0.042471670254750064
0.206 -0.20572608661668534 0.1720518417405018 9.003884984847623e-06 -3.9728525985914684e-05 -7.612135964053947e-05 5.836051685995907e-05 0.06234551421794 -0.04935633813642496
0.207 -0.19059855016741445 0.1883251439268465 8.094116984493489e-06 -2.0531691450515084e-05 -9.3851971937551e-05 -2.8497636059187564e-05 0.05724910032622072 -0.0556745957028679
0.208 -0.17414611706368308 0.20765423934197444 -3.530152746727324e-05 6.602515708905337e-06 -3.845764971134993e-05 -6.747901228595399e-05 0.05159472552753117 -0.0610515798737422
0.209 -0.15618455661429478 0.2228605788604602 1.8179999406498107e-05 -7.264165867298536e-05 -5.537888923935826e-05 -0.00011453282070355983 0.04494085845189189 -0.06648569361263841
0.21 -0.1376284184293561 0.2359583789128469 -2.7366468396941234e-05 -1.03767625610585e-05 6.976921637114704e-05 -2.286939668964278e-05 0.03847151837964169 -0.07066603609321508
0.211 -0.11685605455547386 0.24790169618076607 6.079906691001486e-06 1.4402467656617502e-05 3.503960845565744e-05 -2.736248013897158e-05 0.030890721041426088 -0.07479304518954649
0.212 -0.09489450981507884 0.2585247151528196 4.504081204172652e-05 7.063613325567274e-05 -3.528855816202006e-05 -6.085300641636783e-05 0.023565951931523027 -0.07772468272000524
0.213 -0.07292436766885395 0.2649901536088138 -7.173272672955499e-05 4.41464490591283e-05 -7.823551792125094e-05 -2.858417663600818e-05 0.015398336775017724 -0.07959414184394864
0.214 -0.05049303807179624 0.2750515594122719 -6.886753490085611e-05 -0.00013333471339088508 -2.3618381892676073e-06 0.00013745782379468777 0.007318937933149519 -0.08135556152114203
0.215 -0.026197521979620435 0.278234110967064 -0.00014091728331580783 -9.211492462031005e-05 -3.806757749531786e-05 -0.00011539065588234482 -0.0013927772905325956 -0.08236661271701276
0.216 -0.00042264558712083565 0.28178374065569173 -7.643959642877787e-05 -9.131784126474266e-06 -3.287916432349026e-05 4.2184097013279654e-05 -0.009167370328284963 -0.08220449188212137
0.217 0.022203191495966446 0.2816273388471886 -7.718308798959447e-05 -0.00011821531329016884 -7.018994312034659e-05 -5.773164567104808e-05 -0.01707248136652153 -0.08119028749763453
0.218 0.04768071027320906 0.28220950104499765 -6.803351984478449e-05 -3.1939392958561585e-05 -4.832060472958916e-05 1.1003118478788574e-05 -0.02582486460012411 -0.07907699108518143
0.219 0.07432594910921314 0.27967505449993285 6.515853005115481e-05 -3.6177510325791814e-05 -4.257939989698303e-05 -4.079430019895219e-05 -0.033668508796876634 -0.07639032216956494
0.22 0.09694843665608448 0.27288672890718996 0.00010386175183964707 1.597407359201917e-05 -2.447203413483305e-05 5.373780847093073e-05 -0.040752638289143765 -0.07282729319227331
0.221 0.12188278466391374 0.2650016973681192 -1.9758011555916132e-05 -2.2094495219084556e-05 3.29877339688034e-05 -2.4516947668280205e-06 -0.047959683483056265 -0.06862289370721657
0.222 0.14274031108073496 0.25451472245922396 -4.3338193893645535e-05 -9.673508103424006e-05 8.087227358282159e-05 -2.056682221429061e-05 -0.054824109916579294 -0.06362651161645362
0.223 0.16716307582291393 0.24263859636827648 -0.00012081280827328517 3.256598886792584e-05 -7.738073535382907e-05 9.067628326503442e-05 -0.06169418176050034 -0.058258481203586884
0.224 0.18881559143709328 0.22677437304787348 -0.00021188226428200325 -8.239650623612546e-05 3.4858914559538185e-05 -4.2754343235346345e-05 -0.06709733898346751 -0.05193767828398981
0.225 0.21018993942629793 0.21195997407443545 -3.442696402288728e-05 0.00011532785578124249 1.4095795066021339e-05 -3.2195769028931436e-05 -0.0726348490022365 -0.04503003002199291
0.226 0.22833481758516025 0.19480107623101642 0.00012664789371116407 0.0002215878560329978 -5.2305877962339936e-05 -6.739247609996817e-05 -0.07680439714745574 -0.03828018483845329
0.227 0.24594137980681555 0.1737890414491742 9.122669002245536e-05 -4.845695759808812e-06 0.00010557955133686718 -2.802877482862184e-05 -0.08031130262806913 -0.03015204496872293
0.228 0.2613578509572044 0.150800008166544 -4.848006823841462e-05 -9.533380767283944e-06 4.8229596572428354e-05 6.176578048147207e-05 -0.08355772553274535 -0.022450293383048676
0.229 0.27532981310832044 0.1299916757358102 -8.34679978493362e-05 0.00010519838374726894 -1.4797733898204414e-05 -5.608147928970713e-05 -0.08524712165537478 -0.01401466037427482
0.23 0.28691518772139496 0.10619875649112563 -4.032458440975755e-05 -2.5473677912762023e-05 2.4362487129120358e-05 -0.0001180553702426734 -0.08713440224385548 -0.005174352753738484
0.231 0.2968671538050134 0.0803783542765245 -0.00013223463260005874 0.00012253772002384776 0.00013898574038793135 -2.21139657299069e-05 -0.08723378479106256 0.0029629094728181988
0.232 0.302634051808047 0.05437365177149243 7.278881927134163e-05 9.604793063979813e-05 -1.2263774560705113e-05 6.896628859500135e-06 -0.08698899211540032 0.01181452119779395
0.233 0.30958726780310947 0.027153170186103928 -6.110867344105669e-05 7.489744038124914e-05 -1.4416884259764424e-05 3.2132911115409115e-05 -0.08585095350319087 0.020351171017547562
0.234 0.3094475381143774 0.0006601120242665858 9.638852197021113e-05 0.0001334694494114809 -1.6441386144972233e-05 2.4899195118500875e-05 -0.08384834978850561 0.029024851578452214
0.235 0.31039692857748097 -0.02735213641485874 -7.592215770522618e-05 0.00010213613755361219 8.047695424755377e-06 3.6060993711737676e-06 -0.0807952706199127 0.03738079503691501
0.236 0.3081434012638078 -0.05477003784832014 -4.4665434232210695e-05 4.282793528164942e-05 3.0678850715110146e-05 -9.74862514940491e-05 -0.07713570215539742 0.04498421193955105
0.237 0.30249456918390616 -0.08101725787853976 7.842287297304192e-07 -1.2207291829391632e-05 5.0365801061257546e-05 -7.595370815844655e-05 -0.0727468436866999 0.05285367571654579
0.238 0.2955204940970916 -0.106836801507528 -9.125270152372889e-05 1.0132329898098021e-05 -5.49787946940644e-07 2.443265074917444e-05 -0.0672178312596107 0.06006010718465942
0.239 0.28475238348545723 -0.13257546941053597 -5.415413088646604e-05 -3.2559187982315855e-05 -1.3303973139607353e-05 -0.00012946497100495242 -0.06135488561094087 0.06628262574967084
