!Created with skrf (http://scikit-rf.org).
# GHz S RI R 50.0 
!freq ReS11 ImS11 ReS21 ImS21 ReS12 ImS12 ReS22 ImS22
0.13 8.871637571773893e-05 0.0033272600394441826 2.678479052231854 3.8750976623583147 0.0014887689234418802 0.001514672387476214 0.0008085140622271072 -0.0002900373237859093
0.131 0.0005242381591588446 0.0035208947209143756 3.015148409642179 3.636150026492155 0.0013962574203818293 0.0015692130826216817 0.0006578602727361601 -0.0004531922150057999
0.132 0.0007455940851686588 0.0034913549322982095 3.3239832451031095 3.340339988033298 0.0016809129275263083 0.001356250065648521 0.000624456805925709 -0.0005742881877187892
0.133 0.0011654540389419914 0.003503005660613709 3.608598323654533 3.035947851710449 0.0018398145075930788 0.0012411530632360493 0.0006522200768594524 -0.0007012393595438227
0.134 0.0014817714393463243 0.0035054438325737266 3.8728394256422094 2.7188803428711443 0.0018734692697615432 0.0011540014390187428 0.0005903930725960698 -0.0007762415337187581
0.135 0.0018725174838718326 0.003431990021619182 4.073490379589134 2.348314319754994 0.0021284087800204333 0.0010028473015462537 0.00050412522787049 -0.0007116723235014269
0.136 0.002196515941303535 0.003150874416368345 4.2704783469457235 1.9912681438352227 0.0022289310924673606 0.0009435705457459322 0.0005078698887797915 -0.0009712396987333823
0.137 0.00242864941997288 0.00300771771118991 4.43922985284947 1.6121496249839378 0.002262597500167804 0.000725538851118297 0.0003192195015161131 -0.0010350273659975242
0.138 0.0026554173893243325 0.0027312589097780193 4.554917611744523 1.2204032870223052 0.0023111078178690704 0.00062253262229122 0.0002876225140027502 -0.0009029830271477852
0.139 0.002882533692412274 0.002279584776370506 4.63579035601808 0.8270318125948379 0.0022936868715853383 0.00039283965885753724 0.0002069639583968732 -0.0009720593926716338
0.14 0.0029524443695735513 0.0018851620221585574 4.692377973052816 0.4009010575880037 0.0025237251814394968 0.0003750187136466838 -6.875626474930851e-05 -0.0009277949198404753
0.141 0.0031456764914759815 0.0015393626957288077 4.709937364508339 -0.014901516168633975 0.0025055212706477726 0.00027603075946644527 -2.4090907417314623e-05 -0.0010330252511837519
0.142 0.0030707268227930687 0.0011989631614345599 4.686104307006599 -0.4248341408603912 0.0025152341898914345 0.00011921480983914358 -0.0001588366113730982 -0.0011114807476774998
0.143 0.0032903184314899865 0.0008908711427960417 4.624936102640885 -0.8363653893473382 0.0025831581156773938 -0.00015484974815383625 -0.00027210604757907326 -0.0010227619509002351
0.144 0.003130241839222807 0.0004937308985671561 4.530233502593706 -1.2284910386572554 0.002610774772588061 -0.00015832516578272892 -0.00038279698881708466 -0.0009367737230556776
0.145 0.003049995093122602 0.00011050306081322924 4.406898793858865 -1.6251934793634915 0.0026259168753273686 -0.000440808201820466 -0.0005029231038291093 -0.0008366169582738128
0.146 0.002834696865958842 -0.00033839936001931067 4.235808814944856 -2.000208831034537 0.0025903939747113315 -0.0006399051786514174 -0.00040748951855365225 -0.0007209232115075441
0.147 0.0025902451623742613 -0.0005045923470583903 4.045592415982645 -2.3763535713604074 0.0026512594552957165 -0.0008798190883380583 -0.000642266992759857 -0.0005586217576372246
0.148 0.0021981857683223264 -0.0007397962685254546 3.8227766785686055 -2.7165490809117703 0.002624857666584182 -0.0009108728910502494 -0.0005724739626977979 -0.0006054073126264467
0.149 0.0019536655217216935 -0.0010790201035700134 3.563327022946233 -3.0335087976133166 0.0025482997025134523 -0.0011716764778536175 -0.0007680867844905578 -0.0004322153153133707
0.15 0.0015228938461566135 -0.001224044965790854 3.2850835090282273 -3.3290499558050874 0.0024281960387753606 -0.0013124072771249112 -0.000657526759890281 -0.00022720721040161334
0.151 0.0010517424946570363 -0.0013221290176629865 2.980312900820509 -3.608887038726375 0.002363206781830354 -0.0016082250301812184 -0.0005652525758924936 -0.0002908317108941271
0.152 0.0006534852290616528 -0.0013030044775289254 2.6499887899996595 -3.8532245634156768 0.002329573473774564 -0.00182006227095139 -0.0006219326646702592 -0.00020442467539880295
0.153 0.0003340428831789691 -0.0013571028905804664 2.2942958410199052 -4.063553285109631 0.0022520198820365827 -0.0019063437764244204 -0.0005238204741860586 -6.82357746661666e-05
0.154 -0.0001397462339140628 -0.0010493137815550033 1.9228348785629454 -4.253812128195043 0.0021232210645324274 -0.001968330230304559 -0.00045293251451574193 3.9128653179919605e-05
0.155 -0.0005101080108106699 -0.0008901076922712782 1.5540491225986186 -4.403759943860925 0.0020275596844556245 -0.002246591369048676 -0.00030520420165205134 8.50889497828757e-05
0.156 -0.0009773901647667888 -0.0006608103658249524 1.16895622724585 -4.516207567576365 0.001858620456434438 -0.0023439775553956155 -0.00036949384252736784 0.00018390841088226695
0.157 -0.0012075126273862 -0.0003453579135820331 0.7431724081460077 -4.59284975279628 0.001897293041903739 -0.002503735842110725 -0.00018900641252471775 0.0002114153739252175
0.158 -0.0015817226451220513 5.156433387360953e-05 0.3567382355378564 -4.633749129689016 0.001687313628267204 -0.002624599125321965 -0.0001119160685154096 0.0003046403413452876
0.159 -0.0018314550700511154 0.0003206180309526792 -0.039385885739140404 -4.658769062954291 0.0015009658557243236 -0.002876860675583165 8.914553128278434e-05 2.897353830826808e-05
0.16 -0.0018869984229241674 0.0009092286947177895 -0.4555706053531831 -4.609377352252107 0.0012476196614550088 -0.0027455842899737717 0.00016563512652979328 2.4086575270359014e-05
0.161 -0.0020478271665229186 0.0014293313601428993 -0.8714616810785362 -4.578196843665574 0.0011214620657277793 -0.00303094380529666 0.0003193274351327338 1.807402886822597e-05
0.162 -0.002108006272825064 0.0017658904163660313 -1.2600196776929782 -4.487595069476595 0.0009675872370746504 -0.0031663793663596995 0.0003538616614353941 -9.855034014811807e-05
0.163 -0.0019819451546029343 0.002379068297102237 -1.6475520930725072 -4.343276031045461 0.0006040281976887541 -0.0031256552605489875 0.00037917289569005326 -5.722288105368489e-05
0.164 -0.001831039336783463 0.0028797852825746323 -2.0299320459723016 -4.151914782399511 0.00045689979962584414 -0.0033016273400591 0.0004390226617048883 -0.0001896214858740671
0.165 -0.0016790234580893386 0.0032947137588390865 -2.3858166262094316 -3.993449427279871 0.00025905800015570786 -0.0034105282813560634 0.00036986895937531094 -0.00030316399961607374
0.166 -0.001467597083886654 0.0036909846961658177 -2.722846036426071 -3.768708079235056 -2.6048884265037643e-05 -0.003381151948118857 0.0005624807992079205 -0.0005132007972710504
0.167 -0.001023129260359848 0.004143236217473849 -3.0146961351508876 -3.4910190352594204 -0.00025023423382465745 -0.003389193212239433 0.00043269790540027006 -0.0005196138294120808
0.168 -0.0005015247693431876 0.004494428075385469 -3.3627868797317175 -3.2138998661198275 -0.00039505876201594145 -0.003454820850815926 0.0005815841451531241 -0.0007018543148173836
0.169 -0.0001487481169246695 0.004846913533819851 -3.6189691557572035 -2.922421974598949 -0.000568949473678738 -0.003354928145005315 0.00044450340346996524 -0.0009170729195199783
0.17 0.0003756715618631846 0.0052589876337861535 -3.839868624908352 -2.594597356477301 -0.000781490426385591 -0.0034712774723052848 0.00027309236340189284 -0.0009934128944910322
0.171 0.0009656240371752366 0.005254008529092934 -4.060008560945197 -2.2476055872142493 -0.0011216660006888681 -0.0034393626933716006 0.00022357897076921455 -0.000998507930315599
0.172 0.0016091459911583123 0.005421525561824271 -4.242781202800479 -1.8931686053553645 -0.0013356814201723722 -0.003368579916569807 0.00010217423345700793 -0.0012337051133116802
0.173 0.002269719733554065 0.005255232832171735 -4.393687877101792 -1.4814410569476983 -0.001660675961475759 -0.003283573571600489 2.920614388788206e-05 -0.0012167763809246915
0.174 0.002757824435472941 0.005180321512590068 -4.498622818446672 -1.100806000348511 -0.001864984238898527 -0.003157740241302408 -4.573356573924155e-05 -0.0013173631152257716
0.175 0.0033208834137187842 0.004964556046026189 -4.579366573913485 -0.717621458102914 -0.0020522712149501432 -0.0030354694851406267 -0.0002636871476377913 -0.0014221874050464268
0.176 0.0037288128027039044 0.004662586882069677 -4.618423684648451 -0.3185222049490969 -0.0022905286992184757 -0.003059116212967638 -0.0005346457504649068 -0.0012600241140788202
0.177 0.0042679048758943045 0.004441610890743645 -4.630161314492367 0.10482039320040923 -0.0024939706074720187 -0.0029176468104847434 -0.0005889819190274696 -0.0013048772875073394
0.178 0.004832556078036478 0.003911963144611501 -4.598686947459586 0.5017345075477191 -0.00276196153350208 -0.0027604555278336745 -0.0007414470753044287 -0.0012923503428619598
0.179 0.005169370026995787 0.0035148006764399403 -4.529481167267172 0.8791601217192657 -0.0028876074948289937 -0.002565991908373246 -0.0008238016224422481 -0.0012628808794034826
0.18 0.00541646397425472 0.0029821519347459887 -4.436621441179461 1.2715260610181471 -0.0032279206259527996 -0.0024337930843777887 -0.000981427878330056 -0.001120952667597761
0.181 0.005723448106087346 0.002506509758828776 -4.301195425193125 1.6584804448997121 -0.0032960239739063236 -0.002157114411105128 -0.0011861483254587888 -0.0010088779643464734
0.182 0.0058142217024247525 0.0018654088214727213 -4.143617772474258 2.030778183610882 -0.003355297482483074 -0.0019819715347508967 -0.0012440603647178397 -0.0007932694850806813
0.183 0.005877669098099015 0.0013567557944244362 -3.952017316303328 2.384156257428316 -0.003713026806929027 -0.001645871587771178 -0.001348523722017749 -0.0006452453953026696
0.184 0.005816034998291284 0.0007249640326735927 -3.7206162271507144 2.723391076392685 -0.0037207222595828726 -0.0015679891981708102 -0.0015113935347114114 -0.0005977356418559779
0.185 0.005738136933036082 0.0003118184026500281 -3.466252550853177 3.0331392034367886 -0.003881723932253788 -0.0013312586143599937 -0.0013980347658193672 -0.00034877170062113234
0.186 0.00558621924011177 -0.0003640365241630227 -3.1885814077610126 3.339028989056206 -0.0040452989762332445 -0.000998066876003258 -0.0013543571969567355 -0.00023747704483443693
0.187 0.005422687505054239 -0.0008992300044793745 -2.880526954789467 3.5940791082630095 -0.004091500100544591 -0.0008074722497174947 -0.0014335815494147426 -7.454280426275861e-05
0.188 0.004926113910403578 -0.001235935164702814 -2.5596006665649194 3.8301477967897704 -0.004267386520474989 -0.00044322635465491656 -0.0014156649160843126 0.00015562658979185692
0.189 0.004463246967429846 -0.0016407042639975558 -2.2081764528182295 4.041293166303606 -0.004324884064511382 -0.00022310971512956877 -0.001309192467030529 0.00021284905245791676
0.19 0.004021720913223747 -0.0019458505356694717 -1.8421203662592298 4.212219208403196 -0.004358938929187121 0.00012306480793410892 -0.001217221928446207 0.0002973246310236508
0.191 0.0035026838283287276 -0.0019818807849659933 -1.4790345973347052 4.38161674462099 -0.004341658461773656 0.0002524768045944736 -0.001090669606531535 0.00038857107748285774
0.192 0.0030214483352803967 -0.002182803147541552 -1.0783026608948658 4.460628448260654 -0.004220182418142522 0.0006784427780577298 -0.000979646015092022 0.00047433767421553927
0.193 0.002448107917705894 -0.002185319738438459 -0.6948287758283408 4.5515176644096575 -0.004324652429316347 0.001050114339780659 -0.0007526597713605681 0.000391027574814666
0.194 0.0019316403306080744 -0.0022699518907401 -0.29474050226901194 4.578168662458878 -0.004275510124845526 0.0014124377606328639 -0.0007547199801616281 0.0006784357045768471
0.195 0.0014925181017674477 -0.002103941575841719 0.08787562113984715 4.619281405309942 -0.004298855976194095 0.0014162504220440193 -0.0006236541753508833 0.000618910156322814
0.196 0.0010091317583267893 -0.001883934488168517 0.4882159356756764 4.549563226318021 -0.004149701404928204 0.001886346563712948 -0.00043520731141503423 0.0006853018425836728
0.197 0.0006378958984506543 -0.0016090894961709734 0.9296491491607937 4.4725193408182795 -0.004112383894808701 0.0021650619518893206 -0.0003047301039007688 0.000651176188223537
0.198 0.0003172735861705306 -0.0011344350002262303 1.3340495772721135 4.4031748924111325 -0.004038003116185116 0.002516339406691074 -0.00019605127545252064 0.00046610287676238554
0.199 -4.7431420045009694e-05 -0.0006484350339163204 1.6835487355507808 4.266258911732859 -0.003596185887587587 0.002736151401456877 3.676700636395823e-05 0.0005278613212518612
0.2 -0.0003225522443768501 -0.00039478422908991183 2.049485743232507 4.114495392847317 -0.003641928964167533 0.0029001656850415683 5.8571916218270854e-05 0.000372934476843935
0.201 -0.0003977790510425771 0.00011782752293202145 2.372482364154279 3.909429442834272 -0.003526052845711431 0.003267483471624869 8.77035248177614e-05 0.00024035144572775793
0.202 -0.0004764821086585561 0.000775055146507051 2.709616244854883 3.678330856325955 -0.003362275705793335 0.0036026435306118093 0.00012872181999676874 0.00010937090507919107
0.203 -0.0004643071525393695 0.0012252656387668494 3.020532000039796 3.44094260573676 -0.0029614100830816408 0.0038588400022920065 0.000250716422616818 -7.395426251703702e-05
0.204 -0.0004113467563397362 0.0017252963153390017 3.3084869265448944 3.1413520629313485 -0.002788388808513221 0.004001362161820248 0.00019014359720454145 -0.00020426671175597614
0.205 -0.0001037281581090845 0.002300189780084092 3.568657715965958 2.859153789742914 -0.0026237832767452467 0.004183682659919163 0.00010990522783512539 -0.00021466897669821175
0.206 0.00015163616165861463 0.0028055488679879464 3.804851368036636 2.516511375690992 -0.0023086327548535028 0.004547028909207328 8.494593526570929e-05 -0.0004883694184910875
0.207 0.0006707154039830707 0.003238984590357398 3.9962005817083646 2.1576928978049073 -0.001966372658776142 0.004594118010044801 -5.012697047958962e-05 -0.0005467551523900172
0.208 0.0010979359202236004 0.003690855650141099 4.178228721248793 1.8113286853887542 -0.001851825350494592 0.004708662240742611 -0.00013746758942597393 -0.0006489092400780591
0.209 0.0014089558305857967 0.003889214769267168 4.306737164155966 1.4374235852583048 -0.0014859520384123855 0.005005210182846224 -0.00013817683405412945 -0.0007137154252613692
0.21 0.0020700642053825043 0.004077494219017951 4.413775801307902 1.0643095134253957 -0.0010713130125293761 0.005155824862527124 -0.00023495429637846222 -0.0008909385458371854
0.211 0.0025922445064438825 0.004360215035079976 4.5062282411568955 0.6676508842319161 -0.0008848066223698209 0.005217445094169766 -0.00045185026900684496 -0.0009657280103721065
0.212 0.003253235764168898 0.004336227134406243 4.543416810107388 0.28338699281325747 -0.00045366716851149663 0.005259773950598098 -0.0006810711638552962 -0.0009764912291943471
0.213 0.003917537785295273 0.0040858954698780574 4.553329017018425 -0.11123437164059292 -1.062453315658081e-05 0.005373705851320862 -0.0008456925387768968 -0.0010128954959587415
0.214 0.004500631365879278 0.003989212987135753 4.521561822678161 -0.5170210728904359 0.0001576064059574224 0.005300563427735236 -0.0011044236410147738 -0.0009843838252895569
0.215 0.0050990384788484385 0.00365918335928038 4.444228001539558 -0.8974458276399824 0.0006578067360078939 0.005437065160542498 -0.0011731116358696366 -0.0007033534966791785
0.216 0.005669472722047039 0.003402881409398856 4.351121785814081 -1.2977394824676922 0.001119226340825722 0.005459247767184342 -0.0013075941701644156 -0.0006250040911701012
0.217 0.006231270516006044 0.0029266630161281213 4.22228683674186 -1.6639512511760925 0.0014756312541375043 0.005263774018786815 -0.0014113265103266061 -0.0007169265341472752
0.218 0.006730368027780306 0.0025226594041111326 4.055238243728191 -2.0282574356185403 0.0017466700253486388 0.005179143012997163 -0.0015583378734695711 -0.0005018749697697497
0.219 0.006983793539635824 0.0018937739794800104 3.8718543771582272 -2.3834000615720656 0.0022173354776612443 0.005399919894057054 -0.0018547465636361083 -0.00042394201856367893
0.22 0.007223989740627624 0.001450065375226939 3.6395361491449267 -2.7090843655708117 0.0025517427201013883 0.005082377349252148 -0.001831243886034533 -0.000119023021965708
0.221 0.007568691923151659 0.0007381249950835584 3.3904091286938054 -3.013206263054964 0.002778049347275652 0.005053905923896597 -0.001866179371837323 -3.562883127311958e-05
0.222 0.007673234732210838 0.00010686183743961454 3.1100469811824616 -3.3031430380348925 0.0031578213615081597 0.004791503892037693 -0.0019200371214623455 0.0002243316935418898
0.223 0.007689756548841279 -0.0005931975404161301 2.807829940907189 -3.5654636333805456 0.003616952179970698 0.004661174702399512 -0.0019510031759030317 0.00030655471963771363
0.224 0.007645128560104282 -0.0011820340800477776 2.4903347735896597 -3.797827068987495 0.0039412685798933395 0.004445319219917694 -0.001840437498603325 0.0005977169609629213
0.225 0.007626763058601049 -0.0018834880444762014 2.1374416250421437 -3.9946129756506843 0.004100192614180079 0.0041917783521490115 -0.001897896793523313 0.0007731290258027394
0.226 0.007323628583291817 -0.002498572275647946 1.7876012275314068 -4.173300437346212 0.004518369962842364 0.004031692622495927 -0.0017048711402118048 0.0009973692222805255
0.227 0.0069861209735498555 -0.003082213737403369 1.4087962817780684 -4.303857460761871 0.004843389065518824 0.0037109575473515256 -0.0016432158383167337 0.0011535999174954279
0.228 0.006587926708943083 -0.0035909220458903266 1.0177642346614089 -4.402942801814815 0.0051470190298477285 0.0033206044131320954 -0.001569875921005391 0.0012815719274940655
0.229 0.006139878868824856 -0.0041079875135671 0.6279423719982262 -4.488021861265377 0.005343322190751012 0.0030314073011034007 -0.001385300981310575 0.0014337384940408995
0.23 0.005714520068302317 -0.004548079478713042 0.24218273923559808 -4.520861527571975 0.005575246076650006 0.0026960937330372386 -0.0011615444908171322 0.0015257806456374361
0.231 0.005137918772837088 -0.004865726542092073 -0.1511480710813072 -4.513583213998723 0.005902068836964616 0.0024129562078966204 -0.0010901578952152385 0.0016485136784086553
0.232 0.004554808517588963 -0.005063484856250412 -0.5512484427259833 -4.509892121681764 0.006060042209404113 0.0019405180611725286 -0.0007928581665915629 0.0016564453081293936
0.233 0.0038409643619916074 -0.005053984516526083 -0.9301159514431792 -4.417298522077263 0.006323314671100164 0.0016348604357654803 -0.0006726351015887052 0.0016766665915711836
0.234 0.0032570948949305362 -0.005207699927921831 -1.311630672947938 -4.3334370983223325 0.006225213143982036 0.0011653574191702895 -0.00045344355175750865 0.0016708402996330743
0.235 0.0027890058632164118 -0.005186351289653115 -1.6659322631222802 -4.207329366681399 0.0064010542689131545 0.0008415493928433714 -0.0004048133971536226 0.001824229440905899
0.236 0.0021844696904519643 -0.004959997762385015 -2.03785823607232 -4.044408620366649 0.006461586501172631 0.00040101148008612407 -0.00011511078003173917 0.0016773827070872482
0.237 0.0017182301455144853 -0.00483223026672246 -2.39200878717663 -3.8285950579440042 0.0066082217728595455 -1.853154191068027e-05 4.057865052335323e-05 0.0016170417821382939
0.238 0.0012069072631946819 -0.0045956059056974094 -2.721157201233634 -3.605468643974558 0.0066378052846349 -0.00048437321361765776 6.33574206397131e-05 0.0015101857416643498
0.239 0.0008308257284456034 -0.0041094458872076006 -3.007075492936594 -3.3553041024640713 0.006711782710389911 -0.0010718974088884169 0.00027267465948063957 0.0013762212525402968
0.24 0.0004976021663293782 -0.003688298703881914 -3.278988874766653 -3.0694300249348205 0.006612132395198144 -0.001461854895298853 0.00047052190666130057 0.0012119014379988466
0.241 0.00028119647984884176 -0.0033785110653791095 -3.580996701592983 -2.7860050437666235 0.006530692437578276 -0.0019335106522038923 0.00043769306153937186 0.0010411909063308398
